!{201R07S120}
!Johanson Technology Inc.
!www.johansontechnology.com
!Test Board Conditions:
!Substrate Type  RO4350B
!Substrate Thickness        10 mil
!Substrate Dk      3.66
!TL Type: GCPW 
!TL Trace Width  21 mil
!TL Gap  20 mil
!Electrode orientation      Horizontal
!DUT TOPOLOGY	SERIES
!Mounting Pad LxW         16x21 mil
!Agilent Technologies,N5230A,MY45001966,A.07.50.67
!Agilent N5230A: A.07.50.67
! Created Mon Mar  9 15:50:40 2020
# mhz S ma R 50
! 2 Port Network Data from SP1.SP block
! freq  magS11  angS11  magS21  angS21  magS12  angS12  magS22  angS22  
!     
               500       0.283680689            -77.322        0.957700628             12.585        0.956708808             12.551          0.2851542            -77.069
               501       0.283189903            -77.364        0.957696202             12.558        0.957365483             12.567        0.284595327            -77.071
               502       0.282715748            -77.358        0.957414499             12.522        0.957855506             12.487        0.283988007            -77.182
               503       0.282325431              -77.4        0.957524732             12.452        0.957965789             12.482         0.28343273            -77.159
               504       0.281870743             -77.48        0.957304279              12.45        0.958186395              12.43        0.282878539            -77.156
               505       0.281028264            -77.597        0.957304279             12.358        0.958848515             12.357        0.282195445            -77.263
               506        0.28079476            -77.531        0.958162124              12.35        0.958382774             12.382        0.281993436            -77.266
               507       0.280617727            -77.611         0.95777854             12.316        0.959102674             12.342        0.281329388            -77.321
               508       0.279396078            -77.575        0.957679752             12.271         0.95900375             12.272        0.280976699            -77.395
               509       0.278805821            -77.653        0.958411104             12.246         0.95885257             12.207         0.28054455            -77.433
               510       0.278848192            -77.703        0.958556756             12.157        0.959329572             12.196        0.279716337            -77.488
               511       0.278419725             -77.69        0.958958913              12.16         0.95873813             12.223        0.279415182            -77.426
               512        0.27733201            -77.807        0.958517398             12.147        0.959069323             12.079        0.278836742            -77.492
               513       0.276917244            -77.801        0.958958913             12.075        0.959400632             12.083        0.278419725            -77.571
               514       0.276808893            -77.887        0.958804445             12.046        0.959908945             12.082        0.278054571            -77.537
               515       0.276208111            -77.928        0.958597801             12.069        0.960254671             11.964        0.277323344            -77.585
               516       0.275367995            -77.923        0.959430372             11.952        0.959982823             11.977          0.2767346            -77.644
               517       0.275133925            -77.938        0.959387696             11.932        0.960050647             11.928        0.276244821            -77.632
               518       0.274473234            -78.024        0.959842554             11.862        0.959953066             11.856        0.275613191            -77.708
               519        0.27399424             -78.01        0.959713122             11.832        0.960155188             11.875        0.275734706            -77.768
               520       0.273684373            -78.065        0.960284679             11.803        0.959953066             11.786        0.274821053            -77.825
               521       0.273489852            -78.113        0.960375817             11.781         0.96103945             11.808        0.274341315            -77.929
               522       0.272552393            -78.153        0.960174129             11.764        0.960727008             11.708        0.273747398            -77.869
               523       0.271934128            -78.168        0.960536153             11.717        0.960646746             11.697        0.273472535            -77.882
               524       0.271733226            -78.272         0.96071096             11.669        0.961264149             11.648        0.273018921            -78.008
               525       0.271414706            -78.276        0.960911467             11.596         0.96113275             11.655         0.27235376            -77.964
               526       0.270738489            -78.232        0.960063591             11.586        0.961390884             11.608        0.271988161            -78.012
               527       0.270533743            -78.388        0.961216997             11.525        0.961659756             11.556        0.271469749            -78.106
               528       0.269991443            -78.364        0.961058889             11.539        0.961501575             11.523        0.270894383            -78.158
               529       0.269192809            -78.402        0.961309986             11.501        0.961752788             11.495        0.270653379            -78.138
               530       0.268224283            -78.404        0.961165319             11.415         0.96171877              11.45        0.270176824            -78.195
               531         0.2683771            -78.431        0.961159486             11.429        0.962045154             11.398        0.269677961            -78.191
               532       0.267935128            -78.457         0.96178867             11.378        0.961677946             11.374        0.269357862            -78.232
               533       0.267556335            -78.529        0.961424618             11.333        0.962532137             11.354        0.268574786            -78.276
               534       0.267023817            -78.525        0.961722994             11.321        0.961944465             11.334        0.268194582            -78.262
               535       0.266345838            -78.626        0.961492532             11.264        0.962821801             11.268        0.267760133            -78.351
               536       0.266312522            -78.561        0.962258128             11.277        0.962479721             11.253        0.267449375            -78.385
               537       0.265709367            -78.669        0.962291976             11.229        0.963067805             11.219        0.266935826            -78.479
               538       0.265185638            -78.697        0.962165986             11.135        0.962830857             11.138        0.266440353            -78.474
               539       0.264786211            -78.737        0.962488093             11.118        0.963153186             11.157        0.265855326            -78.483
               540       0.264058408            -78.834        0.962276766              11.09        0.963274359             11.087        0.265582833            -78.527
               541        0.26384119            -78.783        0.962371154             11.074        0.963590694             11.064        0.264936989            -78.578
               542       0.263357017            -78.891        0.963263033             11.032        0.963263033             10.971        0.264450805            -78.605
               543       0.262983328            -78.865        0.963115155             11.026        0.963558788             10.988        0.264197204            -78.638
               544       0.262076533            -78.853        0.962782383             10.958         0.96344768             10.974        0.263893161            -78.625
               545       0.261979897            -78.959        0.962870691             10.932        0.964090864             10.942        0.263098255            -78.662
               546       0.261498774            -79.037        0.963761686             10.857        0.963428872             10.887        0.263099278            -78.737
               547       0.260855501            -79.024        0.963385266             10.871        0.963496186              10.81        0.262210453             -78.72
               548       0.260456708            -79.022        0.963685992              10.79        0.963907915             10.823        0.261869878            -78.794
               549       0.260225589            -79.062        0.963496186             10.747        0.964384008             10.788         0.26127629            -78.869
               550       0.259572305            -79.086        0.963736602             10.771        0.964402558             10.749        0.260980677            -78.856
               551       0.259348008             -79.13        0.964124051             10.707        0.964235056             10.753        0.260725145             -78.87
               552       0.258631554            -79.184        0.964453978             10.644        0.964453978              10.69        0.259974953            -78.975
               553       0.258372476             -79.19        0.964153644             10.639        0.964708816             10.638        0.259654735            -78.981
               554       0.258338908            -79.176        0.963695474             10.616        0.965138898             10.651        0.258874826             -78.96
               555       0.257774131            -79.219        0.964471349             10.542        0.964804523             10.605        0.258695772            -79.034
               556       0.257128372            -79.309        0.964050979             10.528        0.964606091             10.509        0.258107129            -79.086
               557       0.256613833            -79.335        0.964895018             10.457        0.964895018             10.549        0.258006154            -79.107
               558       0.256058935             -79.31        0.964250636             10.487        0.965250275              10.49        0.257596486             -79.08
               559       0.255799682            -79.385        0.964828225             10.424        0.964939312             10.486        0.257039578             -79.16
               560        0.25544591            -79.468        0.965270321             10.379        0.965381458             10.438        0.256624995            -79.181
               561       0.255171085            -79.486         0.96434284             10.376        0.966120863             10.393        0.256142392            -79.242
               562       0.254507157            -79.534        0.965272648             10.313        0.966050879             10.372        0.255593615             -79.34
               563       0.254126526            -79.493        0.965161523             10.281        0.965828463             10.322        0.255123227             -79.28
               564       0.253730797            -79.619        0.965546478             10.252        0.966102451             10.267        0.254696621            -79.325
               565       0.253303515            -79.676        0.965920128             10.274        0.966253802             10.299        0.254414123            -79.306
               566       0.252726044            -79.601        0.965717274             10.227        0.966050879             10.242        0.254009524             -79.42
               567       0.252112057            -79.731        0.966147905             10.165        0.965925466              10.19        0.253918075            -79.429
               568       0.251822874            -79.666        0.965928935             10.127        0.966262613             10.179        0.253334989            -79.463
               569       0.251496356            -79.757        0.965565404             10.131        0.966788991             10.145         0.25303564            -79.478
               570       0.250812975            -79.801        0.965606099              10.04        0.966273346             10.055        0.251883663            -79.548
               571       0.250697498            -79.799        0.965717274             10.059        0.966718434             10.047        0.251709728            -79.533
               572       0.250437869            -79.756        0.966829738             10.034        0.966384599             10.059        0.251246488            -79.605
               573       0.249919418            -79.915        0.966384599              9.978        0.966273346              9.987        0.250957396            -79.615
               574       0.249545648            -79.986        0.966829738              9.909        0.966829738              9.958        0.250841853            -79.712
               575       0.249315914            -79.887        0.966718434               9.95        0.966384599              9.968        0.250236121            -79.707
               576       0.248857079            -79.951        0.966829738              9.868         0.96738645              9.939        0.249948192            -79.783
               577       0.248080815            -80.078        0.966369425              9.827        0.968039728              9.891         0.24954173            -79.878
               578       0.247685168            -80.016        0.967163727              9.823        0.967163727              9.812        0.248971709             -79.82
               579         0.2472578            -80.039        0.967275082              9.758        0.967497831               9.82        0.248685234            -79.854
               580       0.247143959             -80.19         0.96783205              9.756        0.967497831              9.755        0.248313311            -79.905
               581       0.246291827            -80.078         0.96738645              9.764        0.967609225               9.78        0.247628143            -79.861
               582       0.246008436            -80.167        0.967052384              9.713        0.967609225              9.701        0.247400174            -79.932
               583       0.245753663            -80.176        0.967720631              9.637        0.968054928              9.735         0.24688801            -80.033
               584       0.245160219            -80.232        0.967163727              9.606        0.968166386              9.645        0.246802753            -79.979
               585       0.244765385            -80.266        0.967163727              9.625         0.96783205              9.597        0.245923482            -80.061
               586       0.244145038            -80.275        0.968050251              9.569        0.968050251              9.603         0.24609223            -80.069
               587       0.244237935            -80.314        0.967527058              9.536        0.968753132              9.591        0.245563107            -80.065
               588       0.244061907            -80.406        0.968054928              9.486        0.968835402              9.508        0.245019134            -80.174
               589       0.243416492            -80.377        0.968054928              9.482        0.968166386              9.523        0.244568207            -80.181
               590       0.242858162            -80.459        0.968060956               9.44        0.969176119              9.469        0.244232078            -80.216
               591        0.24265591            -80.512        0.968591991               9.42        0.969149718               9.45        0.243916328            -80.233
               592       0.242186538             -80.53        0.968612345              9.346        0.969058511               9.41        0.243584697            -80.294
               593       0.241880022            -80.534        0.969170084              9.362        0.969058511               9.42        0.243024467            -80.313
               594       0.241351499            -80.564        0.968835402              9.281        0.968835402              9.347         0.24266101            -80.375
               595       0.240796406            -80.546        0.968723867              9.306        0.968723867              9.317         0.24224231             -80.32
               596         0.2404086            -80.624        0.968500836              9.298        0.969839794              9.249        0.241629525            -80.394
               597       0.239993788            -80.604        0.968277856               9.26        0.969393269               9.27        0.241462671            -80.371
               598       0.239800453            -80.711        0.969058511              9.176        0.969393269              9.194        0.241129308            -80.502
               599       0.239359131            -80.676        0.969058511              9.213        0.969058511              9.188        0.240768685            -80.463
               600       0.238891116            -80.742         0.96928167              9.134         0.96928167               9.15        0.240353251            -80.496
               601       0.238891116            -80.756         0.96928167              9.138        0.969393269              9.173        0.239938533            -80.524
               602       0.238259376            -80.845         0.96928167              9.083        0.969728144              9.077         0.23955211            -80.609
               603        0.23796315             -80.79        0.969638185              9.059        0.970084823              9.077        0.239281824            -80.582
               604       0.237388331            -80.869        0.970084058              9.001         0.97019575              9.067        0.238868767            -80.687
               605       0.236646453            -80.951        0.969951458              8.965        0.969728144              8.973        0.238424017            -80.669
               606        0.23659197            -80.932        0.969616506              8.971        0.969728144              8.994        0.238040032            -80.721
               607       0.236265332            -80.923        0.969839794              8.953        0.970063134              8.968        0.237656666            -80.675
               608       0.235911982            -80.951         0.97039824              8.901        0.970509967              8.921        0.237273917             -80.81
               609       0.235504928            -80.982         0.97039824              8.851        0.969951458              8.909        0.236946337            -80.806
               610       0.234746973            -81.017        0.970174823              8.885        0.969728144               8.87        0.236537499            -80.744
               611       0.234530862            -81.065        0.969951458              8.844         0.97039824              8.799        0.235911982            -80.755
               612       0.233991456            -81.051        0.969839794              8.779        0.970063134              8.851        0.235857668            -80.847
