!{201R07S0R1}
!Johanson Technology Inc.
!www.johansontechnology.com
!Test Board Conditions:
!Substrate Type  RO4350B
!Substrate Thickness        10 mil
!Substrate Dk      3.66
!TL Type: GCPW 
!TL Trace Width  21 mil
!TL Gap  20 mil
!Electrode orientation      Horizontal
!DUT TOPOLOGY	SERIES
!Mounting Pad LxW         16x21 mil
# mhz S ma R 50
!Agilent Technologies,N5230A,MY45001966,A.07.50.67
!Agilent N5230A: A.07.50.67
! Created Thu Mar  5 16:51:37 2020
! 2 Port Network Data from SP1.SP block
! freq  magS11  angS11  magS21  angS21  magS12  angS12  magS22  angS22  
!     
               500       0.998908195        -5.45766328       0.0350933955         84.3394173       0.0352059523         84.4264998        0.999359891        -5.50804459
               501       0.998878626        -5.47155104       0.0351706593         84.3308897        0.035271129         84.4073331        0.999359256        -5.51705945
               502       0.998848721         -5.4854388       0.0352479094         84.3223621       0.0353362923         84.3881663        0.999358284        -5.52607431
               503       0.998818523        -5.49932657       0.0353251475         84.3138346       0.0354014438         84.3689996        0.999357019        -5.53508917
               504       0.998788072        -5.51321433       0.0354023749          84.305307       0.0354665848         84.3498329        0.999355499        -5.54410404
               505       0.998757399        -5.52710209       0.0354795925         84.2967794       0.0355317163         84.3306661        0.999353756         -5.5531189
               506       0.998726531        -5.54098985       0.0355568013         84.2882518       0.0355968393         84.3114994        0.999351819        -5.56213376
               507       0.998695492        -5.55487761        0.035634002         84.2797243       0.0356619546         84.2923327        0.999349709        -5.57114862
               508       0.998664301        -5.56876537       0.0357111955         84.2711967       0.0357270629         84.2731659        0.999347446        -5.58016349
               509       0.998632976        -5.58265313       0.0357883822         84.2626691       0.0357921647         84.2539992        0.999345048        -5.58917835
               510       0.998648891        -5.59324951       0.0358591747         84.2540853        0.035867903         84.2533567        0.999342814        -5.59730093
               511       0.998686262        -5.60234633       0.0359270536         84.2454758       0.0359484871          84.261154        0.999340587        -5.60501698
               512       0.998723489        -5.61144314       0.0359949291         84.2368663       0.0360290682         84.2689513        0.999338214        -5.61273302
               513       0.998760542        -5.62053996          0.0360628         84.2282568       0.0361096449         84.2767485        0.999335666        -5.62044907
               514       0.998797385        -5.62963678       0.0361306649         84.2196473       0.0361902161         84.2845458        0.999332907        -5.62816512
               515       0.998833968        -5.63873359       0.0361985222         84.2110378       0.0362707798         84.2923431        0.999329887        -5.63588117
               516        0.99887023        -5.64783041       0.0362663694         84.2024284       0.0363513338         84.3001404        0.999326544        -5.64359722
               517       0.998906086        -5.65692723       0.0363342034         84.1938189       0.0364318749         84.3079376        0.999322796        -5.65131327
               518       0.998941426        -5.66602404       0.0364020201         84.1852094       0.0365123989         84.3157349        0.999318529        -5.65902932
               519       0.998976096        -5.67512086       0.0364698139         84.1765999       0.0365929001         84.3235322        0.999313591        -5.66674537
               520       0.999009888        -5.68421767       0.0365375769         84.1679904       0.0366733707         84.3313294        0.999307775        -5.67446142
               521       0.999042518        -5.69331449       0.0366052986         84.1593809          0.0367538         84.3391267        0.999300795        -5.68217747
               522       0.999060442        -5.70107098       0.0366712493         84.1493098       0.0368271351         84.3401017        0.999294873        -5.69141606
               523       0.999055855         -5.7065936       0.0367343178         84.1368027       0.0368887157         84.3297062        0.999292716        -5.70319224
               524       0.999051234        -5.71211622       0.0367973816         84.1242956       0.0369502918         84.3193106        0.999290523        -5.71496841
               525       0.999046578        -5.71763884       0.0368604407         84.1117885       0.0370118631         84.3089151        0.999288296        -5.72674458
               526       0.999041889        -5.72316146        0.036923495         84.0992814       0.0370734299         84.2985196        0.999286035        -5.73852075
               527       0.999037166        -5.72868407       0.0369865447         84.0867743        0.037134992         84.2881241        0.999283741        -5.75029692
               528       0.999032411        -5.73420669       0.0370495897         84.0742672       0.0371965495         84.2777286        0.999281413        -5.76207309
               529       0.999027623        -5.73972931         0.03711263         84.0617601       0.0372581024         84.2673331        0.999279054        -5.77384927
               530       0.999022804        -5.74525193       0.0371756656          84.049253       0.0373196508         84.2569375        0.999276662        -5.78562544
               531       0.999017953        -5.75077455       0.0372386966         84.0367459       0.0373811945          84.246542        0.999274239        -5.79740161
               532       0.999013071        -5.75629717        0.037301723         84.0242388       0.0374427337         84.2361465        0.999271785        -5.80917778
               533       0.999008159        -5.76181978       0.0373647447         84.0117317       0.0375042684          84.225751          0.9992693        -5.82095395
               534        0.99900014        -5.76793665        0.037428758          83.998726       0.0375662352         84.2146907        0.999267076        -5.83248847
               535       0.998944639        -5.78304386       0.0375078003         83.9781769       0.0376347676         84.1935731        0.999268309        -5.84036696
               536       0.998887816        -5.79815107       0.0375867804         83.9576278       0.0377032393         84.1724555         0.99926821        -5.84824545
               537       0.998830097        -5.81325828        0.037665714         83.9370788        0.037771666         84.1513379        0.999267207        -5.85612394
               538        0.99877175         -5.8283655       0.0377446111         83.9165297       0.0378400578         84.1302203        0.999265566        -5.86400244
               539        0.99871295        -5.84347271       0.0378234781         83.8959807       0.0379084212         84.1091027        0.999263463        -5.87188093
               540       0.998653813        -5.85857992       0.0379023194         83.8754316       0.0379767604         84.0879851        0.999261014        -5.87975942
               541       0.998594421        -5.87368713       0.0379811378         83.8548826       0.0380450785         84.0668674          0.9992583        -5.88763791
               542       0.998534829        -5.88879435       0.0380599356         83.8343335       0.0381133776         84.0457498        0.999255377        -5.89551641
               543       0.998475079        -5.90390156       0.0381387142         83.8137844       0.0381816593         84.0246322        0.999252287         -5.9033949
               544       0.998415204        -5.91900877       0.0382174749         83.7932354       0.0382499247         84.0035146        0.999249062        -5.91127339
               545       0.998355224        -5.93411598       0.0382962184         83.7726863       0.0383181747          83.982397        0.999245724        -5.91915188
               546        0.99829516         -5.9492232       0.0383749455         83.7521373       0.0383864099         83.9612794        0.999242291        -5.92703038
               547       0.998325064        -5.96171031       0.0384438808          83.749071       0.0384596153         83.9482643         0.99923938        -5.93673573
               548        0.99838489        -5.97332405       0.0385095566         83.7518323       0.0385344821           83.93795        0.999236573        -5.94705003
               549       0.998444602        -5.98493779       0.0385752328         83.7545936       0.0386093501         83.9276357        0.999233646        -5.95736433
               550        0.99850417        -5.99655153       0.0386409083         83.7573549       0.0386842181         83.9173214        0.999230572        -5.96767863
               551       0.998563557        -6.00816527       0.0387065817         83.7601162       0.0387590845         83.9070071        0.999227311        -5.97799293
               552       0.998622709        -6.01977901       0.0387722507         83.7628775       0.0388339474         83.8966928        0.999223811        -5.98830724
               553       0.998681553        -6.03139276       0.0388379125         83.7656388       0.0389088037         83.8863785        0.999219997        -5.99862154
               554       0.998739981         -6.0430065       0.0389035629         83.7684001       0.0389836492         83.8760642        0.999215762        -6.00893584
               555       0.998797832        -6.05462024       0.0389691954         83.7711615       0.0390584775         83.8657499        0.999210945        -6.01925014
               556       0.998854857        -6.06623398       0.0390348003         83.7739228       0.0391332787         83.8554356        0.999205298        -6.02956444
               557       0.998910658        -6.07784772       0.0391003618         83.7766841        0.039208037         83.8451213        0.999198422        -6.03987875
               558       0.998964575        -6.08946146       0.0391658537         83.7794454       0.0392827263          83.834807        0.999189657        -6.05019305
               559       0.999003138        -6.10054321       0.0392339047         83.7714167       0.0393544109         83.8243503        0.999179825        -6.06270833
               560       0.999023866        -6.11093957       0.0393053262         83.7494868       0.0394222978         83.8137103        0.999170568        -6.07805921
               561       0.999043219        -6.12133593       0.0393766958          83.727557       0.0394901325         83.8030703        0.999159934        -6.09341009
               562        0.99906094        -6.13173229        0.039448003         83.7056272       0.0395579046         83.7924302        0.999147668        -6.10876096
               563       0.999076787        -6.14212865       0.0395192379         83.6836974       0.0396256041         83.7817902        0.999133526        -6.12411184
               564       0.999090572        -6.15252502       0.0395903927         83.6617675       0.0396932231         83.7711502        0.999117322        -6.13946272
               565       0.999102209        -6.16292138       0.0396614635         83.6398377       0.0397607579         83.7605102        0.999098969         -6.1548136
               566       0.999111731        -6.17331774       0.0397324511         83.6179079       0.0398282093         83.7498701        0.999078502        -6.17016447
               567       0.999119285         -6.1837141        0.039803361         83.5959781       0.0398955827         83.7392301        0.999056065        -6.18551535
               568       0.999125093        -6.19411046       0.0398742017         83.5740482       0.0399628867         83.7285901        0.999031884        -6.20086623
               569       0.999129411        -6.20450682       0.0399449829         83.5521184       0.0400301311           83.71795        0.999006212        -6.21621711
               570       0.999132489        -6.21490318       0.0400157143         83.5301886       0.0400973257           83.70731        0.998979299        -6.23156798
               571        0.99913301        -6.22547202       0.0400867266         83.5088884       0.0401650212         83.6950661        0.998956207         -6.2468781
               572       0.999121858        -6.23724819        0.040159956         83.4919957       0.0402364751          83.671595        0.998966073        -6.26190287
               573       0.999109785        -6.24902436       0.0402331487          83.475103       0.0403078922         83.6481239        0.998975017        -6.27692764
               574       0.999096764        -6.26080054       0.0403063033         83.4582103       0.0403792711         83.6246527        0.998983013        -6.29195241
               575       0.999082784        -6.27257671       0.0403794192         83.4413176       0.0404506113         83.6011816        0.998990051        -6.30697718
               576       0.999067856        -6.28435288       0.0404524967         83.4244248        0.040521913         83.5777105        0.998996141        -6.32200195
               577       0.999052005        -6.29612905       0.0405255366         83.4075321        0.040593177         83.5542393        0.999001308        -6.33702672
               578       0.999035274        -6.30790522       0.0405985403         83.3906394       0.0406644049         83.5307682        0.999005595        -6.35205149
               579       0.999017716        -6.31968139       0.0406715099         83.3737467       0.0407355985         83.5072971        0.999009054        -6.36707626
               580       0.998999392        -6.33145757       0.0407444477          83.356854       0.0408067603          83.483826        0.999011748        -6.38210103
               581       0.998980368        -6.34323374       0.0408173562         83.3399613       0.0408778928         83.4603548        0.999013741         -6.3971258
               582       0.998960708        -6.35500991       0.0408902378         83.3230685       0.0409489984         83.4368837        0.999015098        -6.41215057
               583       0.998940477        -6.36678608       0.0409630952         83.3061758       0.0410200797         83.4134126        0.999015884        -6.42717534
               584        0.99891865        -6.37625471       0.0410327285         83.3023405       0.0410865965         83.4033281        0.999025383        -6.43336355
               585       0.998895153        -6.38518908       0.0411015645         83.3015283       0.0411520052         83.3963431        0.999035599        -6.43750585
               586       0.998870226        -6.39412346       0.0411703439          83.300716       0.0412173573          83.389358        0.999044387        -6.44164815
               587       0.998843985        -6.40305783       0.0412390712         83.2999038       0.0412826571          83.382373        0.999051861        -6.44579045
               588       0.998816553         -6.4119922       0.0413077514         83.2990916       0.0413479095         83.3753879        0.999058145        -6.44993275
               589       0.998788059        -6.42092658       0.0413763894         83.2982794       0.0414131197         83.3684029        0.999063367        -6.45407505
               590       0.998758627        -6.42986095       0.0414449902         83.2974672       0.0414782926         83.3614178        0.999067653        -6.45821735
               591       0.998728373        -6.43879532       0.0415135584          83.296655       0.0415434328         83.3544327        0.999071116        -6.46235965
               592       0.998697402        -6.44772969       0.0415820982         83.2958428       0.0416085444         83.3474477        0.999073863        -6.46650195
               593       0.998665807        -6.45666407       0.0416506133         83.2950305       0.0416736314         83.3404626        0.999075986        -6.47064425
               594       0.998633669        -6.46559844        0.041719107         83.2942183       0.0417386968         83.3334776        0.999077567        -6.47478655
               595       0.998601058        -6.47453281       0.0417875822         83.2934061       0.0418037436         83.3264925        0.999078676        -6.47892885
               596       0.998595524        -6.48578145       0.0418522435         83.2847161       0.0418742831         83.3176398        0.999076508        -6.48839056
               597        0.99861707        -6.49934435       0.0419130903         83.2681482       0.0419503149         83.3069194        0.999071065        -6.50317169
               598       0.998638156        -6.51290725        0.041973918         83.2515804       0.0420263276         83.2961991        0.999065162        -6.51795281
               599       0.998658726        -6.52647015       0.0420347243         83.2350125       0.0421023188         83.2854787        0.999058743        -6.53273394
               600       0.998678719        -6.54003305       0.0420955063         83.2184447       0.0421782858         83.2747583        0.999051746        -6.54751507
               601       0.998698066        -6.55359596       0.0421562612         83.2018768       0.0422542255         83.2640379        0.999044103        -6.56229619
               602       0.998716694        -6.56715886       0.0422169856         83.1853089       0.0423301348         83.2533176        0.999035741        -6.57707732
               603       0.998734525        -6.58072176       0.0422776762         83.1687411       0.0424060101         83.2425972        0.999026582        -6.59185844
               604       0.998751479        -6.59428466       0.0423383295         83.1521732       0.0424818478         83.2318768        0.999016545        -6.60663957
               605       0.998767477        -6.60784756       0.0423989418         83.1356054       0.0425576445         83.2211564        0.999005553        -6.62142069
               606       0.998782444        -6.62141046         0.04245951         83.1190375       0.0426333966          83.210436        0.998993529        -6.63620182
               607       0.998796313        -6.63497336       0.0425200308         83.1024697       0.0427091011         83.1997157        0.998980408        -6.65098294
               608       0.998808835        -6.64715432       0.0425831859          83.087709       0.0427823036         83.1892837        0.998967669        -6.66406319
               609       0.998819743        -6.65332716       0.0426579821         83.0808051       0.0428448173         83.1801057        0.998960831         -6.6697487
               610       0.998830143            -6.6595       0.0427327649         83.0739013       0.0429073161         83.1709276        0.998953483        -6.67543421
               611       0.998839997        -6.66567284       0.0428075326         83.0669975       0.0429697984         83.1617496        0.998945587        -6.68111972
               612        0.99884927        -6.67184568       0.0428822835         83.0600936       0.0430322625         83.1525716        0.998937109        -6.68680523
