!{201R07S4R7}
!Johanson Technology Inc.
!www.johansontechnology.com
!Test Board Conditions:
!Substrate Type  RO4350B
!Substrate Thickness        10 mil
!Substrate Dk      3.66
!TL Type: GCPW 
!TL Trace Width  21 mil
!TL Gap  20 mil
!Electrode orientation      Horizontal
!DUT TOPOLOGY	SERIES
!Mounting Pad LxW         16x21 mil
!Agilent Technologies,N5230A,MY45001966,A.07.50.67
!Agilent N5230A: A.07.50.67
! Created Mon Mar  9 15:10:34 2020
# mhz S ma R 50
! 2 Port Network Data from SP1.SP block
! freq  magS11  angS11  magS21  angS21  magS12  angS12  magS22  angS22  
!     
               500       0.590812942            -56.354        0.801770365             33.184        0.802139679             33.155        0.591425438            -56.612
               501       0.589929345            -56.422        0.802416776             33.097         0.80315617             33.147        0.590404964            -56.678
               502       0.589318399            -56.534        0.802693969             33.041        0.803896245             33.044        0.589725626             -56.75
               503       0.588437037            -56.566        0.803988802             32.976         0.80408137             32.943        0.588708085            -56.827
               504       0.587489353            -56.595        0.803711162             32.914         0.80454437             32.951        0.588030699            -56.845
               505       0.586543194            -56.701        0.805563908             32.845        0.805007636             32.834        0.587354094            -56.934
               506       0.585531144            -56.783        0.805285724             32.769        0.805656657             32.805        0.586408153            -57.018
               507       0.585194182            -56.832        0.805193017             32.713        0.807142099             32.773        0.585733414            -57.029
               508       0.584722762            -56.884        0.806027761              32.61        0.807885847             32.696        0.584790084             -57.12
               509       0.583646654            -56.912         0.80723503             32.595        0.807978864             32.641        0.584251721            -57.167
               510       0.582639602            -57.013        0.806770482             32.534        0.808816496             32.548        0.583377937            -57.218
               511         0.5824384            -57.047        0.808444108             32.433        0.809748216             32.519        0.582907979            -57.349
               512       0.581232647            -57.111        0.808257978             32.399        0.809561786             32.457        0.581366496            -57.335
               513       0.580630707            -57.154        0.809468587             32.446        0.809841447             32.377        0.580630707            -57.374
               514       0.579695595            -57.275        0.809654996              32.25        0.810774349             32.329        0.580096173            -57.499
               515        0.57896192            -57.292        0.809841447             32.244        0.811428019             32.247        0.579161921            -57.549
               516       0.578229174            -57.353        0.811054429             32.218        0.811895249             32.166        0.579095246            -57.578
               517        0.57729793             -57.39        0.810774349             32.125        0.812269227             32.143        0.577696851             -57.62
               518       0.576700065            -57.534        0.811895249             32.032        0.813111306             32.034        0.576899284            -57.719
               519       0.576036496            -57.625        0.811988727             32.001        0.814141701             31.986        0.576434545              -57.8
               520       0.575174998            -57.598        0.812830516             31.925        0.813766861             31.962        0.575307453            -57.837
               521       0.574116462            -57.732        0.813017699             31.819        0.815267256              31.87        0.574579332            -57.924
               522       0.573389849            -57.747        0.814047974             31.827        0.815361123             31.815        0.574248673             -57.94
               523       0.573191841            -57.713        0.815267256             31.772        0.815642787             31.788        0.573455867            -58.045
               524        0.57200523            -57.842        0.814985722             31.671        0.816770418             31.762        0.572730089            -58.102
               525       0.571215522            -57.925        0.815642787             31.656        0.816676389             31.634        0.571281289            -58.104
               526       0.570755362            -58.006        0.816394368              31.53        0.817617164             31.548        0.570821076            -58.256
               527       0.569508224            -58.034        0.816394368             31.492        0.817805449             31.499        0.570361234            -58.273
               528       0.569377105            -58.087        0.817428923              31.45        0.818464788             31.499        0.569442661            -58.326
               529       0.568525567            -58.186        0.818276351             31.379         0.81959632             31.379        0.568591025            -58.412
               530       0.567871404              -58.2        0.818841792             31.327        0.819030359             31.414        0.567871404             -58.46
               531       0.566826309            -58.315        0.818747525             31.239        0.820162673             31.269        0.567022118            -58.551
               532       0.565783138            -58.373        0.819218969             31.221        0.820823913             31.204        0.566369685            -58.568
               533       0.565457541            -58.372        0.820068254             31.169        0.821485685             31.198        0.565783138            -58.604
               534       0.564351911            -58.462        0.820823913             31.077        0.821580268             31.104        0.564871938            -58.729
               535       0.563378151             -58.48        0.821202003                 31         0.82224265             31.036        0.564286941            -58.801
               536       0.563053938            -58.571        0.821674861             30.992        0.822810831             31.022        0.563767453            -58.782
               537       0.562665128            -58.605           0.822432             30.949        0.823379405             30.986        0.562794701            -58.825
               538       0.561435668            -58.634         0.82224265             30.891        0.823474206             30.932        0.562341325             -58.89
               539        0.56085423            -58.717        0.822810831             30.815        0.824612664             30.867        0.561047976            -58.919
               540       0.560208895            -58.783        0.824138115             30.783        0.824897524             30.791        0.560725104             -58.98
               541       0.559499883            -58.903        0.824707606             30.661         0.82603795              30.72         0.55982205             -59.11
               542       0.559113528            -58.919        0.824992499             30.629         0.82603795             30.696        0.558727439            -59.124
               543       0.558213069             -59.01        0.825277491             30.576        0.826513592             30.604        0.558213069            -59.193
               544       0.557378227            -59.001         0.82537251             30.527        0.827179952             30.576        0.557634969            -59.245
               545       0.556544634            -59.024        0.826323302             30.492        0.827084725              30.51        0.557121604            -59.284
               546       0.555922987            -59.134        0.827303063             30.391        0.828256079             30.444        0.556435247            -59.367
               547       0.555136777            -59.151         0.82727519             30.378        0.828132826             30.407        0.555264617            -59.389
               548       0.554178918            -59.253         0.82756097             30.279        0.828991352              30.28        0.554561863             -59.47
               549       0.553477537            -59.318        0.827656252             30.247        0.829086799             30.283        0.553732482            -59.531
               550       0.553095341            -59.387        0.828895916             30.159        0.829564197             30.236        0.552904341            -59.633
               551       0.551886791            -59.471        0.828800492             30.099        0.830998041             30.136        0.553031667            -59.704
               552       0.551061411            -59.445        0.829468695             30.112        0.830233016             30.129        0.551696209            -59.665
               553       0.550997972            -59.543        0.830424206                 30        0.831668016             30.035        0.551188312            -59.763
               554       0.550427343            -59.573        0.830806719             29.976        0.832051102             30.014        0.550300617            -59.827
               555       0.548971755            -59.616        0.831380818             29.922        0.831763771             29.939        0.549604146            -59.883
               556       0.548845364            -59.696        0.831668016             29.856        0.833297349              29.89        0.549224624            -59.938
               557       0.548213846            -59.738        0.832530207             29.792        0.833201417             29.856        0.548466366            -59.958
               558       0.547520015            -59.771        0.833297349             29.731        0.833969178             29.809        0.547456983            -60.032
               559       0.546575298            -59.842        0.833393291               29.7        0.833777171             29.753        0.546890022            -60.063
               560       0.545695032            -59.932        0.833777171             29.589        0.834833754             29.628        0.545946392            -60.178
               561       0.544816184            -59.986        0.833777171             29.551        0.835218297             29.597        0.545255431            -60.243
               562       0.544064012            -60.042        0.834545462             29.509        0.835795445             29.567        0.544941647             -60.25
               563       0.543813519            -60.115        0.835122145             29.458        0.835314461             29.456        0.543500565            -60.328
               564       0.542875197            -60.205        0.835506821             29.376        0.837143674             29.386        0.543500565            -60.407
               565       0.542063294            -60.194        0.835603018             29.368        0.836469288             29.375         0.54200089            -60.438
               566       0.541127992            -60.284        0.836758244             29.295        0.836854585             29.312        0.542312981            -60.473
               567       0.540878851            -60.321        0.836950937             29.215        0.837625712             29.281        0.540754323            -60.595
               568       0.540007759            -60.397         0.83724006               29.2        0.838011542             29.195        0.540194303             -60.57
               569       0.539448513            -60.423        0.838108027             29.163        0.838783734              29.17        0.539945592            -60.595
               570       0.538331757            -60.491        0.838494079             29.068        0.839556638              29.09        0.539262226            -60.727
               571       0.538331757            -60.505        0.838494079             29.032        0.839943358             29.056        0.538083903            -60.774
               572       0.537279166            -60.594        0.838976894             28.991        0.840427007             28.994        0.537341026            -60.788
               573       0.536660956            -60.622        0.840040065             28.885        0.840620545             28.926        0.536722745            -60.902
               574       0.535796658            -60.681        0.840040065             28.857        0.840814127             28.884        0.536352118            -60.908
               575       0.534995341            -60.723        0.840620545              28.84        0.840814127             28.844        0.535118542            -60.963
               576       0.533887804            -60.789        0.840330255             28.732        0.841104584             28.804        0.534379759            -61.015
               577       0.533641996            -60.851        0.841685799             28.686        0.842170452             28.756         0.53401075            -61.094
               578       0.532966608            -60.914        0.841588902             28.647        0.842364391             28.632        0.532966608            -61.164
               579       0.532169524            -60.975        0.841976558             28.624        0.842849435             28.599        0.532414654            -61.162
               580       0.531740819            -60.962        0.842849435             28.512        0.842849435             28.567        0.531618395            -61.259
               581       0.530701115            -61.065        0.843237671             28.496        0.844014679             28.521        0.531373632            -61.281
               582       0.530090474             -61.12        0.843043531             28.445        0.844500673             28.445        0.530640019            -61.381
               583       0.529358633            -61.193        0.844695149             28.356        0.844597905             28.403        0.530334646            -61.418
               584       0.528928105            -61.237        0.844688621             28.313        0.846051196             28.341        0.529781323            -61.485
               585       0.528262765            -61.267        0.844792404             28.315        0.845765567             28.281        0.528627802            -61.539
               586       0.527594185             -61.32        0.845862945             28.228        0.846155146             28.215         0.52795876            -61.586
               587       0.526501969            -61.387        0.846350003             28.172        0.846447448             28.176        0.527411992            -61.662
               588        0.52589616            -61.386        0.845960334             28.137        0.846837341             28.164        0.526198978            -61.658
               589        0.52517011            -61.451        0.846252569              28.07         0.84732496             28.131        0.525654032            -61.722
               590       0.524565833            -61.528        0.846837341             28.063        0.847520087             28.049        0.525351528            -61.752
               591       0.523721014            -61.546        0.848008099             28.005        0.847520087             28.006        0.524384686            -61.836
               592       0.522576649            -61.617        0.847422518             27.907        0.848203382             27.898        0.523419623            -61.889
               593       0.522937757            -61.671        0.848398711              27.87        0.849571627             27.924        0.523299115            -61.934
               594       0.522215791            -61.734        0.848789503             27.842        0.849473822              27.81        0.522396189            -61.967
               595       0.521194711              -61.8        0.848789503             27.783        0.849571627             27.788        0.521554864             -62.05
               596       0.520714894            -61.808        0.849962959             27.728        0.849865109             27.752        0.521014728            -62.086
               597       0.519397674            -61.875        0.850452378             27.623        0.850648225             27.683        0.520595009            -62.178
               598       0.518680595            -61.919        0.850256577             27.599        0.850256577             27.663        0.519816427             -62.19
               599       0.518382104            -61.952        0.851138038              27.57        0.851236035             27.591        0.519218311             -62.26
               600       0.517726029            -62.032        0.851334043             27.541        0.851726187             27.548        0.518620883             -62.25
               601       0.517308959            -62.098        0.851530092              27.45        0.852314742             27.499        0.517785638            -62.353
               602       0.516000355            -62.141        0.851628134             27.401        0.852412874             27.436        0.517130318            -62.413
               603       0.515822165            -62.182        0.852511017             27.333        0.853100114             27.409        0.516238036              -62.5
               604        0.51487286            -62.277        0.852609171             27.334        0.852609171             27.324        0.515347294            -62.493
               605       0.514458089            -62.294         0.85388621             27.244        0.853787909             27.288        0.515465971            -62.556
               606       0.513570418            -62.331         0.85329657             27.216        0.853984523             27.236        0.514517321            -62.599
               607       0.513215778            -62.401         0.85427953             27.189        0.854869849             27.148        0.513925302            -62.686
               608       0.512507234            -62.417        0.854771434             27.158        0.855066713             27.172        0.513215778            -62.654
               609       0.511681836            -62.496        0.855756093             27.072        0.855460576             27.062        0.513274868            -62.753
               610       0.511093079             -62.49        0.855263622             27.022        0.856347433              27.09        0.511799668            -62.777
               611       0.510681353            -62.584        0.855756093             26.945        0.857037845             26.979        0.511034241            -62.851
               612        0.50962415            -62.687        0.855953161             26.911        0.856347433             26.938           0.510505            -62.896
