!{201R07S300}
!Johanson Technology Inc.
!www.johansontechnology.com
!Test Board Conditions:
!Substrate Type  RO4350B
!Substrate Thickness        10 mil
!Substrate Dk      3.66
!TL Type: GCPW 
!TL Trace Width  21 mil
!TL Gap  20 mil
!Electrode orientation      Horizontal
!DUT TOPOLOGY	SERIES
!Mounting Pad LxW         16x21 mil
!Agilent Technologies,N5230A,MY45001966,A.07.50.67
!Agilent N5230A: A.07.50.67
! Created Mon Mar  9 16:11:53 2020
# mhz S ma R 50
! 2 Port Network Data from SP1.SP block
! freq  magS11  angS11  magS21  angS21  magS12  angS12  magS22  angS22  
!     
               500       0.099733377            -86.614        0.992751437              2.943        0.994581838               2.93        0.101447307            -87.531
               501      0.0999863692            -86.575         0.99435348              2.945        0.994010102              2.979        0.101400664             -87.58
               502      0.0994194171            -86.594        0.993507643              2.971        0.994537613              2.895        0.100988335            -87.559
               503      0.0993945296            -86.481          0.9933733              2.922        0.994632126               2.89        0.100800453            -87.453
               504      0.0987722827            -86.845        0.993539392               2.87        0.994454897              2.863        0.100481264            -87.795
               505      0.0985938896            -86.692        0.993916728               2.86        0.994489037              2.824        0.100046062            -87.518
               506      0.0983130687            -86.782         0.99394248              2.832        0.994400313              2.814        0.100037137            -87.627
               507      0.0981130401            -86.585        0.994092352              2.845        0.994321277              2.852       0.0998450946            -87.623
               508      0.0977557229            -86.644        0.994356671              2.827        0.994242198              2.826       0.0994013292              -87.7
               509      0.0973284544            -86.735        0.994694752              2.781        0.993092785              2.742       0.0992521279            -87.608
               510      0.0969782216            -86.692        0.994429995              2.746        0.993972149               2.76       0.0988949729            -87.838
               511      0.0971517992            -86.773        0.994262015              2.755         0.99437649              2.739       0.0988668843            -87.795
               512      0.0967656219            -86.688        0.993736158              2.706        0.994766364               2.71        0.098394561            -87.758
               513      0.0965225851            -86.728        0.994097416              2.712        0.994440824              2.705       0.0984189993            -87.848
               514      0.0962499859             -86.83        0.994490582              2.664        0.994376094              2.655       0.0979153261             -87.94
               515      0.0964068464             -86.95        0.994278107              2.631        0.994621577              2.642       0.0979733316            -87.922
               516      0.0958243716            -86.813        0.993747342              2.638        0.994892095               2.63       0.0974486843            -87.965
               517      0.0952760843            -86.895        0.994566668              2.575        0.994108758              2.616       0.0972487214            -87.916
               518      0.0951636163            -87.001        0.994193541              2.593        0.994766009               2.59       0.0968547528            -87.901
               519      0.0950589469            -87.032        0.994473005              2.586        0.994702017              2.574       0.0966480284            -87.841
               520      0.0947925255            -86.975        0.994200767              2.582        0.994658719              2.536        0.096666077            -88.055
               521      0.0942741914            -87.015        0.993900288              2.526        0.994816125              2.524       0.0962482443            -87.923
               522      0.0945781574            -87.003        0.994811618              2.518        0.994468082              2.523       0.0961370626            -87.925
               523       0.093998808            -87.075        0.994425715              2.512         0.99488377              2.482       0.0956031818            -88.009
               524      0.0936524412            -87.074         0.99487634              2.473        0.993960446              2.473       0.0956244835            -88.007
               525      0.0933552946            -86.926        0.994349258               2.46        0.994692753              2.438       0.0953430309            -88.066
               526      0.0931501149            -87.084        0.994565511                2.4        0.994680021              2.439       0.0950021415            -88.238
               527      0.0928776557            -87.067        0.993828038              2.439        0.994972884              2.393       0.0949098408            -88.282
               528      0.0926452489            -87.182        0.994542055              2.379        0.994771083              2.371       0.0944872376            -88.325
               529      0.0926211252            -86.945        0.994512057                2.4        0.994970153              2.396       0.0942996439            -88.122
               530      0.0921890403             -87.03        0.994441624              2.366        0.994899687              2.349       0.0940869292            -88.312
               531      0.0918777344             -87.17        0.994512572              2.352        0.994741593              2.323       0.0939421028            -88.259
               532      0.0916517323            -87.058        0.994467691              2.336        0.994811227              2.337       0.0937218123            -88.209
               533      0.0917464611             -87.26        0.995151773              2.265        0.994693594              2.316       0.0932479561            -88.207
               534      0.0911681109            -87.102        0.994930984              2.261        0.994243947              2.299       0.0933454074            -88.372
               535      0.0908442423            -87.174        0.994826641               2.28        0.994483099              2.266       0.0930245134            -88.336
               536      0.0908192864             -87.27        0.994553351              2.271        0.995126027              2.202       0.0926036458            -88.365
               537      0.0905082946            -87.231        0.994576931              2.218        0.995035056              2.209       0.0924460547            -88.377
               538       0.090580774            -87.269        0.995258802              2.187        0.994571539              2.222       0.0922116997            -88.488
               539      0.0901861747            -87.338        0.994351576              2.182        0.995153251              2.162       0.0921806925            -88.387
               540      0.0901174689            -87.361        0.994280645              2.206        0.995426012              2.145       0.0917506153            -88.346
               541      0.0897649437            -87.132         0.99519174               2.14        0.995077171              2.152       0.0912655263            -88.477
               542      0.0898351068            -87.368        0.995511058              2.128        0.994594581              2.151       0.0912317675            -88.402
               543      0.0892886015            -87.325        0.994708939               2.13        0.995052558              2.124       0.0913158194            -88.456
               544      0.0890052062            -87.141        0.995096985              2.042        0.994982427              2.099       0.0907852744            -88.508
               545       0.088599434            -87.038        0.994903474              2.063        0.995132585               2.06       0.0904650749            -88.581
               546      0.0885059172            -87.297         0.99488368              2.055        0.995112787              2.027       0.0904528608             -88.49
               547      0.0883217609            -87.431        0.995331432              2.033        0.994758638              2.042       0.0901504127            -88.405
               548      0.0882275324            -87.249        0.994842048              2.035        0.995300295              2.044       0.0900542332            -88.605
               549      0.0876374425            -87.486        0.995267208               1.98        0.994694451              1.998       0.0896581338            -88.846
               550      0.0874588233            -87.457        0.995184561               1.93        0.994726367               1.98       0.0896197297            -88.799
               551      0.0875526264            -87.465        0.995220191              1.949        0.995105619              1.962       0.0893550657            -88.797
               552       0.086997295            -87.484        0.994387713              1.959        0.995647825              1.994       0.0887985245            -88.729
               553      0.0865780948            -87.496        0.995080062              1.862        0.994736433              1.965       0.0890036925            -88.684
               554      0.0870217364             -87.51        0.995010686              1.901        0.995354409              1.948       0.0888541557            -88.786
               555       0.086619826            -87.696        0.994872227              1.874        0.995445086              1.839       0.0884845216            -88.859
               556      0.0863414369            -87.584        0.994991274              1.802         0.99544959              1.844       0.0881899857             -88.93
               557      0.0860307371            -87.562        0.994840928              1.855        0.995413769              1.859       0.0880650618             -88.96
               558      0.0858823523            -87.406        0.994154611              1.792        0.995758291              1.854       0.0877917955            -88.704
               559      0.0854706217            -87.651        0.995329469              1.796        0.995329469              1.826       0.0873206305            -88.807
               560      0.0852842296            -87.635         0.99453193              1.757        0.995792225              1.833       0.0870900883             -88.98
               561      0.0851648927            -87.705         0.99577359              1.786        0.994856871              1.785       0.0868581557            -88.924
               562      0.0848578449            -87.608          0.9956163              1.749         0.99492879              1.761       0.0868044517            -88.863
               563      0.0847790951            -87.547         0.99492141              1.751        0.995494298              1.708       0.0868937974            -88.936
               564      0.0846341149            -87.618        0.995165833              1.755        0.995624229               1.76       0.0864461104            -88.916
               565      0.0845701411            -87.807        0.995559121              1.699        0.995329911              1.701       0.0862714416             -89.14
               566      0.0840127182            -87.858        0.995623265              1.673        0.994706684              1.661       0.0861975727             -89.08
               567      0.0840110181            -87.747        0.995373898               1.63        0.995488501              1.665       0.0858986321             -89.07
               568      0.0835117692            -87.778        0.995400109              1.627        0.995285516              1.657       0.0856342866            -89.102
               569      0.0834604707            -87.755        0.995132316              1.577        0.995819967              1.633       0.0852179004            -89.249
               570       0.083071987            -87.712        0.995874469              1.591        0.994385078               1.59       0.0852421899            -89.176
               571      0.0831380818            -87.686        0.995634644              1.595        0.995520024              1.614       0.0848105735            -89.185
               572      0.0830912299            -87.713        0.995417307              1.574         0.99587582              1.601       0.0846749965            -89.159
               573      0.0827835869            -87.673        0.995965374              1.513        0.994933926              1.553       0.0845851726             -89.27
               574       0.082247911            -87.949        0.995347835              1.523        0.995577049              1.516       0.0843285972            -89.229
               575      0.0823873235            -87.785        0.995887759              1.509        0.995543851              1.487       0.0839770074            -89.287
               576      0.0819813636            -87.747        0.995325516               1.46        0.995669349              1.546       0.0840456302            -89.252
               577      0.0817507316            -87.731        0.995844772              1.537         0.99504254              1.494       0.0838381426            -89.237
               578      0.0815233324            -87.865        0.995593205              1.496         0.99547859              1.496       0.0835760659            -89.416
               579      0.0815082369            -87.737        0.995179678              1.453        0.996096694              1.456       0.0831958185            -89.398
               580      0.0813420121            -87.919        0.995783467              1.434        0.995554205              1.446       0.0831983879            -89.282
               581      0.0809413493            -87.746        0.995566879              1.451        0.995681505              1.449       0.0829507735            -89.269
               582      0.0807882846            -87.915        0.995516326              1.395        0.995860225               1.41       0.0826796038            -89.324
               583      0.0801262881             -87.82        0.995806654              1.384        0.995233587              1.343       0.0823900989            -89.406
               584      0.0805929026            -88.109        0.995283484              1.391        0.995971239              1.361       0.0824511651            -89.584
               585      0.0800127893            -87.899        0.995197808              1.333        0.996114841              1.299       0.0818953815            -89.675
               586      0.0801724711            -87.896        0.995807217              1.315        0.995692577              1.373       0.0820493736            -89.619
               587      0.0795256801            -87.986        0.995766226              1.318         0.99542236              1.304       0.0817819369            -89.296
               588      0.0793699589            -87.942        0.996222062              1.243        0.994846681              1.279       0.0813965795            -89.521
               589      0.0794173762             -88.03        0.996128888              1.259        0.994982712              1.327       0.0814921047             -89.63
               590       0.079309614            -87.987         0.99592317              1.257        0.995579249              1.222       0.0813066067             -89.61
               591      0.0789797794            -88.132         0.99555651              1.207        0.995900422              1.235        0.081052407            -89.637
               592      0.0788606884            -87.929        0.995658863              1.261        0.996117486              1.228       0.0806140172            -89.841
               593      0.0785949656            -88.064        0.995966494              1.192        0.995737191              1.194       0.0805090549             -89.76
               594      0.0784551122            -88.068        0.995912648              1.183        0.995912648              1.184         0.08029181            -89.762
               595      0.0783249272            -88.154        0.995405417               1.16        0.996322642              1.211       0.0800479105            -89.732
               596      0.0783323168            -88.023        0.995499329              1.133         0.99641664              1.197       0.0798897334            -89.677
               597      0.0775721862            -88.202        0.995992415              1.127         0.99553385              1.148       0.0797730196            -89.729
               598      0.0775138485            -88.129        0.996275155              1.115        0.995472576              1.099       0.0794290375            -89.659
               599       0.077381226            -88.108        0.995716276              1.063        0.996060244              1.104       0.0794119035             -89.73
               600      0.0772330646            -88.145        0.995986078              1.093         0.99575677               1.15       0.0792872341             -89.94
               601      0.0768683036            -88.103         0.99631644               1.02        0.995513828              1.113       0.0787856816            -89.958
               602      0.0769711964            -88.369        0.996043342               1.03        0.996158023              1.032       0.0786281825            -89.925
               603      0.0765388447            -88.113        0.995937081               1.05        0.995937081              1.096       0.0786197942            -89.884
               604      0.0762504297            -88.234        0.996075586              0.989        0.995846257              1.066       0.0783055052            -89.932
               605      0.0761058945            -88.248        0.995561961              0.988        0.996135218              1.005       0.0782831503            -90.194
               606      0.0756445748            -88.037        0.995354505              0.999        0.996156989               1.01       0.0780778393            -89.924
               607      0.0756453125            -88.339        0.995708058              0.939        0.996281398              0.939       0.0776572526            -90.032
               608      0.0755192083            -88.152        0.996110294              0.908         0.99599562               0.95       0.0775367206            -90.013
               609      0.0755251244            -87.953        0.995844317              0.933        0.996303026               0.96       0.0774357394            -89.932
               610      0.0751244431            -88.259        0.995706324                0.9        0.996394371              0.885       0.0770870214            -90.118
               611      0.0749021559            -88.074        0.996080224              0.955        0.995965553              0.916       0.0770627172            -90.015
               612      0.0745409647            -88.215         0.99585248              0.879         0.99608181              0.898       0.0768325079            -90.223
