!{201R07S110}
!Johanson Technology Inc.
!www.johansontechnology.com
!Test Board Conditions:
!Substrate Type  RO4350B
!Substrate Thickness        10 mil
!Substrate Dk      3.66
!TL Type: GCPW 
!TL Trace Width  21 mil
!TL Gap  20 mil
!Electrode orientation      Horizontal
!DUT TOPOLOGY	SERIES
!Mounting Pad LxW         16x21 mil
!Agilent Technologies,N5230A,MY45001966,A.07.50.67
!Agilent N5230A: A.07.50.67
! Created Mon Mar  9 15:49:05 2020
# mhz S ma R 50
! 2 Port Network Data from SP1.SP block
! freq  magS11  angS11  magS21  angS21  magS12  angS12  magS22  angS22  
!     
               500       0.290302838            -76.022        0.955985448             13.777        0.954995404             13.752         0.29160924            -76.093
               501       0.289634305            -76.059        0.955872572             13.735        0.955542482             13.726        0.290803748            -76.085
               502        0.28932734            -76.073        0.955519323             13.725        0.956399795             13.669        0.290261526            -76.174
               503       0.288807599            -76.142        0.955781491             13.651        0.956441949             13.655        0.289740107             -76.17
               504       0.288405653            -76.216        0.955660791             13.652        0.956871828             13.612        0.289170355            -76.186
               505       0.287296833            -76.311        0.955390325             13.548        0.957151841             13.519         0.28849005            -76.289
               506       0.287011964            -76.245        0.956533093             13.525        0.956643225              13.56        0.288104472            -76.298
               507       0.286889459            -76.321        0.956345001             13.513        0.957446668             13.537        0.287418416            -76.328
               508       0.285956518            -76.292        0.956312869              13.44        0.957414499             13.463        0.287011964            -76.444
               509       0.285134652            -76.361        0.956643225             13.439        0.957304279             13.405        0.286483755            -76.433
               510        0.28491752            -76.418        0.956905729             13.342        0.957787478             13.384        0.285738759            -76.502
               511       0.284446111             -76.46        0.957304279             13.323        0.957194071             13.368        0.285233151            -76.481
               512       0.283465363            -76.516        0.956863525             13.316        0.957524732             13.257        0.284577133            -76.524
               513         0.2831392            -76.556        0.957414499             13.252        0.958186395             13.241        0.284118818            -76.631
               514       0.282845973            -76.601        0.957194071             13.194        0.958407051             13.265        0.283693902            -76.602
               515       0.282286352            -76.671        0.957061577             13.215         0.95893657             13.173        0.282904517            -76.661
               516       0.281325674            -76.616        0.958317388             13.134        0.958096752             13.161        0.282624214            -76.682
               517       0.281137913            -76.655        0.957788055             13.114        0.958891385             13.101        0.281656266            -76.691
               518       0.280220562            -76.751        0.958407051             13.056         0.95873813             13.001        0.281028264            -76.738
               519       0.279930358            -76.744        0.958296716              13.01        0.958848515             13.023        0.281190083            -76.827
               520       0.279326762            -76.786        0.958986617             12.966        0.958876216             12.956        0.280357737            -76.893
               521       0.279243087            -76.853        0.959140943             12.953        0.959693227              12.96        0.279757946            -76.983
               522       0.278231029            -76.895        0.958419325              12.92        0.959854847             12.856        0.279000873            -76.943
               523       0.277447067            -76.885        0.959025464             12.867        0.959577682              12.87        0.278791892            -76.971
               524       0.277408492             -77.04        0.959444266             12.826        0.960107256             12.779        0.278304194            -77.101
               525       0.276961435            -77.006        0.959553737             12.765        0.960106259             12.835        0.277631859            -77.047
               526       0.276153149            -77.009        0.958848515             12.735        0.960174129             12.741        0.277044798            -77.099
               527       0.275969202            -77.083        0.959645027             12.694          0.9605293             12.738        0.276637223            -77.155
               528        0.27542287             -77.12        0.959842554             12.682        0.960505818             12.667        0.276057786            -77.251
               529       0.274530178            -77.126        0.959820655             12.641        0.960815702             12.655        0.275638636            -77.252
               530       0.273660955            -77.184        0.959981444             12.561        0.960755409              12.58        0.275145769            -77.303
               531       0.273579886            -77.181        0.960139119              12.57        0.960913211              12.55        0.274684507             -77.31
               532       0.273027251            -77.201        0.960629669             12.523        0.960519079             12.531        0.274382239            -77.319
               533       0.272637923            -77.242        0.960475442              12.49        0.961249805             12.508        0.273549714            -77.367
               534       0.272234681             -77.31        0.960712519             12.458        0.961376385             12.452        0.273019364            -77.388
               535       0.271254563            -77.398        0.960786855             12.402         0.96156147              12.41        0.272600754            -77.449
               536       0.271332997            -77.308        0.961285988             12.394        0.961285988             12.388        0.272365824            -77.528
               537       0.270661733            -77.414        0.961118328             12.351        0.962114719             12.332        0.271566915            -77.644
               538       0.270033034            -77.484        0.961317607             12.279        0.961871145              12.27        0.271216993            -77.606
               539       0.269664802            -77.497        0.961223242             12.245        0.962330528             12.299        0.270410943            -77.612
               540       0.268905695            -77.559        0.961390884             12.235        0.962276766             12.229        0.270084711            -77.647
               541       0.268588429            -77.547        0.961141431             12.221        0.962691858              12.18        0.269393615            -77.701
               542        0.26803969            -77.602        0.962496386             12.168        0.961942488             12.151         0.26909096            -77.721
               543       0.267551318            -77.624        0.962292487             12.178        0.962514088             12.119        0.268631598            -77.734
               544       0.266857906            -77.607        0.961678868             12.099        0.962565015             12.099        0.268305807            -77.722
               545       0.266446299             -77.71        0.962076689             12.048        0.962963202             12.071        0.267614531            -77.791
               546       0.265977748            -77.754        0.962598775             12.003        0.962598775             12.028        0.267390088            -77.815
               547       0.265546072            -77.761        0.962697583             12.004        0.962919278             11.951        0.266556871            -77.846
               548       0.264755366            -77.809        0.963040986             11.913        0.962930119             11.954         0.26619186            -77.957
               549       0.264746553            -77.823        0.962676375             11.881        0.963674381             11.923        0.265417964            -78.008
               550       0.263727039            -77.857        0.963173795             11.885        0.963284691             11.866        0.265188483            -78.008
               551       0.263728313            -77.887        0.963400254             11.833        0.963400254             11.874        0.264823644            -78.025
               552       0.263044191            -77.953        0.963781786             11.784        0.963670833             11.804        0.263923897            -78.104
               553       0.262661302            -77.974          0.9633766             11.776        0.964042307             11.769        0.263752202            -78.138
               554       0.262506483            -77.972        0.963141361             11.745        0.964361877             11.758        0.262839138            -78.122
               555       0.261982647            -77.996        0.964100983             11.646        0.963768052             11.718        0.262677289            -78.219
               556       0.261396639            -78.064        0.963496186             11.646        0.964050979             11.644          0.2619389            -78.233
               557       0.260950103            -78.099        0.964178564             11.576        0.964289576              11.67        0.261822805            -78.265
               558        0.26005983            -78.095        0.963769714             11.578        0.964435693             11.603         0.26153106            -78.292
               559       0.259853948            -78.164        0.964560159             11.561        0.964449117             11.589         0.26084308            -78.304
               560       0.259457994            -78.259        0.964643973             11.486        0.964755038             11.553        0.260475605            -78.372
               561       0.258954241            -78.241        0.963769168             11.476        0.965323833             11.503         0.25976045             -78.41
               562       0.258578692             -78.32        0.964478906             11.452        0.965589943             11.472        0.259115107            -78.486
               563       0.257958593            -78.246        0.964717152              11.38        0.964828225             11.444        0.258761703            -78.438
               564       0.257626348            -78.357        0.964695553              11.36         0.96558448             11.382        0.258160787            -78.509
               565       0.257142942            -78.459        0.965438489             11.376        0.965549645             11.384        0.257913817            -78.486
               566        0.25656653            -78.372        0.965050411             11.332        0.965606099              11.36        0.257394937            -78.602
               567       0.255866072            -78.455        0.965523174             11.258         0.96541202             11.321        0.257313577            -78.637
               568       0.255597775            -78.447        0.965177231             11.237        0.965955386             11.287        0.256570705            -78.637
               569       0.254994192            -78.481        0.964895518             11.234        0.966118257             11.249        0.256318698            -78.656
               570       0.254360693            -78.591        0.965272648             11.133        0.966050879             11.143        0.255181978            -78.751
               571       0.254126526            -78.578        0.965606099             11.139        0.966273346             11.139        0.254917705            -78.751
               572       0.253860507            -78.547        0.966596333             11.139        0.965928862             11.161        0.254562919            -78.824
               573       0.253308638             -78.64        0.966050879              11.07        0.966162106             11.122        0.254185048              -78.8
               574         0.2529298            -78.728        0.966273346             11.003        0.966384599             11.037        0.253921807            -78.892
               575       0.252667859            -78.656        0.966273346             11.069        0.965939665             11.062        0.253337803            -78.906
               576       0.252144791            -78.722        0.966607143             10.965        0.966718434             11.017        0.252988046            -78.974
               577       0.251299727            -78.834         0.96592191             10.917        0.967368669             10.965        0.252546886            -79.062
               578       0.250965463             -78.81        0.966749508             10.903        0.967083469             10.893        0.252036802            -79.057
               579       0.250577904            -78.831        0.966702345             10.867         0.96737035             10.922         0.25150277            -79.046
               580       0.250254344            -78.927        0.967456897             10.836        0.967122807             10.855        0.251235858            -79.134
               581       0.249488194            -78.851        0.966941055              10.84         0.96738645             10.856         0.25038021             -79.06
               582       0.249029043            -78.906        0.967052384             10.805        0.967052384             10.795        0.250178509            -79.198
               583        0.24882843            -78.976         0.96738645             10.735         0.96783205             10.788        0.249574379            -79.247
               584       0.248222372            -79.022        0.967032168             10.712        0.967811818             10.706        0.249569162            -79.209
               585       0.247884859            -79.021        0.966941055             10.704         0.96783205               10.7        0.248542121            -79.284
               586       0.247200873            -79.072         0.96783205             10.654         0.96783205             10.681        0.248570737            -79.308
               587       0.247031804            -79.098        0.967504223             10.623        0.968284253             10.687        0.248229201            -79.308
               588       0.246717525            -79.155        0.967943483             10.571        0.968277856             10.589        0.247628143            -79.392
               589       0.246263473            -79.156         0.96783205             10.552        0.968054928             10.605        0.246944865            -79.425
               590       0.245601792            -79.208        0.967456688             10.555        0.968794203             10.543        0.246735438            -79.402
               591       0.245236151            -79.294        0.968243281             10.476        0.968800807             10.507        0.246283032            -79.477
               592       0.244844584            -79.257        0.967922313             10.415        0.969037316               10.5        0.245748288            -79.537
               593       0.244314926            -79.285         0.96894695             10.435        0.968277856             10.502        0.245273145            -79.558
               594       0.244090007            -79.301        0.968723867             10.365        0.968500836             10.441        0.245019134             -79.62
               595        0.24350058            -79.331        0.968500836             10.392        0.968723867             10.389        0.244568207            -79.547
               596       0.243049449             -79.37        0.968265907             10.341         0.96960454             10.343        0.243834212             -79.68
               597       0.242362023             -79.36        0.968533325             10.321        0.969314185             10.336        0.243845401            -79.681
               598       0.242298095            -79.495        0.969058511             10.225        0.969393269             10.251        0.243332434            -79.761
               599       0.241629525            -79.448        0.969058511             10.268        0.968835402             10.256        0.242828692            -79.728
               600       0.241157071            -79.505        0.969504881               10.2        0.968835402             10.225        0.242409703            -79.774
               601       0.241184837            -79.535        0.969616506             10.186         0.96928167             10.232        0.241991438            -79.773
               602       0.240353251            -79.595        0.969393269             10.137        0.969170084             10.148        0.241685169            -79.909
               603       0.240144604            -79.571        0.969667484             10.105        0.969890783             10.132        0.241197517              -79.9
               604       0.239545871            -79.609        0.970149555              10.07        0.969702888             10.154        0.240845585            -79.992
               605       0.238891116            -79.726        0.969728144             10.046        0.969616506              10.05        0.240242589            -79.957
               606       0.238588771            -79.703        0.969504881              10.04        0.969728144             10.057        0.239745244            -79.994
               607       0.238424017            -79.675        0.969839794             10.013        0.970286525             10.025        0.239414252            -79.989
               608       0.238012628            -79.708        0.970174823              9.975         0.97039824              9.976        0.239028673            -80.047
               609       0.237383211            -79.744        0.969839794              9.895        0.969728144               9.96        0.238478922            -80.122
               610       0.236700949            -79.749        0.969728144              9.963        0.969951458              9.926        0.238067439            -80.026
               611       0.236292534            -79.785         0.97039824              9.864        0.970063134              9.889         0.23760195            -80.087
               612       0.236102182            -79.851        0.970286525              9.846        0.970509967              9.905        0.237519899            -80.137
