!{201R07S5R6}
!Johanson Technology Inc.
!www.johansontechnology.com
!Test Board Conditions:
!Substrate Type  RO4350B
!Substrate Thickness        10 mil
!Substrate Dk      3.66
!TL Type: GCPW 
!TL Trace Width  21 mil
!TL Gap  20 mil
!Electrode orientation      Horizontal
!DUT TOPOLOGY	SERIES
!Mounting Pad LxW         16x21 mil
!Agilent Technologies,N5230A,MY45001966,A.07.50.67
!Agilent N5230A: A.07.50.67
! Created Mon Mar  9 15:11:58 2020
# mhz S ma R 50
! 2 Port Network Data from SP1.SP block
! freq  magS11  angS11  magS21  angS21  magS12  angS12  magS22  angS22  
!     
               500       0.518203092            -61.734        0.850256577             27.976        0.852118511             27.988        0.519218311            -61.669
               501       0.518143435            -61.694        0.851530092             27.958        0.852216621              28.01        0.518919511            -61.703
               502       0.516951738            -61.769        0.851236035             27.927        0.853100114             27.892        0.517904876            -61.771
               503       0.516238036             -61.83        0.851530092             27.862        0.853001903             27.828        0.516892225            -61.787
               504       0.515584675            -61.919        0.852412874              27.78         0.85427953             27.812        0.516594764            -61.923
               505       0.514576561            -61.954        0.852707337             27.721         0.85388621             27.706         0.51516933            -61.934
               506       0.514305358            -62.055        0.853730994             27.637        0.855206609             27.657        0.514838538            -62.019
               507       0.513393068            -62.027        0.854377888             27.633        0.855165162              27.66        0.514339644             -62.02
               508        0.51227127            -62.097        0.855066713             27.589        0.855165162             27.558        0.513393068            -62.105
               509       0.511505137            -62.223        0.855362093              27.48        0.855263622             27.473        0.512389239            -62.153
               510       0.511036554            -62.226        0.855957035             27.449        0.856745763             27.446        0.511801985            -62.226
               511       0.510369163            -62.281        0.856119573             27.393        0.857204468              27.39        0.511251301             -62.28
               512       0.509384183            -62.352        0.856141314             27.328        0.857818593             27.334        0.510440887            -62.303
               513       0.508767002            -62.396        0.856877888             27.275        0.858260126             27.277        0.509881126            -62.416
               514       0.507867007            -62.469        0.857728815             27.182        0.858025115             27.233        0.509037761            -62.478
               515        0.50728264            -62.554        0.857630071             27.133        0.858420341             27.149        0.508334985            -62.549
               516       0.506115922            -62.554         0.85782757             27.096        0.859310266             27.111         0.50728264            -62.631
               517       0.505242645            -62.671        0.859112425             27.004        0.859607112             27.046        0.506698945            -62.646
               518       0.504951888            -62.729        0.859112425             26.971        0.860201113             26.986         0.50553357            -62.681
               519       0.504487024            -62.761        0.859409203             26.927        0.860300153             26.933        0.504545108            -62.743
               520       0.503268792            -62.759        0.859706084             26.911        0.860993752             26.898        0.504661298            -62.802
               521        0.50234259             -62.89        0.860300153             26.806        0.861687911             26.826         0.50355858            -62.821
               522       0.501937912            -62.931        0.860894632             26.755        0.861588711             26.764        0.502921266            -62.888
               523       0.501071844            -63.002        0.861886345              26.69        0.862283349             26.693        0.502226934            -62.977
               524       0.500149685            -63.022        0.862084824             26.639        0.862084824             26.674        0.501418092            -63.018
               525       0.499574198            -63.117        0.862283349             26.593        0.863574878             26.576        0.500783487            -63.084
               526       0.498769628            -63.165        0.862581223             26.505        0.863475461             26.546        0.499861859            -63.161
               527       0.498073143            -63.202        0.863064243             26.502        0.864755084             26.476        0.499623807            -63.258
               528       0.497278863            -63.279        0.863376056             26.407        0.864370626              26.43        0.498310456            -63.281
               529       0.497049911            -63.285        0.863674307             26.379        0.864768775             26.372        0.497278863            -63.289
               530       0.496192277            -63.352        0.864072135             26.355        0.865167108             26.328        0.496706679            -63.356
               531       0.495108064            -63.441        0.864370626             26.252        0.865665282             26.271        0.496249406            -63.421
               532       0.494424519            -63.441        0.865366343             26.248        0.866462956             26.228        0.495735477            -63.446
               533       0.493628243            -63.543        0.865764951             26.111        0.865764951              26.18        0.494538378            -63.537
               534       0.492889992             -63.58        0.865964323              26.09        0.866462956             26.134        0.494196881            -63.591
               535        0.49249293             -63.64        0.867061694             26.088        0.867461083             26.071         0.49391248            -63.617
               536       0.491699764            -63.691        0.866862069             26.025        0.867860655             26.001        0.492833249            -63.696
               537       0.490775802             -63.72          0.8672277             25.949        0.868626633             25.941        0.492247072            -63.759
               538       0.490681857            -63.811        0.867760745             25.882         0.86836038             25.919           0.491134            -63.794
               539       0.489666057            -63.833        0.868260412             25.836        0.869160538             25.842        0.491020925            -63.867
               540       0.489271591            -63.918        0.868160456             25.821         0.86976114             25.792        0.490117263            -63.887
               541       0.488539856            -63.933        0.869060478             25.732        0.869961433             25.759        0.488821163            -63.973
               542       0.487865379            -64.012        0.869460787             25.687        0.869560893             25.717        0.488202501             -63.97
               543       0.486967525            -64.028         0.86976114             25.651         0.87096359             25.691        0.488146298             -64.04
               544       0.486127288             -64.11        0.870161772             25.551        0.870662822             25.585        0.486799362            -64.091
               545         0.4852885            -64.101        0.870261959             25.493        0.871565438             25.526        0.485791599            -64.202
               546       0.484674309            -64.226        0.870662822             25.437        0.871866518             25.454        0.485456142            -64.242
               547       0.483949449            -64.266        0.871264462             25.411        0.871665787             25.434        0.484730113            -64.255
               548       0.483384436             -64.28        0.871751418             25.374        0.872755637             25.407        0.484610325            -64.307
               549        0.48250298             -64.39        0.872669907              25.29        0.872770382             25.329        0.483448258            -64.432
               550       0.481954668            -64.468        0.873184849             25.219        0.873486488             25.276        0.483232562            -64.468
               551       0.481337835            -64.507        0.873373479             25.201        0.873675184              25.23         0.48250298            -64.501
               552       0.480175503            -64.524        0.873172401             25.137        0.874782326             25.212        0.481670446            -64.548
               553       0.479402175            -64.626        0.873876378             25.065        0.873976993             25.163        0.481005453            -64.548
               554       0.479899171            -64.624        0.873976993             25.049        0.875084517             25.111         0.48028608             -64.64
               555       0.479015978             -64.75        0.874278906             24.976        0.875790036             24.992        0.479346985            -64.705
               556       0.478299581            -64.761        0.874480239               24.9        0.876294327             24.953        0.478519896            -64.809
               557       0.477144586            -64.801        0.875487601             24.908        0.876092576             24.938         0.47835465            -64.832
               558       0.476321297            -64.831        0.874480239             24.819         0.87659704             24.888        0.477089655            -64.774
               559       0.475718455            -64.894        0.876294327             24.761        0.876798907             24.824        0.476430987            -64.904
               560       0.475335226            -64.988        0.875890871             24.707        0.878011087             24.778        0.475663689            -64.976
               561       0.474753732            -64.995        0.877643998             24.699        0.877542961             24.735        0.475191197            -64.993
               562       0.473696308            -65.034        0.877202781             24.637        0.877505809             24.674        0.474624333            -65.058
               563       0.473096789            -65.141        0.877404788             24.599        0.878617805             24.588        0.474351196            -65.085
               564       0.472498028            -65.104        0.877101795             24.571        0.878617805             24.599        0.473205736             -65.11
               565       0.472276166            -65.211        0.878407487             24.486        0.879520626             24.518        0.472874646            -65.248
               566       0.470977326            -65.292        0.878921321             24.402        0.878921321             24.443        0.471900025            -65.299
               567       0.470435406            -65.345        0.879123724             24.376        0.879528669             24.399        0.471411312            -65.298
               568       0.469623694            -65.385        0.879629934             24.304        0.880237771             24.364        0.470977326            -65.376
               569       0.469245374            -65.406        0.879326173             24.246        0.880744622             24.324        0.469785924            -65.437
               570       0.468327867            -65.443        0.881048873             24.177        0.880339118             24.251        0.469299401            -65.525
               571        0.46730454            -65.471        0.879832499             24.177        0.880541846             24.223         0.46816614             -65.55
               572       0.467035615            -65.498        0.880237771             24.154        0.881048873             24.165        0.467627454            -65.555
               573       0.466337135            -65.584        0.880846027             24.042        0.881150313             24.105        0.467089387            -65.655
               574       0.465478901            -65.689        0.881454704             24.034        0.882266928             24.031         0.46671311            -65.683
               575       0.464996838            -65.697        0.881759201             23.961        0.881860723             23.986        0.465746929            -65.722
               576       0.464141071            -65.753        0.881860723             23.891        0.882978238             23.984        0.465478901            -65.781
               577       0.463607016            -65.772        0.882673321             23.907        0.882774948             23.914        0.464622246            -65.822
               578       0.462966962            -65.822          0.8830799              23.83        0.883690121              23.89        0.464408329            -65.926
               579       0.462381021            -65.847        0.882673321              23.83        0.883791866             23.838        0.463286878            -65.878
               580       0.461955349            -65.941        0.883486667             23.727        0.884300764             23.769         0.46254075            -65.963
               581       0.460945946            -65.924        0.883486667             23.712        0.884097169             23.743        0.461795823            -65.996
               582       0.460362564             -66.01        0.883690121             23.644        0.884402578             23.675        0.460945946            -66.044
               583       0.459303759            -66.099        0.884402578             23.592        0.884708093             23.579        0.460521595            -66.123
               584       0.459303759            -66.159        0.884504405             23.562        0.885931207             23.576        0.460415568            -66.187
               585       0.458036408            -66.177        0.885319439             23.489        0.885931207             23.494         0.45977992            -66.295
               586       0.457930953            -66.172        0.885523315             23.433        0.885931207             23.519        0.459145149            -66.289
               587       0.456982953            -66.284         0.88623725               23.4        0.886441337             23.425        0.458352917            -66.294
               588       0.456141934            -66.307        0.886543398              23.31        0.885829216             23.373        0.457351386            -66.388
               589       0.456141934            -66.345        0.887258156             23.314        0.886645471             23.385        0.457298735            -66.377
               590       0.455305514            -66.444          0.8872641             23.259        0.887774997             23.258        0.456723028             -66.46
               591       0.454726223            -66.486        0.887258156             23.181        0.887769049             23.265        0.455826952            -66.545
               592       0.454046153            -66.491        0.887462478             23.191        0.888484795             23.171        0.455145235            -66.576
               593       0.453367099            -66.555        0.888075727             23.113        0.888075727             23.141        0.454359905            -66.614
               594       0.453001875             -66.59        0.888075727             23.069         0.88879172             23.097        0.453628153             -66.69
               595        0.45206408            -66.635        0.887360311             23.007        0.888996395             23.091        0.452532735            -66.697
               596       0.451439961            -66.686        0.887871263             22.955        0.889201118             23.038        0.452272311            -66.708
               597       0.450972438            -66.765        0.889303497             22.918         0.88950829             22.984        0.451751913            -66.788
               598        0.44993523            -66.784        0.889610704             22.881        0.889610704             22.882         0.45107629            -66.869
               599       0.449676301            -66.814         0.88950829             22.815         0.89073804             22.862        0.450712912            -66.902
               600       0.449003783            -66.861        0.890122953             22.852        0.890635496             22.868        0.450297981            -66.896
               601       0.448642074            -66.959        0.890943164             22.708        0.890943164             22.794        0.449365783            -67.011
               602       0.447713304            -66.998        0.890943164             22.672        0.891353553             22.717        0.448797057            -67.068
               603       0.446992257            -66.963         0.89073804             22.689        0.891250938             22.737        0.448177449            -67.034
               604       0.446375141            -67.062        0.891250938             22.584        0.891764131             22.666        0.447455654            -67.113
               605        0.44601555             -67.12        0.891866805             22.552           0.892997             22.586        0.447301135            -67.216
               606       0.444938514            -67.115        0.892072189             22.505        0.893099816             22.579        0.446632169            -67.211
               607       0.444426554            -67.192        0.892174898             22.443        0.893099816             22.487        0.445861528            -67.316
               608       0.444119661            -67.221           0.892997              22.41        0.892894196             22.476        0.445092217            -67.306
               609       0.443506511            -67.211        0.892483098              22.36        0.893716961             22.447        0.444528899            -67.356
               610       0.442588372            -67.345        0.893202644             22.324        0.894025693             22.328         0.44381298            -67.428
               611       0.442180921            -67.333        0.893614074             22.338        0.894128628             22.331        0.443353356            -67.413
               612       0.441163933              -67.4        0.893614074             22.262        0.894437502             22.295        0.442588372            -67.501
