!{201R07S200}
!Johanson Technology Inc.
!www.johansontechnology.com
!Test Board Conditions:
!Substrate Type  RO4350B
!Substrate Thickness        10 mil
!Substrate Dk      3.66
!TL Type: GCPW 
!TL Trace Width  21 mil
!TL Gap  20 mil
!Electrode orientation      Horizontal
!DUT TOPOLOGY	SERIES
!Mounting Pad LxW         16x21 mil
!Agilent Technologies,N5230A,MY45001966,A.07.50.67
!Agilent N5230A: A.07.50.67
! Created Mon Mar  9 16:08:00 2020
# mhz S ma R 50
! 2 Port Network Data from SP1.SP block
! freq  magS11  angS11  magS21  angS21  magS12  angS12  magS22  angS22  
!     
               500       0.150067022            -83.889        0.987041161              6.176        0.988178189              6.177        0.151438139            -84.012
               501       0.150274396            -83.786         0.98795006              6.189        0.988063809              6.236        0.151176746            -84.042
               502       0.149608411            -83.858        0.986861054                6.2        0.988452969              6.145        0.150610764            -84.059
               503       0.149226676            -83.871        0.987521282              6.146        0.988317451              6.113        0.150520781            -83.992
               504        0.14876757             -84.01        0.987548129                6.1        0.988116771              6.123        0.150074972             -84.23
               505       0.148494361            -83.961        0.987893122              6.075         0.98857577              6.046        0.149403221            -84.074
               506       0.147992058            -84.117        0.987844098              6.023         0.98841291              6.021        0.149206729            -84.117
               507       0.147593066            -83.951        0.988248024              6.034        0.988248024               6.04        0.148890146            -84.169
               508       0.147062152            -84.038        0.988441377              6.026        0.987986287              5.995         0.14843999            -84.207
               509       0.146679299            -84.127         0.98859595              5.967        0.987685839               5.93        0.148207038            -84.157
               510       0.146323869            -84.048        0.988360034              5.947        0.988246252              5.942        0.147830885            -84.297
               511       0.146116232            -84.076          0.9885496              5.943        0.988322004              5.925        0.147451252            -84.258
               512       0.145604314            -84.091        0.987357075              5.869         0.98894979              5.893        0.147002338            -84.284
               513       0.145280228            -84.138         0.98799902              5.864        0.988795575              5.851        0.146725809            -84.381
               514       0.144962803            -84.213        0.988681887              5.816         0.98845426              5.826        0.146304127            -84.417
               515       0.144954498            -84.303        0.988625247              5.791        0.988511434              5.796        0.146194723             -84.47
               516       0.144323892            -84.196        0.987843695               5.79        0.989095514              5.793        0.145558721            -84.528
               517          0.143651            -84.295        0.988800444              5.737         0.98857279              5.738        0.145197337            -84.428
               518       0.143434161            -84.374        0.988672825              5.736        0.988900501              5.726        0.144778008            -84.446
               519       0.143246798            -84.348        0.988518778              5.695        0.989201858              5.691        0.144422522            -84.486
               520       0.142889639            -84.341        0.988213401              5.726        0.989123998              5.674        0.144361285             -84.58
               521       0.142191999            -84.412        0.988268971              5.633        0.989293509              5.649        0.143689542            -84.503
               522       0.142258212             -84.43        0.989298489              5.623        0.988729167              5.639        0.143475367            -84.517
               523       0.141649082             -84.46        0.989039788              5.608        0.989039788              5.587        0.143025595            -84.625
               524       0.141119382            -84.532        0.989205825              5.573        0.988636556              5.548        0.142819223            -84.576
               525       0.140867547            -84.464        0.988805678               5.56        0.989375045              5.518        0.142334753            -84.658
               526       0.140580508            -84.507        0.988951759              5.515        0.989293389              5.517        0.142044724            -84.755
               527       0.140235102            -84.567         0.98799952              5.514        0.989593271              5.474         0.14180996            -84.791
               528       0.139755877            -84.627        0.988826464              5.439        0.989509757              5.459         0.14113024            -84.879
               529       0.139742877            -84.499        0.989303806              5.465        0.989531627              5.441        0.141003431            -84.766
               530       0.139217448            -84.581         0.98876633              5.438        0.989677437              5.412        0.140667468            -84.864
               531       0.138843339            -84.645        0.989065491              5.402        0.989635007              5.374        0.140337924            -84.817
               532       0.138401408            -84.588        0.989328471              5.388        0.989442378              5.394         0.14002014            -84.886
               533       0.138360138            -84.685        0.989830852              5.283        0.989602961              5.362        0.139399426            -84.874
               534       0.137799248            -84.607        0.989570744              5.316        0.989229017              5.345        0.139491212            -85.026
               535        0.13728979            -84.706        0.989437217              5.321        0.989551137              5.303        0.139007503            -84.911
               536       0.137154188            -84.766         0.98914298              5.297        0.989940457              5.254        0.138566764            -85.011
               537       0.136719172            -84.748        0.989303212              5.269        0.989986835              5.236        0.138206802            -84.948
               538       0.136708965            -84.837        0.989798965              5.214        0.989798965              5.214        0.137894516            -85.083
               539       0.136147421            -84.844        0.989257657              5.211        0.990055226              5.179        0.137676374             -85.03
               540        0.13618808            -84.899        0.989211363              5.202        0.990350891              5.171        0.137147879            -85.032
               541       0.135678549            -84.766        0.989603429              5.152        0.990401277              5.183        0.136666223            -85.095
               542       0.135523818            -84.913        0.990411393              5.166        0.989385696              5.147        0.136604695            -85.005
               543       0.134802886            -84.919        0.989690016              5.119        0.990031902              5.118        0.136426642            -85.122
               544       0.134538431            -84.841        0.990253436              5.075        0.989911474              5.086        0.135924066            -85.102
               545        0.13403279            -84.772        0.989717061              5.042        0.990400969              5.054         0.13549119             -85.21
               546       0.133836922            -84.901        0.989978907              5.007        0.990434914              5.003        0.135121962            -85.233
               547       0.133521931            -85.113        0.990381692               5.02        0.990039685              4.989        0.134850513            -85.112
               548       0.133312053            -84.941         0.98973611              4.996        0.990534065               5.01        0.134716073            -85.239
               549       0.132663474             -85.09        0.990150852              4.939        0.990150852              4.963        0.134137857            -85.459
               550       0.132466307              -85.1        0.990160113              4.896        0.990274116              4.925        0.133984768            -85.426
               551       0.132220495            -85.159        0.990258955              4.902        0.990144954              4.912        0.133736138            -85.459
               552       0.131634392            -85.132         0.98962207               4.87         0.99076207              4.941        0.133036059            -85.438
               553       0.131275468            -85.165         0.99022429              4.829         0.99022429              4.904        0.133147671            -85.377
               554       0.131716313            -85.189        0.989895989              4.835        0.990808137               4.87        0.132873864            -85.476
               555       0.131093362            -85.304        0.989989755              4.803        0.990787914              4.775        0.132367297            -85.533
               556       0.130773333            -85.291        0.990305506              4.737        0.990761664              4.779         0.13196817            -85.604
               557       0.130199937             -85.29        0.990172299              4.784        0.990628395              4.786         0.13178342            -85.598
               558       0.129971647            -85.122        0.989460864              4.721        0.991171079              4.773        0.131355609            -85.364
               559       0.129666964            -85.288        0.990556708               4.69        0.991012981              4.747        0.130866758            -85.493
               560       0.129146959            -85.398        0.989997695              4.686        0.991138129              4.707        0.130416993            -85.611
               561       0.128964366            -85.462        0.990876953              4.688        0.990648821              4.687        0.130187632             -85.61
               562       0.128685686            -85.333        0.990900946              4.662        0.990672808              4.665        0.130115862            -85.639
               563       0.128388619            -85.458        0.990094226               4.65        0.991120657               4.59        0.129920154            -85.666
               564       0.128173945            -85.376        0.990147175              4.637        0.991287781              4.639        0.129523852             -85.63
               565       0.127931513             -85.52        0.990438553              4.593         0.99112296              4.568        0.129219346            -85.809
               566       0.127328675            -85.601         0.99100585              4.559        0.990435545              4.544        0.128966293            -85.789
               567       0.127047526            -85.514        0.990754861              4.515        0.990983017              4.542        0.128725981            -85.733
               568       0.126669857            -85.518        0.990770988              4.488        0.990999148              4.532        0.128299003            -85.887
               569        0.12653806            -85.565         0.99042404              4.476        0.991450813              4.485        0.127767728            -85.916
               570       0.126066872            -85.533        0.991404705              4.437        0.990492008              4.454        0.127585399            -85.931
               571       0.125924956            -85.548          0.9913153              4.447        0.991087067              4.459        0.127134029            -85.945
               572       0.125777458            -85.544        0.991066539              4.429        0.991408901              4.447        0.126999735            -85.921
               573       0.125473251            -85.543        0.991405103               4.37         0.99117685              4.412        0.126750929            -85.957
               574       0.124704694            -85.703        0.990792704              4.391        0.991363214               4.35        0.126395846            -85.972
               575       0.124722102            -85.623        0.991387459              4.321        0.991387459              4.316        0.126021145            -86.017
               576       0.124377145            -85.663         0.99092454                4.3        0.991609283              4.369        0.125788397            -86.019
               577       0.123988549            -85.684        0.991360424              4.349        0.991132181              4.303        0.125655522            -86.019
               578       0.123753423            -85.785        0.991190705              4.291        0.991190705              4.312        0.125417235            -86.142
               579       0.123642626            -85.677        0.990873512              4.275        0.991900751              4.286        0.124815413            -86.097
               580       0.123282194            -85.818        0.991631593              4.227        0.991517434              4.235        0.124508888            -86.057
               581       0.122935261             -85.72        0.991234631              4.263        0.991805396               4.24        0.124287218            -86.083
               582        0.12267753             -85.85        0.991665084              4.202        0.991436771               4.21        0.124026652            -86.135
               583       0.121886577            -85.838        0.991530048              4.195        0.991415901              4.139        0.123624879            -86.198
               584       0.122253394            -85.969        0.990742796              4.196        0.991884088              4.144        0.123654784            -86.263
               585       0.121472015             -85.87        0.991119987              4.143        0.991804865              4.084        0.123062642            -86.423
               586       0.121485893            -85.819        0.991461491               4.12        0.991575644              4.144        0.123147571            -86.376
               587       0.120784166             -85.93        0.991653627              4.087        0.991425317              4.083        0.122718491            -86.163
               588       0.120636977            -85.881        0.991928678              4.027        0.991471983              4.079         0.12221667            -86.343
               589        0.12057837            -85.938        0.992131887              4.046        0.990876225              4.095        0.122072941            -86.403
               590       0.120179799            -86.046        0.991702647              4.027        0.991702647               3.97        0.121795564            -86.422
               591       0.120049696            -86.092          0.9913136              3.961        0.991998612              4.012        0.121565703            -86.485
               592       0.119810053            -85.941        0.991615397              4.018        0.992072158              3.972        0.121071873            -86.599
               593       0.119255666            -86.056        0.992153847              3.961        0.991468728               3.96        0.120775549            -86.467
               594       0.119236199            -86.087        0.991763508              3.943         0.99210611               3.92        0.120561356            -86.526
               595       0.118885005            -86.126        0.991350156              3.907        0.992377889               3.96         0.12008177            -86.543
               596       0.118692633            -86.096        0.991799226              3.863        0.992370316              3.902        0.119942685            -86.464
               597       0.117991112            -86.223        0.992314404              3.837        0.991286737              3.889        0.119646306            -86.561
               598       0.117745878            -86.134        0.992420465               3.85        0.991620991              3.809        0.119260249            -86.549
               599       0.117677526            -86.099         0.99184436              3.795        0.992415476               3.81        0.119108712            -86.597
               600       0.117340746            -86.195        0.992084912              3.828        0.991856503              3.846        0.119000516             -86.69
               601       0.117112324            -86.241        0.992093492              3.727        0.992207718              3.812        0.118468421            -86.768
               602       0.116795141            -86.393        0.992372626              3.746        0.991915727               3.71        0.118201987            -86.691
               603       0.116440959            -86.209        0.992100738              3.793        0.992214965              3.784        0.118020044            -86.712
               604       0.116126151            -86.275        0.992270391              3.685        0.992384637              3.746        0.117470829            -86.757
               605       0.115784051            -86.326        0.991856264              3.693        0.992313136              3.691        0.117462365            -86.929
               606       0.115312953            -86.198        0.991580766                3.7        0.992608738               3.71        0.117159658            -86.755
               607       0.115147633            -86.364        0.991984798              3.634        0.992327476              3.651         0.11695129            -86.915
               608       0.115098273            -86.273        0.992587517              3.604        0.992244749              3.637        0.116578593            -86.855
               609       0.114883502            -86.201        0.991876652              3.594        0.992790625               3.65        0.116428062            -86.861
               610       0.114356694            -86.355        0.992228256               3.57        0.992571018              3.557        0.115974255            -86.965
               611       0.114228643            -86.282        0.992487436              3.604        0.992373179              3.593        0.115804389            -87.006
               612       0.113782296            -86.403        0.992143957              3.549        0.992600962              3.572        0.115471469             -87.02
