!{201R07S3R6}
!Johanson Technology Inc.
!www.johansontechnology.com
!Test Board Conditions:
!Substrate Type  RO4350B
!Substrate Thickness        10 mil
!Substrate Dk      3.66
!TL Type: GCPW 
!TL Trace Width  21 mil
!TL Gap  20 mil
!Electrode orientation      Horizontal
!DUT TOPOLOGY	SERIES
!Mounting Pad LxW         16x21 mil
# mhz S ma R 50
!Agilent Technologies,N5230A,MY45001966,A.07.50.67
!Agilent N5230A: A.07.50.67
! Created Mon Mar  9 15:06:18 2020
! 2 Port Network Data from SP1.SP block
! freq  magS11  angS11  magS21  angS21  magS12  angS12  magS22  angS22  
!     
               500       0.693425806            -48.454        0.713838554              41.06         0.71581369              41.11        0.694064769            -48.597
               501       0.693505644             -48.47        0.715237045              41.03        0.716225864             41.098        0.693745214             -48.65
               502       0.692229335            -48.527        0.714990053             41.003        0.717381215             40.972        0.692627929            -48.707
               503       0.691512444            -48.597         0.71581369             40.899        0.717546417             40.916        0.691671689            -48.763
               504       0.690875831            -48.674        0.717050924             40.828        0.718869404             40.898        0.691592062            -48.861
               505       0.689842584            -48.753        0.717546417             40.751        0.718952172             40.763        0.689842584            -48.903
               506       0.689742851            -48.844        0.718765474             40.679        0.720090709              40.72        0.689663446            -48.995
               507       0.688626556            -48.829        0.719339265             40.644        0.720416692             40.704        0.689261097            -49.012
               508       0.687859912            -48.873        0.720360681             40.607        0.721024463             40.637        0.688414485            -49.093
               509       0.686673045            -49.018         0.72085846             40.503        0.720775473             40.528        0.687305786            -49.135
               510       0.686592913            -49.045        0.721604639             40.449        0.722685459             40.481        0.686988262            -49.248
               511       0.685712638            -49.098        0.722091368             40.385        0.723256181             40.417         0.68626548            -49.286
               512       0.684914601            -49.181        0.722331285             40.286        0.724246533             40.363        0.685387887            -49.343
               513       0.684569969            -49.227         0.72304919             40.268        0.725049811             40.299        0.684727616             -49.43
               514       0.683433947            -49.336          0.7244302             40.179        0.725181217             40.215        0.684300011            -49.474
               515       0.682967441             -49.39         0.72443596             40.115        0.725938785              40.16        0.683282031            -49.582
               516       0.681867514            -49.403        0.725186983             40.073         0.72719352             40.123        0.682495827            -49.642
               517       0.680789166            -49.514        0.726628848             39.958        0.727465892              40.04        0.681965863            -49.681
               518        0.68053427            -49.573        0.726858712             39.923        0.728198869             39.971        0.680612624            -49.727
               519       0.680220944            -49.601        0.727612246             39.881        0.728450423             39.922        0.679907763            -49.787
               520       0.678734617            -49.676        0.728450423             39.846        0.729373533              39.86        0.680064336            -49.869
               521       0.678031702            -49.782        0.728702065             39.731        0.730381896             39.782        0.678734617            -49.893
               522       0.677517203            -49.824        0.730247917             39.672        0.730416082             39.729        0.678531989            -49.986
               523       0.676861793            -49.895        0.730550092             39.634        0.731475863             39.638        0.677407499            -50.044
               524       0.675927319            -49.943        0.731307454             39.574        0.731560082             39.608        0.676783871             -50.09
               525       0.675305054            -50.031        0.731560082             39.505        0.733077685              39.51        0.676238667            -50.177
               526       0.674528028            -50.075        0.732318491             39.414        0.733330925             39.485        0.675227311            -50.244
               527       0.673976389            -50.128        0.732984317             39.405        0.734758608             39.393        0.674908165            -50.351
               528       0.673209134            -50.217        0.733584253             39.308         0.73493681             39.337         0.67351923            -50.374
               529       0.672744259            -50.201        0.734006659             39.276        0.735190692             39.309        0.672511941              -50.4
               530       0.672047547            -50.313        0.734767604             39.215        0.736037599              39.22         0.67181547            -50.492
               531        0.67050188            -50.385        0.735106055             39.149        0.736461418             39.165        0.671428853            -50.524
               532       0.670147986             -50.41        0.736496549             39.094        0.737599675             39.122         0.67130629            -50.598
               533       0.669422029             -50.49        0.737224908             38.976        0.737479581             39.072        0.670193174            -50.694
               534       0.668497827            -50.557        0.738074158             38.945        0.738159137             39.016        0.669730381            -50.742
               535       0.668197327            -50.594        0.738507201             38.918        0.739613337             38.941        0.669044083            -50.783
               536       0.667574901            -50.655        0.738754263             38.859        0.740201567             38.873        0.668190043            -50.855
               537       0.666651227            -50.719        0.739603031             38.773        0.740966686             38.798        0.667726608            -50.943
               538       0.666543091            -50.804         0.74059066             38.717        0.741358431             38.764        0.666696585            -50.958
               539       0.665656228            -50.837        0.740542521             38.636        0.742249647             38.695        0.666039521            -51.072
               540       0.665223367            -50.938        0.740998785             38.624        0.743049072             38.593        0.665223367            -51.083
               541         0.6642782            -50.923        0.741993328             38.535        0.743190244             38.616        0.664048806            -51.172
               542       0.663666659            -51.049        0.743019138             38.482        0.743446977             38.517        0.663590256             -51.19
               543       0.662715464            -51.063        0.743407785             38.422        0.744521261             38.477        0.663555273            -51.269
               544       0.662140268            -51.154        0.744303395              38.32         0.74498924             38.395        0.662292749            -51.341
               545       0.661476947            -51.191        0.744757205              38.28         0.74595858             38.316        0.661324654            -51.413
               546       0.660433871            -51.281         0.74529694             38.198        0.746671093             38.261         0.66089024             -51.46
               547       0.659629394            -51.333        0.746019192             38.162        0.746448758             38.205        0.660161206            -51.512
               548       0.659106482             -51.35        0.746544298             38.127        0.747748556             38.196        0.659865744            -51.548
               549       0.658854178            -51.462        0.747634449             38.028        0.748668058             38.104        0.658550835            -51.675
               550       0.657608532            -51.554        0.748458008             37.941        0.748975203             38.037        0.658593499            -51.744
               551       0.657138766            -51.577        0.748957351             37.934        0.749474891             38.004        0.658047264            -51.769
               552       0.655936348            -51.618        0.748879078             37.879        0.750951168             37.966        0.657070088            -51.816
               553       0.655465745            -51.706        0.749980549             37.762        0.750671625             37.922        0.656296367             -51.84
               554       0.655530451            -51.715        0.750227312             37.761        0.751524028             37.855        0.655454985            -51.926
               555       0.654636174            -51.865        0.750844493             37.673        0.752228875             37.719        0.654636174            -52.017
               556       0.654052557            -51.857        0.751385219             37.594         0.75303064              37.69        0.653751424            -52.116
               557       0.652980181            -51.943        0.752315483              37.59         0.75352905             37.631        0.653581875            -52.127
               558        0.65200361            -52.005        0.751969109             37.478        0.754136568             37.583        0.652228842            -52.133
               559       0.651388614            -52.018        0.753598739             37.433        0.754553717             37.523        0.651688659            -52.234
               560       0.651010401            -52.121        0.753768401             37.373         0.75585402             37.486        0.650935455            -52.303
               561       0.650454844            -52.174        0.755382905             37.342        0.755556858             37.407        0.650379962            -52.352
               562       0.649504053            -52.201        0.755582456             37.266        0.756191629             37.353         0.64980323            -52.416
               563       0.648634434              -52.3        0.755614007             37.232        0.757007182              37.26        0.649456399            -52.454
               564        0.64796269            -52.295        0.756223205             37.181        0.757443076              37.26        0.648634434            -52.497
               565          0.647695            -52.419        0.757217329             37.125         0.75835149             37.154        0.647844154            -52.596
               566       0.646919139            -52.473        0.757791972             37.018        0.758577575             37.089         0.64669574            -52.683
               567       0.646069811            -52.531        0.758454353             36.954        0.759153237             37.051        0.646367406            -52.696
               568       0.644985572            -52.578        0.759276573             36.914        0.759626313             37.018        0.646249172            -52.766
               569       0.644837076            -52.635        0.759101763             36.842        0.760501369             36.952        0.644762841            -52.829
               570       0.643783157            -52.673        0.761008679             36.775        0.760483175             36.876        0.644302194            -52.924
               571       0.642391817            -52.717        0.760501369             36.743        0.760764082             36.829        0.643131824            -52.979
               572        0.64253975            -52.737         0.76058893             36.707         0.76172814              36.78        0.642465779            -53.008
               573       0.641578793            -52.826        0.761552766             36.597        0.761903555             36.716        0.641948222              -53.1
               574       0.640914357            -52.945        0.762693421             36.584        0.763308327             36.624        0.641652661            -53.125
               575       0.640398049            -53.001         0.76357201             36.489         0.76357201             36.558         0.64106195            -53.211
               576       0.639587548            -53.036        0.763659924             36.444        0.764539626             36.557        0.640619273            -53.234
               577       0.638704535            -53.061        0.764275609             36.447        0.764539626             36.458        0.639440295            -53.278
               578       0.638336973            -53.115        0.764803735             36.386        0.765772912              36.45        0.639219478            -53.356
               579       0.637382301            -53.165        0.764891791             36.297        0.765949258             36.368        0.638043076            -53.413
               580       0.637235556            -53.248        0.765772912             36.231        0.766655049             36.312        0.637162195            -53.463
               581       0.636282531            -53.264        0.765772912             36.213        0.767008188             36.255         0.63635579            -53.497
               582       0.635769955            -53.348        0.766919888              36.13        0.767626572             36.199         0.63598958            -53.549
               583       0.634380756            -53.431        0.767803345             36.099        0.767980159             36.086        0.635477239            -53.619
               584       0.634307724            -53.466        0.767891747             36.057         0.76913044             36.086        0.635404081            -53.695
               585       0.633213259            -53.533        0.768776324             35.958        0.769750536             35.989        0.634526844            -53.809
               586       0.632630316            -53.543        0.768953362              35.89         0.76948472                 36        0.633650818            -53.825
               587       0.632110409            -53.667         0.77000393             35.855        0.770713457             35.895        0.632911435            -53.832
               588       0.630884707            -53.671        0.770193768             35.752        0.770105101             35.839        0.631466041            -53.948
               589       0.630957344            -53.719        0.771347365             35.738        0.771169776             35.851        0.631684179             -53.96
               590       0.630171141            -53.843        0.771628945              35.69        0.772339969             35.689        0.630969709            -54.033
               591        0.62991428            -53.885        0.772291854             35.603        0.773003489             35.712         0.63034956            -54.107
               592       0.628637088            -53.883        0.772680585             35.613        0.773303543             35.621        0.629578662            -54.131
               593       0.628130671            -53.966        0.773392578             35.512        0.773570679             35.567        0.628564718            -54.207
               594       0.627769194            -54.017        0.773748821             35.477        0.774283492             35.515        0.628130671            -54.286
               595       0.626541727            -54.079        0.773214518             35.378        0.774729334             35.496        0.626397477            -54.324
               596       0.625964927            -54.152        0.774105227             35.327        0.775264683             35.429        0.626397477             -54.33
               597       0.625172693            -54.172        0.775532496             35.274        0.775353943             35.387        0.625892864             -54.43
               598       0.624309581            -54.221        0.775800401             35.238        0.775979057             35.288        0.625028758            -54.509
               599       0.624092558            -54.303        0.776245336             35.154        0.777407997             35.229        0.624883423            -54.558
               600       0.623304124             -54.32         0.77687295             35.175        0.777320283             35.242        0.624309581            -54.547
               601       0.623276822            -54.427        0.778002472             35.048        0.778360838             35.175        0.623492131            -54.664
               602       0.621655814            -54.476        0.777678334             34.996        0.778305322             35.063        0.622515257            -54.737
               603       0.620797558             -54.49        0.778394933             34.989        0.778753479             35.072        0.621870564            -54.721
               604       0.620511736            -54.566        0.779022498             34.906        0.779740334             35.012        0.621441139            -54.797
               605       0.619869118            -54.612        0.779291609             34.867        0.780548691             34.924        0.621012011            -54.877
               606       0.618942066            -54.665        0.779830111             34.822        0.780998141              34.89        0.620154644            -54.874
               607       0.618372261            -54.718        0.780458833             34.738        0.781447849             34.794        0.619583723            -54.993
               608       0.618372261            -54.794        0.781177993             34.706        0.781807802             34.752        0.618372261            -55.012
               609       0.617447448            -54.792        0.781267935             34.639        0.782438118             34.722          0.6180164            -55.074
               610       0.616524018            -54.921        0.782257976             34.595        0.783159102             34.605        0.617447448            -55.153
               611       0.616098285            -54.878        0.782528205             34.587        0.783249272             34.618         0.61687902            -55.165
               612       0.614964435            -54.983        0.783249272              34.49        0.783971004             34.556         0.61616922            -55.259
