!{201R07S160}
!Johanson Technology Inc.
!www.johansontechnology.com
!Test Board Conditions:
!Substrate Type  RO4350B
!Substrate Thickness        10 mil
!Substrate Dk      3.66
!TL Type: GCPW 
!TL Trace Width  21 mil
!TL Gap  20 mil
!Electrode orientation      Horizontal
!DUT TOPOLOGY	SERIES
!Mounting Pad LxW         16x21 mil
!Agilent Technologies,N5230A,MY45001966,A.07.50.67
!Agilent N5230A: A.07.50.67
! Created Mon Mar  9 15:52:35 2020
# mhz S ma R 50
! 2 Port Network Data from SP1.SP block
! freq  magS11  angS11  magS21  angS21  magS12  angS12  magS22  angS22  
!     
               500       0.189692963            -81.378        0.979943917              8.606        0.981185725              8.574        0.191470213            -81.411
               501       0.189476966            -81.373        0.980519923              8.558        0.981310447              8.547         0.19087824             -81.43
               502       0.188835258            -81.455        0.981144751               8.53         0.98091886              8.495        0.190428999             -81.48
               503       0.188690485            -81.481        0.981182966              8.524        0.981182966              8.463        0.190085942            -81.485
               504       0.188158397            -81.388        0.980897449               8.49        0.981236297              8.439        0.189833828            -81.522
               505       0.187735172            -81.519        0.980721382              8.414        0.981738096              8.447         0.18903649            -81.498
               506       0.187369975            -81.474        0.980731219              8.378        0.981521913              8.374        0.188647042            -81.568
               507       0.186935422            -81.641        0.981502933              8.365        0.981615939              8.377        0.188274543            -81.619
               508       0.186374353            -81.597        0.981264639              8.329        0.981829663              8.373        0.187774299             -81.57
               509       0.185973044             -81.65        0.981634922              8.328        0.981747943              8.326        0.187326837            -81.632
               510       0.185590725            -81.659        0.981423082              8.217        0.982101259              8.278        0.186855664            -81.758
               511       0.184939022            -81.733        0.981925541              8.239        0.981473452              8.257        0.186628754            -81.767
               512       0.184478391            -81.761        0.982189987              8.225        0.981624756              8.219        0.185928302            -81.791
               513       0.184107635            -81.727        0.981797225              8.173        0.982136384              8.206        0.185618731            -81.822
               514       0.183822203            -81.807        0.981291342              8.192        0.982534858              8.149        0.185139023            -81.831
               515       0.183514824            -81.904        0.981908801              8.105        0.982361091              8.162        0.184893291            -81.919
               516        0.18284281            -81.821        0.982150149              8.066        0.982376323              8.104        0.184258651            -81.911
               517       0.182534897            -81.894        0.982530191              8.036        0.982530191              8.025         0.18360982            -81.948
               518       0.181756403            -81.882        0.982176906              7.961        0.982516196              8.079        0.183353717             -81.97
               519       0.181390885            -82.001        0.981330867              7.989        0.983027029              7.979        0.182732358            -82.112
               520       0.180988091            -81.912        0.982087085              8.038        0.982652583              7.965        0.182620699            -81.975
               521       0.180857517             -82.07        0.982509063              7.941        0.982961629              7.941        0.182069234            -82.092
               522       0.180117829            -82.065        0.982780894              7.952        0.982780894              7.922        0.181533468             -82.15
               523       0.179568409            -82.006        0.982380957              7.903        0.982833465              7.928        0.181417816            -82.173
               524       0.179303485            -82.146        0.983192896              7.899        0.982400855              7.861        0.180795964            -82.117
               525       0.178890955            -82.235        0.983078917              7.813        0.982626297              7.833        0.180525428            -82.174
               526       0.178602487            -82.141        0.982511181              7.793        0.983416524              7.788        0.179964772            -82.249
               527       0.178454793            -82.182        0.982942735              7.775        0.983395501              7.776        0.179650412            -82.164
               528       0.177695308            -82.267        0.983163985              7.747        0.982824471              7.738        0.179484092            -82.297
               529       0.177679264            -82.157        0.982962038              7.714        0.983528039              7.755        0.178972682            -82.305
               530       0.177066722            -82.269        0.982849336              7.705        0.983641738              7.693        0.178478928            -82.294
               531        0.17656524            -82.457        0.983343401              7.649        0.983343401              7.668        0.178034926            -82.433
               532       0.175966148            -82.365        0.983057965               7.68        0.983737272              7.585        0.177512576            -82.397
               533       0.175531666            -82.375        0.982438729               7.61        0.983910227              7.591        0.177237443            -82.386
               534       0.175295317            -82.368        0.983377607              7.575        0.983830574              7.559        0.176754433            -82.443
               535       0.174746028            -82.449        0.983234965              7.546        0.984027678              7.559        0.176180287             -82.57
               536       0.174540787            -82.564        0.983437873              7.492        0.983777599              7.527        0.176257225            -82.421
               537       0.174229796            -82.454        0.983948638              7.499        0.983948638              7.518        0.175457699            -82.641
               538        0.17359697            -82.507          0.9836535              7.494        0.984106593               7.45        0.175082259            -82.654
               539       0.173320527             -82.55        0.984237709              7.414        0.983784555               7.47        0.174662632             -82.58
               540       0.172914494            -82.667        0.983629166              7.418        0.984422197              7.379        0.174173227            -82.709
               541       0.172049248            -82.682        0.984244007              7.371        0.983677593              7.337        0.173861242            -82.669
               542       0.171850004            -82.676         0.98378353              7.372        0.984350004              7.323        0.173539982            -82.676
               543       0.171672211            -82.627        0.983897824              7.333        0.984577711              7.327        0.172961722            -82.662
               544       0.170969242            -82.751          0.9838253              7.235         0.98416516              7.343        0.173068483            -82.803
               545       0.170716487            -82.763        0.983955517              7.195        0.984635445              7.297        0.172276272            -82.884
               546       0.170320717              -82.8        0.984164003              7.265        0.984730696              7.207        0.171777974             -82.85
               547       0.169794456            -82.674        0.984064364              7.205        0.984744366                7.2         0.17148396            -82.863
               548       0.169621984            -82.933        0.983744093              7.166        0.984990717              7.194        0.171092959            -82.886
               549       0.169565163            -82.911        0.984207411              7.175        0.985000908              7.165        0.170878188            -82.875
               550       0.168829137            -83.003        0.984458474              7.135        0.984798552              7.123        0.170430533            -82.932
               551       0.168557562             -82.93        0.984007122              7.145        0.985254079              7.088         0.16984323            -83.025
               552        0.16786781            -82.994        0.984730578              7.065        0.985070751              7.054        0.169343068            -82.987
               553       0.167887569                -83        0.985300133              7.064        0.984733112              7.029        0.169109709             -82.93
               554        0.16724379            -83.036        0.984691071              6.977        0.984917831              7.035        0.168946812            -83.112
               555       0.166868052            -83.035        0.984743665              6.993        0.985424137              6.952        0.168237651            -83.063
               556        0.16640631            -83.093         0.98507612              6.891        0.985189538              6.955        0.167946049            -83.148
               557       0.165959609            -83.133        0.985036682              6.952        0.985150095              6.892        0.167668857            -83.168
               558       0.165928073            -83.149          0.9850763              6.886        0.985530049              6.906        0.167232187            -83.185
               559       0.165496283            -83.116        0.985458283              6.885        0.985571745              6.868        0.166662635            -83.096
               560       0.164992137            -83.206        0.985515018              6.852        0.985288121              6.847        0.166461286            -83.201
               561       0.164714004             -83.24        0.984873663              6.829        0.985781183              6.814        0.166161546            -83.264
               562       0.164203686            -83.148        0.984879058              6.781        0.985900083              6.828         0.16568489            -83.259
               563       0.163694438            -83.349        0.984994767               6.76        0.985788899              6.791        0.165418441            -83.209
               564       0.163401124             -83.36        0.985496396              6.714        0.985723341              6.749        0.164989019            -83.233
               565       0.163098512            -83.224        0.985484958              6.711        0.985484958               6.76        0.164702427            -83.348
               566        0.16283584            -83.281        0.985825392              6.676        0.985825392              6.683        0.164172344            -83.357
               567       0.162442128            -83.435        0.985935877              6.649        0.985935877              6.648        0.163737694            -83.376
               568       0.162278413            -83.509          0.9858498              6.613         0.98619036              6.625        0.163365653            -83.438
               569       0.161644099            -83.441        0.985393868              6.613        0.986301867              6.595        0.163083437            -83.482
               570        0.16129855            -83.447        0.986008057              6.588         0.98623512              6.604        0.162584996            -83.464
               571       0.161225275            -83.464        0.986014103              6.556        0.986241168              6.524         0.16254856            -83.472
               572       0.160448137            -83.501        0.986131153              6.533        0.986131153              6.531        0.161970036            -83.551
               573       0.160164866            -83.491        0.985864562              6.531        0.986432235              6.508        0.161628244            -83.618
               574       0.159810723            -83.609         0.98595233              6.469        0.986292925              6.485        0.161456643            -83.623
               575       0.159514529            -83.662        0.986280045              6.409        0.986393601              6.435        0.160916377            -83.648
               576       0.159211505            -83.517        0.986221456              6.464        0.986448568              6.417        0.160740179            -83.643
               577       0.158964446            -83.563        0.986279486              6.402        0.986733789              6.425        0.160176943            -83.603
               578       0.158219898            -83.662        0.985623618               6.31        0.986986248              6.396        0.159591994            -83.725
               579       0.157847263             -83.71        0.985796009              6.322        0.986817984               6.34        0.159564786            -83.706
               580        0.15768603            -83.713        0.986491208              6.302        0.986831989              6.312        0.159053496            -83.725
               581       0.157145838            -83.648        0.985945439               6.26        0.986967569              6.289        0.158800872            -83.833
               582       0.156782981            -83.766        0.986504151              6.268        0.986844937              6.272        0.158343018            -83.841
               583       0.156701036            -83.794        0.986897086              6.248        0.986669871              6.251        0.158132766            -83.811
               584       0.156311844            -83.836        0.986147519                6.2        0.987283517              6.178        0.157631093            -83.856
               585       0.155764693            -83.852        0.986777013              6.198        0.986890626              6.193         0.15738706             -83.84
               586        0.15565238            -83.864        0.986292579               6.14        0.987315068              6.201        0.157056446            -83.922
               587       0.155406917            -83.827        0.986666415              6.141        0.987348215              6.125        0.156700487            -83.913
               588       0.154646238            -83.838        0.987277772               6.13        0.986482441              6.104         0.15634693            -83.856
               589        0.15444026            -83.959        0.986757698               6.07        0.987098571              6.074        0.156228594            -84.004
               590       0.154218823            -83.933         0.98704598              6.079        0.987273282              6.052         0.15569956            -83.977
               591       0.153552611            -83.939        0.986182306              6.049        0.987659411              5.993        0.155134077            -84.001
               592       0.153620374            -83.927        0.987412948              6.037        0.987185614              6.019        0.155023957            -83.993
               593       0.153105367             -83.95        0.987166515               6.02        0.987393845              5.985        0.154682227            -84.042
               594       0.152644637            -83.967        0.987032721              5.935        0.987487371              5.975        0.154341085            -84.123
               595       0.152280359            -83.977        0.987060769              5.956        0.987515432              5.972        0.154025948            -84.121
               596       0.152201919            -84.058        0.987347723               5.94          0.9876888              5.936         0.15355718            -84.188
               597       0.152090082            -84.112        0.987645055              5.943        0.987417668              5.903        0.153426682            -84.232
               598       0.151651699            -84.053        0.986954841              5.872        0.988091769              5.918        0.152808419            -84.172
               599       0.151216785             -84.15        0.987415636              5.861        0.987643023               5.85        0.152756606            -84.161
               600       0.150850577            -84.069        0.987295084              5.839         0.98809107              5.821        0.152123733            -84.201
               601       0.150503947            -84.104        0.987638225               5.81        0.987865663              5.804        0.151949015            -84.209
               602       0.150106673            -84.174        0.987643023               5.74        0.987870462              5.756         0.15163519            -84.405
               603       0.149766697            -84.209        0.987336635              5.724        0.988246425              5.741        0.151117671            -84.375
               604       0.149431417            -84.351        0.987965808              5.725         0.98785207              5.722        0.150848819            -84.377
               605       0.148980765            -84.316        0.988280441              5.677         0.98737062               5.67        0.150497817            -84.405
               606       0.148601874            -84.368        0.987584548              5.711        0.987925707              5.709        0.150478442            -84.413
               607       0.148275244             -84.22        0.987799148              5.614        0.988140381              5.673        0.149923132             -84.47
               608       0.148042548            -84.308         0.98818112              5.606        0.987953609              5.676        0.149584486            -84.501
               609       0.147554706             -84.34        0.987991175              5.613        0.988104928              5.599        0.149263309            -84.556
               610       0.147267553            -84.354        0.987545398              5.564        0.988569186              5.548        0.148784287             -84.53
               611       0.147095623            -84.428        0.987642456              5.524        0.988552527              5.602        0.148627698            -84.543
               612       0.146698508            -84.397        0.987587757               5.51         0.98861159              5.553        0.148294723            -84.601
