!{201R07S6R2}
!Johanson Technology Inc.
!www.johansontechnology.com
!Test Board Conditions:
!Substrate Type  RO4350B
!Substrate Thickness        10 mil
!Substrate Dk      3.66
!TL Type: GCPW 
!TL Trace Width  21 mil
!TL Gap  20 mil
!Electrode orientation      Horizontal
!DUT TOPOLOGY	SERIES
!Mounting Pad LxW         16x21 mil
!Agilent Technologies,N5230A,MY45001966,A.07.50.67
!Agilent N5230A: A.07.50.67
! Created Mon Mar  9 15:12:38 2020
# mhz S ma R 50
! 2 Port Network Data from SP1.SP block
! freq  magS11  angS11  magS21  angS21  magS12  angS12  magS22  angS22  
!     
               500       0.444426554            -66.078        0.892585855              23.46        0.892174898              23.45        0.445502351            -66.232
               501       0.443554842            -66.124        0.892888695             23.417        0.892888695              23.43        0.444782124             -66.26
               502         0.4429452            -66.158        0.892483098             23.363        0.893511199             23.343        0.443659719             -66.34
               503       0.442180921            -66.233        0.893202644             23.291         0.89381986             23.321        0.443149231            -66.375
               504       0.441722987              -66.3        0.893099816             23.261        0.894540484             23.266        0.442180921            -66.407
               505       0.440453434            -66.423        0.893202644             23.133        0.895364766             23.154        0.441163933            -66.545
               506       0.439845345            -66.403        0.894025693             23.132          0.8948495             23.165        0.440554864            -66.537
               507       0.439789701            -66.468        0.894736296             23.095        0.895766992             23.125        0.439992279            -66.598
               508       0.438227876            -66.472        0.894540484             23.043        0.895777191             23.032        0.439238096            -66.674
               509       0.437169646            -66.527         0.89495253             22.997        0.895467854              22.98        0.438631685            -66.716
               510        0.43721998            -66.637        0.895777191             22.903        0.896912342             22.929        0.437522105            -66.784
               511       0.436515832            -66.646        0.895983475             22.837        0.896602613             22.938        0.436968368            -66.832
               512       0.435211137            -66.711        0.895777191             22.837        0.896809087             22.798        0.436113971            -66.868
               513        0.43471037            -66.752        0.896499393             22.765        0.897635459             22.769        0.435562017            -66.944
               514        0.43411021            -66.844        0.896912342               22.7        0.898152328             22.773        0.435060846             -66.95
               515       0.433460971            -66.902        0.897428795               22.7        0.898669495             22.663        0.434260172                -67
               516       0.432350212            -66.892        0.898122706             22.609        0.898536402             22.641        0.433446675            -67.051
               517       0.431916704            -66.955        0.897842171             22.557        0.899083443             22.557        0.432364472            -67.107
               518       0.430923323            -67.064        0.898255738             22.483        0.898979938             22.456        0.431270746             -67.15
               519       0.430229316            -67.064        0.898772964             22.415        0.899394029             22.483        0.431618449            -67.241
               520       0.429783759             -67.14        0.899394029             22.358        0.900015523             22.378        0.430427489            -67.341
               521       0.429388672            -67.187        0.900120355             22.342        0.900638655             22.376        0.429784336            -67.395
               522       0.428278831            -67.247        0.899863441             22.302        0.900900044             22.282        0.429167284            -67.377
               523       0.427187657            -67.263        0.900365189             22.268         0.90109109             22.254        0.428369652            -67.394
               524       0.427083291            -67.423        0.900870947             22.196         0.90190871             22.154        0.427821475            -67.542
               525       0.426334031            -67.427          0.9012598             22.111        0.901882583             22.179        0.426825148            -67.547
               526       0.425647415             -67.43        0.900637446             22.097        0.902194136             22.125         0.42628495            -67.584
               527        0.42523923            -67.538        0.901847951             21.978        0.902782897             22.056        0.425386128            -67.705
               528       0.424424064            -67.554        0.901674941             22.001        0.903233424                 22        0.424424064            -67.746
               529       0.423278954            -67.588        0.902457326             21.959        0.903288903             21.945        0.424157036            -67.738
               530       0.422393466            -67.657        0.902645438             21.871        0.903789292             21.888        0.423562196             -67.83
               531       0.421948926            -67.729            0.90315             21.837        0.903774089             21.803        0.422921619            -67.854
               532       0.421259783            -67.695        0.903337418             21.787        0.903857571             21.804        0.422279501            -67.899
               533          0.420692            -67.778        0.903887234             21.738        0.904511833             21.769        0.421419137            -67.956
               534       0.419855648              -67.8        0.903649474             21.684        0.904273908             21.715        0.420436101            -68.001
               535       0.419082957            -67.929        0.904169806             21.635        0.905419826             21.646        0.420000686             -68.04
               536       0.418600748            -67.901        0.904898774             21.611        0.904898774             21.599        0.419662342            -68.097
               537       0.418022829            -67.989        0.905107159             21.547        0.906254133             21.583        0.418745353            -68.229
               538       0.417205476            -68.051        0.905628331             21.485        0.905732601              21.48        0.418263532            -68.217
               539       0.416377952            -68.081        0.905394235             21.422        0.906645948             21.475        0.417289757            -68.241
               540       0.415575561            -68.158        0.905628331             21.396        0.906567196             21.405        0.416629483            -68.307
               541       0.415247035            -68.137        0.905954821             21.361        0.907416225              21.36        0.415868993            -68.384
               542       0.414524621            -68.243        0.907298789             21.285        0.906985473             21.296        0.415288908            -68.434
               543        0.41379705            -68.265        0.907271755             21.304        0.907585169             21.265        0.414798704            -68.432
               544       0.412864697            -68.247        0.906792145               21.2        0.907836729             21.221        0.414054729            -68.475
               545       0.412408548            -68.354        0.907251423             21.146        0.908505704             21.186        0.413216503             -68.53
               546       0.411718138             -68.46        0.907716019             21.062        0.908343264             21.099        0.412714759            -68.578
               547       0.410913112            -68.444        0.908029588             21.064        0.908343264             21.037        0.411812951            -68.634
               548       0.410253963            -68.497        0.908767496             20.964        0.908767496             21.026         0.41129439            -68.699
               549       0.409880945            -68.547        0.908568611             20.926        0.909824713             20.976        0.410305869            -68.781
               550        0.40895147            -68.575        0.908911867             20.923        0.909854136             20.934        0.410083007            -68.782
               551       0.408626579            -68.655        0.909550071             20.861        0.909864273             20.908        0.409615717            -68.815
               552       0.407689075            -68.724        0.910288537             20.773         0.91007896             20.829        0.408628896            -68.922
               553       0.407005239            -68.753        0.909599054              20.75          0.9103324             20.763        0.407755662            -68.958
               554       0.406888461             -68.76        0.910175988             20.743        0.911014678             20.764         0.40702902             -68.94
               555       0.406093377            -68.802        0.910806049             20.631        0.911015794             20.713        0.406420781            -69.052
               556       0.405228517            -68.905        0.910542036             20.627        0.911171233             20.598        0.405788748            -69.053
               557       0.404434291            -68.908        0.911376804             20.522        0.911481736              20.64        0.405553329             -69.13
               558       0.403667916            -68.934        0.911222075             20.499        0.911956729             20.557         0.40487805            -69.173
               559       0.403273793            -68.981        0.911905846             20.482        0.911905846             20.542        0.404156902            -69.199
               560       0.402624316            -69.075        0.912010839             20.392        0.912325891              20.49        0.403320224            -69.261
               561       0.402113807            -69.113        0.911693766             20.379        0.913374716             20.412        0.402530678            -69.295
               562       0.401282296            -69.159        0.912010839             20.317          0.9132717             20.407        0.401744556            -69.412
               563       0.400682154            -69.203        0.912220862             20.259        0.913166561             20.301        0.401005196            -69.378
               564       0.400225436            -69.305        0.913176415             20.228        0.914017869             20.244        0.400409789            -69.438
               565       0.399505238             -69.35        0.913634472             20.223        0.914371071             20.255          0.4000115            -69.434
               566       0.398795271            -69.315        0.913797572             20.165        0.914323748             20.203        0.399484561            -69.552
               567       0.398064131            -69.411        0.914435433             20.096        0.914540717             20.162        0.399211502            -69.599
               568       0.397338447            -69.414        0.914346043             20.042        0.914767212             20.094         0.39830026            -69.628
               569       0.396734529            -69.467        0.914113241             20.029        0.915482401             20.069        0.397786463            -69.662
               570       0.395867638            -69.559        0.914218489             19.921        0.915377008             19.961        0.396278034            -69.753
               571       0.395275594            -69.559        0.914744907              19.93        0.915166259              19.95        0.396141188            -69.754
               572       0.395048121            -69.583        0.916009547             19.891        0.915693223             19.909        0.395457667             -69.85
               573       0.394184915            -69.688        0.915377008             19.835        0.915587806             19.872        0.395002642            -69.849
               574       0.393595387            -69.744        0.916115012             19.745        0.916115012             19.826        0.394502718            -69.947
               575       0.393097245            -69.676        0.916431482             19.787        0.915798652             19.829        0.393776686            -69.944
               576       0.392644935             -69.79         0.91632598             19.687        0.916959174             19.758        0.393233039             -70.03
               577       0.391606598            -69.869        0.916431482             19.639        0.917909786             19.698        0.392735356            -70.128
               578       0.391110972            -69.845        0.916853611             19.623        0.917381547             19.615        0.391877203            -70.111
               579       0.390652386            -69.919        0.917361439              19.53        0.918101043              19.63        0.391327601            -70.156
               580       0.389941987            -70.015        0.918121167             19.526        0.917909786             19.539        0.390885896             -70.24
               581        0.38917954            -69.961         0.91748717             19.499        0.918332596              19.52        0.389717583            -70.195
               582       0.388597498             -70.05        0.917804114             19.447        0.918332596             19.467        0.389358805            -70.301
               583       0.387971657            -70.108        0.918544075             19.354         0.91843833             19.459        0.388866024            -70.369
               584       0.387123914            -70.142        0.917909786              19.31        0.918755602             19.367        0.388284452            -70.386
               585       0.386767524            -70.162        0.917909786             19.313        0.919178802             19.327        0.386945678             -70.44
               586       0.385966845            -70.201        0.918755602             19.231        0.919178802             19.315        0.386990229            -70.483
               587        0.38552274             -70.24        0.919284632             19.212        0.919919871              19.29        0.386678478            -70.484
               588       0.385123482            -70.343         0.91949633             19.157        0.920237655             19.175         0.38583356            -70.576
               589       0.384458972            -70.344        0.919813967             19.127        0.920343607             19.182        0.385079146            -70.616
               590       0.383751424            -70.407        0.919813967             19.094        0.921297728             19.127        0.384591782            -70.642
               591       0.383358139            -70.478        0.920459509             19.032        0.921413749             19.085        0.384153406            -70.686
               592       0.382780672             -70.54        0.920767539             18.944        0.921403802             19.018        0.383398139            -70.772
               593       0.382032227            -70.541        0.921297728             18.949        0.921297728             19.013        0.382692543             -70.79
               594       0.381329145            -70.575        0.921297728             18.865        0.921191665             18.952        0.382296217            -70.876
               595       0.380671181            -70.585        0.921297728             18.901        0.921615988             18.906        0.381636584            -70.812
               596       0.380145628            -70.651        0.921085615             18.855        0.922783882             18.821         0.38071501            -70.943
               597       0.379271317            -70.632        0.921085615             18.802        0.922146665             18.834        0.380408314            -70.949
               598       0.379053054            -70.778        0.922040505             18.692        0.922783882             18.755        0.379795662            -71.055
               599       0.378399017            -70.724        0.922146665             18.741        0.922252837             18.741        0.379358658            -71.036
               600       0.377615663            -70.817        0.922465218             18.625        0.922571427             18.689        0.378704094            -71.093
               601       0.377311463            -70.845        0.922890127             18.648        0.922571427             18.667        0.378050659            -71.092
               602       0.376400334            -70.935        0.922783882             18.583        0.923315232              18.57        0.377441805            -71.194
               603       0.376270352            -70.922        0.923208937             18.544        0.924059636             18.562        0.376877317            -71.219
               604       0.375469438            -70.969        0.924111964             18.476        0.924324773              18.56        0.376725131            -71.306
               605       0.374455316            -71.072        0.923315232             18.436        0.923740532             18.439        0.375534637            -71.322
               606       0.373938344             -71.09        0.923527857              18.42        0.924166028              18.43        0.375059353             -71.35
               607       0.373508079            -71.063        0.924166028             18.385         0.92437885             18.404        0.374627798            -71.348
               608       0.373078309            -71.144        0.924272433             18.313        0.924911118             18.348        0.373766178            -71.471
               609       0.372348836            -71.146        0.924272433             18.258         0.92437885             18.337        0.373078309            -71.508
               610       0.371321418            -71.223        0.924485279             18.304        0.924911118             18.257        0.372649034            -71.441
               611       0.370851466             -71.25         0.92459172             18.196        0.924911118             18.206        0.371663575            -71.532
               612       0.370382109            -71.303        0.925017609             18.151        0.925337153             18.212        0.371749164            -71.585
