!{201R07S220}
!Johanson Technology Inc.
!www.johansontechnology.com
!Test Board Conditions:
!Substrate Type  RO4350B
!Substrate Thickness        10 mil
!Substrate Dk      3.66
!TL Type: GCPW 
!TL Trace Width  21 mil
!TL Gap  20 mil
!Electrode orientation      Horizontal
!DUT TOPOLOGY	SERIES
!Mounting Pad LxW         16x21 mil
!Agilent Technologies,N5230A,MY45001966,A.07.50.67
!Agilent N5230A: A.07.50.67
! Created Mon Mar  9 16:08:44 2020
# mhz S ma R 50
! 2 Port Network Data from SP1.SP block
! freq  magS11  angS11  magS21  angS21  magS12  angS12  magS22  angS22  
!     
               500       0.143827982            -84.929        0.987969155              5.284        0.988993383              5.277        0.145259112              -84.9
               501       0.144113023            -84.903        0.988788093              5.295        0.988788093              5.315        0.145045156            -84.902
               502       0.143427831            -84.881        0.988287792              5.312        0.989198458              5.257        0.144438653            -84.939
               503       0.143285953            -84.869         0.98821995              5.287        0.989358336              5.231        0.144279164             -84.85
               504        0.14257193            -85.068        0.988061619               5.21        0.989085943              5.206        0.143940839            -85.075
               505       0.142445062            -84.994        0.989116392              5.182        0.989230275              5.164        0.143415932            -84.869
               506       0.141946621            -85.139          0.9888378              5.152        0.989065515              5.119        0.143243545            -84.987
               507       0.141692564            -85.037        0.989001751              5.153        0.989001751              5.174        0.143036561            -84.994
               508       0.141370417            -85.016        0.989255652              5.141        0.988800188               5.15        0.142662076            -85.071
               509       0.140911852            -85.195        0.989572285              5.105        0.988206084              5.039        0.142232068            -84.981
               510       0.140536638            -85.158        0.989098541              5.091        0.989098541               5.05        0.141902341            -85.143
               511       0.140491172            -85.156        0.989006246              5.057        0.989347896              5.032        0.141791121            -85.116
               512       0.139971598            -85.143        0.988530154              5.002        0.989668896              5.015        0.141250476            -85.188
               513       0.139626946            -85.186        0.988710709              5.008        0.989507837              4.987        0.141162467            -85.191
               514        0.13949013            -85.244        0.989107465               4.94        0.989563071              4.969          0.1406998            -85.228
               515        0.13938164            -85.339        0.989476694              4.937        0.988907269              4.929        0.140719917             -85.29
               516       0.138890107            -85.224        0.988601604              4.946        0.989854384               4.93        0.140094573            -85.284
               517       0.138206184            -85.413        0.989526608              4.856        0.989298787              4.879        0.139629594            -85.275
               518       0.138000851            -85.412        0.989422456              4.865        0.989536374              4.859           0.139374            -85.276
               519       0.137699284            -85.474        0.989536191              4.855        0.989536191              4.824        0.139005403            -85.286
               520       0.137544309            -85.386        0.989333296              4.847        0.989675059              4.797        0.138960902            -85.388
               521       0.137026396            -85.461        0.989245849               4.79        0.989815469              4.809        0.138549268            -85.304
               522       0.137062075            -85.475        0.989959212              4.785         0.98938951              4.774         0.13831437            -85.297
               523       0.136557288            -85.533        0.989839734              4.747        0.989725781              4.729        0.137725667            -85.399
               524       0.135991385            -85.572        0.990059734              4.731        0.988806694              4.727        0.137677001            -85.364
               525       0.135681746             -85.54        0.989398901              4.684        0.989968608              4.658        0.137237066            -85.516
               526       0.135508725            -85.587        0.989503325              4.636        0.989959113              4.665        0.136983184            -85.559
               527       0.135114908            -85.654        0.988788192              4.678        0.990155197              4.611        0.136726681            -85.602
               528        0.13495173            -85.664        0.989414921              4.596        0.990326625              4.595        0.135996727            -85.636
               529       0.134920056            -85.495        0.989752285              4.641        0.990208188               4.63        0.136215495            -85.549
               530       0.134366312            -85.649        0.989669981              4.582        0.990239845              4.547        0.135687674            -85.653
               531        0.13383183            -85.772        0.989827276              4.553        0.989941241              4.547        0.135459484            -85.624
               532       0.133672456            -85.666        0.990015352              4.566        0.990129338              4.531        0.135126936            -85.606
               533        0.13351513            -85.757        0.990559308              4.469        0.989419541              4.526        0.134719507            -85.676
               534        0.13305464            -85.623          0.9903302              4.481         0.98953241              4.507        0.134796937            -85.759
               535       0.132660219             -85.75        0.990126562              4.495        0.990126562              4.473         0.13424271            -85.688
               536       0.132497742            -85.871         0.98982513              4.436        0.990395083              4.417        0.133862359            -85.824
               537          0.132172            -85.856        0.989781792              4.442        0.990579784              4.398        0.133579391            -85.725
               538       0.132268276            -85.889        0.990616808              4.396        0.990046727              4.404        0.133246464            -85.814
               539        0.13164577            -85.911        0.989935525              4.382        0.990505542              4.353         0.13321616            -85.771
               540       0.131637338            -85.966         0.98975816              4.368        0.990784243               4.33        0.132778907            -85.813
               541       0.131230857            -85.882         0.99057181              4.348         0.99068586              4.341        0.132170936            -85.825
               542       0.131161957            -86.001        0.990849941              4.328        0.990165722              4.321        0.132147176            -85.788
               543       0.130495209            -85.941        0.990135356              4.279        0.990705488              4.306        0.131991076            -85.875
               544       0.130252001            -85.886        0.990910441               4.24        0.990340191              4.257        0.131563193            -85.849
               545       0.129906498            -85.813        0.990446169               4.23         0.99101648              4.229        0.131123604            -85.925
               546       0.129551453            -85.979        0.990358167              4.194        0.990928427              4.206        0.130900796            -85.973
               547       0.129401927            -86.103        0.990810824              4.175        0.990582708              4.211        0.130689514            -85.926
               548        0.12905881            -85.976        0.990233593              4.174        0.991031949              4.202        0.130493132            -85.981
               549       0.128564955            -86.166        0.990655377              4.132        0.990541331              4.152        0.130038695            -86.149
               550       0.128302254            -86.176        0.990682028              4.078        0.990453941              4.124        0.130042193            -86.129
               551       0.128248463            -86.221        0.990494726              4.086         0.99083689              4.105        0.129703641            -86.146
               552       0.127805673            -86.179        0.989920077              4.071        0.991288648              4.132        0.129003096            -86.187
               553       0.127297615            -86.258        0.990764115              3.996         0.99053601              4.077        0.129202307             -86.12
               554       0.127708946            -86.259        0.990424379              4.015        0.991222889              4.074         0.12883128            -86.184
               555       0.127341687            -86.386        0.990536764              3.987        0.991221239              3.963        0.128342531            -86.274
               556       0.126862438            -86.352        0.990337114              3.937        0.991363796              3.991        0.127947868            -86.311
               557        0.12636589            -86.362        0.990900075              3.972        0.990785999              3.968        0.127976392            -86.277
               558       0.126165251            -86.253        0.990010397              3.921        0.991607392              3.972        0.127582103            -86.096
               559       0.125793126            -86.373        0.991189995              3.893        0.991075886              3.931        0.127161871            -86.227
               560       0.125533662             -86.47        0.990399008              3.876        0.991539903              3.916        0.126811955            -86.261
               561       0.125406127            -86.521        0.991331156              3.891        0.990988822              3.884         0.12643542            -86.331
               562       0.125187226            -86.457        0.991425344              3.864        0.990968881              3.864        0.126447433            -86.293
               563       0.124880241            -86.468        0.990475478              3.879        0.991502304              3.804        0.126428134            -86.348
               564       0.124671307            -86.529        0.990641489              3.858        0.991554324              3.843         0.12599883            -86.328
               565       0.124540465            -86.599        0.990741789              3.799        0.991540554              3.785        0.125634953            -86.491
               566       0.123888205            -86.667        0.991470872               3.74        0.990672163               3.75        0.125510471            -86.445
               567        0.12370246            -86.568        0.991124786              3.733        0.991353027              3.731        0.125293441            -86.476
               568       0.123318781            -86.628         0.99124092              3.719         0.99124092              3.727        0.124933591            -86.501
               569       0.123254163            -86.644        0.991063763              3.672        0.991748602              3.694        0.124423266            -86.526
               570       0.122670697            -86.597        0.991838206               3.63        0.990468877              3.658         0.12430564            -86.593
               571       0.122695063            -86.601        0.991806817              3.649        0.991350179              3.694        0.123773334            -86.556
               572       0.122644388            -86.616        0.991168934              3.657        0.991853845              3.655        0.123764953            -86.596
               573       0.122247692            -86.593        0.991837828              3.581        0.991152927              3.617        0.123677491            -86.625
               574       0.121722543            -86.801        0.991336321              3.588        0.991678775              3.575        0.123146201            -86.623
               575       0.121683006            -86.785        0.991813302              3.557        0.991470801              3.522        0.122964551            -86.624
               576        0.12119908            -86.822        0.991058578              3.532        0.991857598              3.578        0.122715473            -86.672
               577       0.121035597            -86.766        0.991774911              3.571        0.991432423              3.522        0.122564054            -86.639
               578       0.120823438            -86.815        0.991291059              3.516        0.991747671               3.54        0.122349216            -86.783
               579       0.120694831            -86.788         0.99149076              3.511        0.991947463               3.51        0.122008102            -86.709
               580        0.12049361            -86.837        0.991434472              3.472        0.992119567              3.473        0.121678547            -86.711
               581       0.120175072            -86.764         0.99177782              3.474        0.992006212              3.464        0.121468702            -86.692
               582        0.11989352            -86.882        0.991849344              3.429        0.991849344              3.434        0.121184119            -86.788
               583       0.119151829            -86.897        0.992089184              3.425         0.99140411              3.365        0.120837217            -86.756
               584       0.119466959             -87.02        0.991055123              3.397        0.992196774              3.377        0.120794681            -86.882
               585       0.118777895            -86.981        0.991597961              3.344        0.991940506              3.303         0.12030554             -87.05
               586       0.118761795              -86.9        0.991920238              3.311        0.991691866              3.386        0.120400073            -86.963
               587       0.118280014            -87.047        0.991999305               3.33        0.991885104              3.299        0.119925453            -86.745
               588       0.117978177            -87.006         0.99243411              3.269        0.991292186              3.292        0.119454271            -86.915
               589       0.118107564            -87.064        0.992265087              3.294        0.991237471              3.336        0.119585276            -87.005
               590       0.117709533            -87.102        0.991999919              3.245        0.991885718              3.225        0.119292087            -87.026
               591        0.11743577            -87.216        0.991631694              3.209        0.991974251              3.226        0.119151743            -87.102
               592       0.117331278            -87.064        0.991548133              3.252        0.992461803              3.214        0.118553342            -87.114
               593       0.117082979            -87.137        0.992301765                3.2        0.991959096              3.179        0.118411468            -87.064
               594       0.116754615              -87.2        0.992142502              3.174        0.992028284               3.16        0.118174577            -87.133
               595       0.116569122            -87.201        0.991707337               3.14         0.99250688              3.199         0.11789178            -87.069
               596       0.116464241            -87.242        0.991842245              3.128        0.992641898              3.155         0.11756894            -87.025
               597       0.115869088            -87.358        0.992470461              3.111        0.991670947              3.125        0.117440418            -87.046
               598       0.115510169            -87.297        0.992590736              3.078        0.991676947              3.039        0.117144045            -87.098
               599       0.115327856            -87.302        0.991937296               3.05        0.992508466              3.039        0.116905305            -87.159
               600       0.115304633             -87.28        0.992422859               3.09        0.991851739              3.081        0.116868309            -87.254
               601       0.114913889            -87.327        0.992481732              2.973           0.992139              3.059        0.116311464              -87.3
               602       0.114868556            -87.554        0.992204429              2.992        0.992432919              2.986        0.116024889             -87.26
               603       0.114472418            -87.311        0.992546486              3.015        0.992203731              3.029        0.115984741            -87.206
               604       0.114120533              -87.4        0.992461785              2.938         0.99234753              2.998        0.115574971            -87.308
               605       0.113919376             -87.41        0.991967853              2.962         0.99253904              2.946        0.115517451            -87.442
               606       0.113457578            -87.295        0.991935674              2.943        0.992735401              2.961        0.115234762             -87.31
               607       0.113350078            -87.553        0.991794796              2.895        0.992708693              2.885        0.115032836            -87.395
               608       0.113263336            -87.391        0.992634464              2.872        0.992634464              2.892        0.114601249            -87.372
               609       0.113243513            -87.326        0.992346483              2.855        0.992917888              2.915        0.114515252            -87.407
               610       0.112678399            -87.469        0.992180454              2.845        0.992866065              2.823         0.11416702            -87.474
               611       0.112547222            -87.437         0.99250975              2.886         0.99273831               2.83        0.113981609            -87.445
               612        0.11206769            -87.544        0.992385527              2.789        0.992728344              2.822        0.113718317            -87.472
