!{201R07S240}
!Johanson Technology Inc.
!www.johansontechnology.com
!Test Board Conditions:
!Substrate Type  RO4350B
!Substrate Thickness        10 mil
!Substrate Dk      3.66
!TL Type: GCPW 
!TL Trace Width  21 mil
!TL Gap  20 mil
!Electrode orientation      Horizontal
!DUT TOPOLOGY	SERIES
!Mounting Pad LxW         16x21 mil
!Agilent Technologies,N5230A,MY45001966,A.07.50.67
!Agilent N5230A: A.07.50.67
! Created Mon Mar  9 16:09:26 2020
# mhz S ma R 50
! 2 Port Network Data from SP1.SP block
! freq  magS11  angS11  magS21  angS21  magS12  angS12  magS22  angS22  
!     
               500       0.120084574            -85.395        0.991030961              4.591        0.992172585              4.601        0.121503062            -85.945
               501       0.120295415            -85.396         0.99185703              4.611         0.99185703              4.624        0.121254838                -86
               502       0.119823141            -85.383        0.991038899               4.62        0.992409016              4.559        0.120653716            -86.033
               503       0.119610765            -85.396        0.990992277              4.584        0.992476586              4.539        0.120592492            -85.958
               504       0.119014893            -85.551        0.991291338              4.516        0.992090546              4.526        0.120268338            -86.212
               505       0.118720861            -85.485        0.992035101              4.503        0.992377797              4.493        0.119585091            -85.978
               506       0.118119063            -85.632        0.992019007              4.455        0.991904803              4.438        0.119473062            -86.119
               507       0.118029295            -85.506        0.992064278              4.456          0.9921785              4.466        0.119203721            -86.115
               508       0.117607182            -85.559        0.992279097              4.455         0.99182224              4.445        0.118859485            -86.171
               509       0.117248421            -85.623        0.992560532              4.397        0.991646771               4.38        0.118455983            -86.112
               510       0.116904474            -85.582        0.992158675              4.399        0.992158675              4.381        0.118135693            -86.289
               511          0.116804            -85.537        0.992219405              4.374        0.992333645              4.372        0.118020572            -86.225
               512       0.116273236            -85.586        0.991584572              4.321        0.992726833              4.328        0.117524865            -86.252
               513       0.116116097            -85.577        0.991727664               4.33        0.992755788              4.288        0.117311997            -86.267
               514       0.115702701             -85.68        0.992415407              4.276        0.992186921              4.289        0.117029001            -86.345
               515       0.115767421            -85.821        0.992399092              4.239        0.992284844              4.244        0.116798256            -86.386
               516       0.115081256            -85.668        0.991755446              4.244        0.992783599              4.237        0.116279885            -86.478
               517        0.11460468            -85.789        0.992435638              4.202        0.992549903              4.195        0.115905048            -86.338
               518       0.114285877            -85.907        0.992527534              4.208        0.992413272              4.167        0.115569321            -86.344
               519       0.114174856            -85.823         0.99247705              4.176        0.992705603              4.167        0.115284381            -86.401
               520       0.113789857            -85.819         0.99198145              4.173        0.992781215               4.14        0.115160502            -86.541
               521       0.113353624             -85.83        0.992168442              4.095        0.992968358              4.133        0.114639797            -86.445
               522       0.113299303            -85.866        0.992949673              4.125        0.992149772              4.101        0.114690445            -86.373
               523       0.112779784            -85.913        0.992730252              4.093        0.992730252              4.059        0.113980683            -86.496
               524       0.112319357            -85.992         0.99289794              4.073        0.992212307              4.042        0.113894987            -86.454
               525       0.112072395            -85.898        0.992312937               4.04         0.99299864              3.999         0.11350073            -86.611
               526       0.111834066             -85.96        0.992713926              3.996        0.992828223              4.003         0.11311602            -86.652
               527       0.111423451            -86.043        0.991805711              4.004        0.993062551              3.961        0.112973505            -86.754
               528       0.111151787            -86.098        0.992582127              3.953        0.993039333              3.926        0.112309489            -86.724
               529       0.111060258             -85.86        0.993021562              3.974        0.992907243              3.971        0.112346275            -86.631
               530       0.110626597            -85.941         0.99268064              3.945        0.993023559              3.921        0.112023607            -86.796
               531       0.110181129            -86.105        0.992561029              3.907        0.993132558              3.866        0.111675324            -86.701
               532       0.109903069            -86.029        0.992566973              3.898        0.993138505              3.894        0.111431973            -86.777
               533       0.109827089            -86.086        0.993480785              3.811        0.992566176              3.871        0.110932671            -86.727
               534       0.109299982            -86.027        0.993161995              3.825         0.99247618              3.844        0.110999262            -86.919
               535       0.108909579            -86.165        0.993038481              3.843        0.992695557              3.813        0.110590056            -86.877
               536       0.108819328            -86.211        0.992444064              3.811        0.993358559              3.765         0.11018083             -86.95
               537       0.108410527            -86.173        0.993050779              3.773        0.993279464              3.759        0.109754278            -86.852
               538       0.108383325            -86.213        0.993373271              3.743        0.992915911              3.748         0.10957525            -86.957
               539       0.107869801            -86.289        0.992201498               3.73        0.993573223                3.7        0.109395606            -86.914
               540       0.107815105            -86.324        0.993069419              3.744        0.993412472              3.657         0.10910122            -86.844
               541       0.107401352            -86.213        0.993595799              3.674        0.993252682              3.673        0.108395124            -86.985
               542       0.107418327             -86.27        0.993638438              3.694        0.993066618               3.69        0.108412256            -86.945
               543       0.106830414            -86.273        0.993218757              3.663        0.993333112              3.661        0.108329045            -86.961
               544       0.106513528            -86.142         0.99381322               3.59        0.993126956              3.605        0.107746897            -86.993
               545       0.106152215            -86.091        0.993411219              3.598        0.993754391              3.583         0.10733196            -87.088
               546       0.105884795            -86.263        0.993078543              3.537        0.993879192              3.556        0.107036919            -87.129
               547       0.105574266            -86.476        0.993591962              3.533        0.993477577              3.542        0.106796758            -87.016
               548       0.105368172            -86.242        0.993023317              3.541        0.993823922              3.569        0.106747926            -87.168
               549       0.104884024            -86.472        0.993366117              3.501        0.993366117              3.529        0.106208516            -87.376
               550       0.104712938            -86.437        0.993688688              3.453        0.993231183              3.465         0.10616964             -87.28
               551       0.104589416            -86.472         0.99365984               3.46        0.993202348              3.475        0.105946774            -87.367
               552       0.104077239            -86.458        0.992557701              3.444        0.994158805              3.493        0.105185473             -87.27
               553        0.10358841            -86.559        0.993599045              3.379        0.993255927              3.456        0.105380721            -87.268
               554       0.103985465            -86.537        0.993282163              3.414        0.993968535               3.44        0.105092721            -87.277
               555       0.103454132            -86.634         0.99333981              3.365        0.993911787              3.324        0.104664124            -87.407
               556       0.103112206            -86.562        0.993139093              3.313        0.994168681              3.339        0.104186171             -87.45
               557       0.102578698             -86.61        0.993475551              3.349        0.993704333              3.332        0.104197472            -87.434
               558       0.102392948            -86.466        0.992704634              3.303        0.994305975              3.328        0.103901077            -87.292
               559       0.102122414            -86.528        0.993736114              3.282        0.994079398              3.311        0.103376321            -87.391
               560       0.101761401            -86.756        0.993077353              3.244        0.994221334              3.299        0.102975303            -87.492
               561        0.10160381             -86.69        0.994054037              3.287        0.993710762              3.277        0.102733005            -87.481
               562       0.101303181            -86.626        0.994312917              3.235        0.993397543               3.25        0.102547029            -87.477
               563       0.101175614            -86.676        0.993175161              3.243        0.994319254               3.18        0.102465072            -87.578
               564       0.100944814            -86.689         0.99342255              3.246        0.994337947              3.221        0.102101945            -87.518
               565       0.100622116            -86.851        0.993215399               3.18        0.994245066               3.16        0.101822427            -87.723
               566       0.100152946            -86.873        0.994062584              3.146        0.993604907              3.135        0.101628082            -87.671
               567       0.099963141            -86.816         0.99377918              3.128        0.994122478               3.13        0.101412128            -87.622
               568      0.0995675431             -86.78        0.993843017              3.102        0.994071884              3.124        0.101080595            -87.718
               569      0.0994579391             -86.81        0.993892597              3.061        0.994235935              3.092        0.100621192            -87.824
               570       0.098891878            -86.884        0.994513367              3.045        0.992797385              3.047        0.100545034            -87.764
               571      0.0988692688            -86.832        0.994400473              3.047        0.993828215              3.062        0.100002607            -87.837
               572       0.098768656            -86.799        0.993846115               3.05        0.994532876              3.034       0.0999468576            -87.719
               573      0.0985531579            -86.803         0.99442159              2.979        0.994192643              3.006       0.0996713969            -87.803
               574      0.0978218679            -86.957        0.994113454              2.969        0.994113454              2.966       0.0993426982            -87.884
               575      0.0979136516            -86.971        0.994473575              2.937        0.994244616              2.906       0.0989562542            -87.851
               576      0.0975697587            -86.957        0.993608346              2.922         0.99463842               2.96       0.0989270892            -87.845
               577      0.0971921714             -86.93        0.994217229              2.962        0.994217229              2.929       0.0987032118            -87.892
               578      0.0969910913            -87.024        0.993760764               2.92        0.994447467              2.946       0.0983856696            -88.039
               579      0.0968207921             -86.93        0.993730527              2.921        0.994760728              2.895       0.0980208877            -87.962
               580      0.0966217151            -86.964        0.994431201              2.862        0.994431201              2.867        0.097796822            -87.998
               581      0.0961101918            -86.952        0.994190123              2.892        0.994533563              2.864       0.0975594726            -87.961
               582        0.09603015            -87.007        0.994506457              2.845        0.994391966              2.828       0.0973436456            -87.979
               583      0.0952988354            -87.028        0.994575126              2.828        0.994117213              2.766       0.0969365577            -88.049
               584      0.0955888213            -87.278        0.993246644              2.825         0.99473433              2.769       0.0968962805            -88.244
               585      0.0948389956            -87.056        0.993772434              2.779        0.994688154              2.726       0.0963245405            -88.405
               586      0.0949172602            -87.079        0.994478032              2.726        0.994249071              2.779       0.0964262315            -88.273
               587      0.0944572261            -87.169        0.994340634              2.749        0.994569616              2.743       0.0960251927            -88.064
               588      0.0942919859             -87.12        0.994889352              2.676        0.994202344              2.679       0.0955597011            -88.244
               589      0.0941449871            -87.164        0.994826167              2.694        0.993795899              2.741       0.0956747201            -88.272
               590      0.0939494038            -87.236        0.994475363              2.655        0.994589863              2.636       0.0953221937            -88.311
               591      0.0935620879            -87.321        0.994374331              2.632        0.994374331              2.657       0.0951590078            -88.413
               592      0.0934521481            -87.167        0.994350024               2.68        0.994808045              2.611        0.094588707            -88.488
               593       0.093131497             -87.27        0.994824756              2.612        0.994366728              2.615       0.0943401547            -88.434
               594      0.0928527082            -87.288        0.994476615              2.599        0.994591114              2.582       0.0942854276            -88.512
               595      0.0927055555            -87.375        0.994044348              2.562        0.994960319              2.619       0.0939086853            -88.479
               596        0.09252102            -87.325        0.994009219              2.533        0.995268851              2.587        0.093549272            -88.314
               597       0.091910244            -87.463        0.995093568              2.512        0.993719745              2.537        0.093317677            -88.524
               598      0.0917608739            -87.332        0.995078954              2.518        0.994162874              2.497       0.0931660195            -88.519
               599      0.0914983715            -87.322        0.994634146              2.451        0.994863195              2.475       0.0929636923            -88.559
               600      0.0913674111            -87.416        0.994583659              2.508        0.994698171              2.515       0.0927238209            -88.655
               601      0.0910604346            -87.355        0.994900659              2.412        0.994671601              2.485       0.0923803745            -88.669
               602      0.0908426363            -87.515        0.994694529              2.413        0.994923592              2.435       0.0920109955            -88.645
               603      0.0905121178             -87.35        0.994847989              2.473         0.99473346              2.441       0.0920357862            -88.607
               604      0.0902112023            -87.507        0.994627519              2.386         0.99497111              2.421       0.0915715301            -88.686
               605      0.0898119891            -87.537        0.994338636              2.361        0.994911188              2.371       0.0914817186            -88.859
               606      0.0893892461            -87.431        0.994455318              2.378        0.994913387              2.397       0.0912820268            -88.733
               607      0.0893475416            -87.564        0.994220257               2.33        0.995136389              2.332       0.0910400751            -88.772
               608      0.0892709618             -87.41        0.994970522              2.298        0.994970522              2.322       0.0906275447            -88.859
               609      0.0890903471             -87.37        0.994330247              2.296        0.995475672              2.316       0.0904337731            -88.759
               610      0.0887259233            -87.558        0.994604746              2.274        0.995292032              2.238       0.0900431184            -88.874
               611      0.0885836687            -87.451        0.995070068              2.316        0.994955513              2.295       0.0900126738            -88.813
               612      0.0880049635            -87.548        0.994848999               2.23        0.994963542              2.232       0.0896307783            -89.016
