!{201R07S9R1}
!Johanson Technology Inc.
!www.johansontechnology.com
!Test Board Conditions:
!Substrate Type  RO4350B
!Substrate Thickness        10 mil
!Substrate Dk      3.66
!TL Type: GCPW 
!TL Trace Width  21 mil
!TL Gap  20 mil
!Electrode orientation      Horizontal
!DUT TOPOLOGY	SERIES
!Mounting Pad LxW         16x21 mil
!Agilent Technologies,N5230A,MY45001966,A.07.50.67
!Agilent N5230A: A.07.50.67
! Created Mon Mar  9 15:47:09 2020
# mhz S ma R 50
! 2 Port Network Data from SP1.SP block
! freq  magS11  angS11  magS21  angS21  magS12  angS12  magS22  angS22  
!     
               500        0.33778821            -72.322        0.939603199             17.416        0.938630121             17.394        0.339347369            -72.346
               501       0.336892636            -72.379        0.939704958             17.373        0.939164176             17.385        0.338720529            -72.366
               502       0.336636264            -72.399        0.939530532             17.339        0.939963302             17.303        0.337956573            -72.457
               503       0.335933088             -72.45        0.939729329              17.26        0.940270437             17.306        0.337134177            -72.467
               504       0.335508341            -72.545        0.939622312             17.269        0.940813024             17.237        0.336514143            -72.466
               505       0.334270456            -72.632        0.939610785             17.162        0.941343207             17.173        0.335697412            -72.596
               506       0.334012988            -72.602        0.940293328             17.142        0.941159769             17.167        0.335130037            -72.588
               507       0.333753392            -72.654        0.940428295             17.125        0.941511627             17.133        0.334522773            -72.613
               508        0.33257526            -72.621        0.940459157             17.058        0.941650929             17.072        0.333841205            -72.718
               509       0.331588912            -72.736         0.94080583             16.998        0.941564336             16.984        0.333196169             -72.77
               510       0.331467609            -72.796        0.941328258             16.927        0.942195652             16.965        0.332423024            -72.837
               511       0.330864369            -72.823        0.941672743             16.906        0.941781164             16.965         0.33174165            -72.798
               512       0.329761538            -72.868        0.941239187               16.9        0.941889597             16.846        0.331131121             -72.84
               513       0.329211358            -72.914        0.942051856              16.82        0.942702827             16.822        0.330578656            -72.947
               514        0.32877043            -72.984        0.941982315             16.743        0.943067437             16.844        0.330059889            -72.942
               515       0.328164258             -73.03        0.941870681             16.777         0.94360727             16.731        0.329148044            -72.993
               516       0.327207005             -73.03        0.942915104             16.696        0.943023667             16.724        0.328755171            -73.024
               517       0.326685904            -73.106        0.942606426             16.637        0.943692267             16.632        0.327778449            -73.065
               518       0.325950471            -73.175        0.943303864             16.571        0.943738372             16.551        0.326852351            -73.132
               519       0.325430383            -73.168        0.943209349             16.535        0.943969793             16.592        0.326932501            -73.189
               520        0.32474274            -73.262        0.944037943             16.469        0.943929263             16.466        0.325941343            -73.281
               521        0.32456943            -73.289        0.943860067             16.462        0.944947352             16.501        0.325317639            -73.349
               522       0.323476084            -73.337        0.943717865             16.442        0.945022561             16.396        0.324445815            -73.306
               523       0.322518074            -73.335        0.944395823             16.376        0.944613304             16.382        0.324118677            -73.351
               524        0.32241624            -73.482        0.944750017              16.34        0.945294015             16.294        0.323569001            -73.457
               525       0.321829801            -73.482        0.944879129             16.277        0.945423202             16.322        0.322831762             -73.44
               526       0.320981678            -73.459        0.944561506             16.242        0.945649599             16.267        0.322240589            -73.486
               527       0.320737692            -73.588        0.945474892             16.154        0.945801503             16.231          0.3215511            -73.571
               528       0.319978157            -73.572        0.945519158             16.191        0.946172525             16.155        0.320900455             -73.62
               529       0.318877027            -73.617        0.945743209             16.103        0.946069914             16.128        0.320496456            -73.664
               530       0.318094604            -73.661        0.945488611             16.059          0.9464688             16.061        0.319673254             -73.67
               531       0.318067451            -73.681        0.945299066             16.019        0.946823937             16.009        0.318910801            -73.707
               532       0.317226462            -73.695        0.946170508             16.002         0.94649736             16.001        0.318727405            -73.737
               533       0.316893196            -73.769        0.946374249             15.938        0.947028207             15.964        0.317879788            -73.799
               534       0.316099748             -73.79        0.946507695             15.904        0.947270798             15.925        0.317193405            -73.839
               535       0.315141598            -73.891        0.946576532             15.851        0.947557848             15.861        0.316669133            -73.877
               536       0.315098522            -73.873        0.946992121             15.838         0.94753741             15.827         0.31622512             -73.93
               537       0.314128247            -73.943        0.947451506             15.789         0.94799706             15.796        0.315469219             -74.03
               538       0.313610286            -73.993         0.94741509              15.71        0.947851492             15.709        0.315021575            -74.043
               539       0.312872977            -74.016        0.947475642             15.671        0.948348702             15.728        0.314136249            -74.049
               540       0.312248241            -74.091         0.94754534             15.671         0.94852766             15.654        0.313689513            -74.085
               541       0.311815302             -74.06        0.947430635             15.621        0.948958944             15.612         0.31296619            -74.178
               542       0.311093075            -74.167        0.948943476             15.573        0.948288195             15.565        0.312493037            -74.217
               543        0.31050732            -74.201        0.948684584             15.583        0.949012304             15.532        0.311940557            -74.216
               544       0.309719961            -74.128        0.948023702             15.499        0.949115784             15.528        0.311436275            -74.231
               545       0.309281837            -74.245        0.948646515             15.451        0.949520653             15.498        0.310673647            -74.282
               546       0.308797295            -74.343        0.949015897             15.391        0.949343732             15.409        0.310329804            -74.307
               547       0.308069459            -74.368        0.949180146             15.371        0.949726695             15.349        0.309455813            -74.358
               548       0.307427987            -74.386        0.949605893             15.297        0.949715227              15.34         0.30884701            -74.417
               549       0.307058913            -74.402        0.949558463             15.251        0.950324025             15.298        0.308085819            -74.515
               550       0.306220078            -74.459          0.9495846             15.269        0.950459603              15.25        0.307704369            -74.485
               551       0.305761268             -74.51        0.950347573             15.187        0.950019392             15.242        0.307384858            -74.531
               552       0.305073788            -74.537         0.95050607             15.137        0.950615508             15.174         0.30630557            -74.616
               553       0.304543967            -74.572        0.950276523             15.138        0.950823704             15.125        0.305844025            -74.626
               554       0.304499824            -74.602        0.950138784             15.109        0.951452357             15.119        0.305131501            -74.635
               555       0.303645798            -74.629        0.951299516             15.021        0.950752061             15.065        0.304696367            -74.733
               556        0.30304003            -74.704        0.950604794             15.006        0.951371199             14.975        0.303983492            -74.722
               557       0.302439547            -74.701        0.951346182             14.916         0.95123666             15.023        0.303695656            -74.777
               558       0.301553298            -74.709        0.950964012             14.925        0.951621142             14.942        0.303224356            -74.802
               559       0.301401756            -74.769        0.951690598             14.893        0.951800172             14.948         0.30254904             -74.84
               560       0.300905008            -74.864        0.951654743             14.829        0.952421995             14.898        0.301911333            -74.916
               561       0.300268756            -74.882        0.951283896             14.807        0.952818421             14.829        0.301168915            -74.958
               562       0.299656686            -74.944        0.951752381              14.76        0.953068185              14.81        0.300624224            -75.023
               563       0.299019837            -74.899        0.952138223             14.692          0.9525768             14.783        0.300019857            -75.005
               564        0.29843137            -75.043        0.952455016             14.671        0.953003451              14.69        0.299360485             -75.04
               565       0.297867333            -75.091        0.952736662             14.672        0.953395016             14.707        0.298932323            -75.066
               566        0.29735521            -75.043        0.953181384             14.647        0.953181384             14.668        0.298521457            -75.156
               567        0.29653591            -75.147        0.953294951             14.562        0.952965751             14.602         0.29824783            -75.171
               568        0.29596197            -75.118        0.953204118             14.511        0.953423627             14.571        0.297328069            -75.217
               569       0.295529967              -75.2        0.952689822             14.513        0.954226615             14.541        0.296894071            -75.255
               570       0.294645627            -75.282        0.953235044             14.404        0.953564337             14.433        0.295699098            -75.311
               571       0.294329773            -75.266        0.953529635             14.428        0.954188538              14.42        0.295586228            -75.313
               572       0.293916213            -75.271        0.954604644             14.398        0.953835634             14.415        0.294933118            -75.413
               573       0.293258089            -75.404        0.953893743             14.327        0.954223263             14.345        0.294442163            -75.442
               574       0.292886936            -75.431        0.954223263             14.271        0.954552897             14.337        0.294171097            -75.505
               575       0.292347914            -75.382        0.954552897             14.315         0.95411341              14.31        0.293460734            -75.497
               576         0.2918781             -75.45        0.954885968             14.206        0.954885968             14.285        0.293157839            -75.589
               577       0.291044726            -75.549        0.953915124             14.162        0.955893997              14.23        0.292388128            -75.667
               578       0.290599916            -75.525        0.955092609             14.156        0.955312553             14.152        0.291773258            -75.646
               579       0.290098816            -75.565        0.955203614             14.111        0.955643603             14.181         0.29130367            -75.663
               580       0.289487505            -75.667        0.956048278             14.089        0.955388091              14.09        0.290857203             -75.77
               581       0.288803602            -75.617        0.955328218             14.058        0.955988363             14.078        0.290003077            -75.703
               582       0.288369949            -75.679        0.955872572             14.017        0.955872572             14.019         0.28980108            -75.808
               583       0.288029533            -75.698        0.955954055             13.949        0.956504505             14.035        0.289026072            -75.885
               584        0.28723165            -75.768          0.9550636             13.918        0.956714362             13.934        0.288657133            -75.847
               585       0.286846794            -75.812        0.955652499             13.907        0.956643225             13.911        0.287739841            -75.927
               586       0.285989442             -75.84        0.956533093             13.856        0.956533093               13.9        0.287706716            -75.953
               587       0.285727188            -75.845        0.956206225             13.819        0.956866977             13.896        0.287310545             -75.94
               588       0.285601818            -75.929        0.956447129             13.787        0.957328455             13.782        0.286458008            -76.034
               589       0.284708216            -75.921        0.956643225             13.749        0.956863525             13.791        0.285857769            -76.083
               590       0.284208397            -75.976        0.956284033             13.727        0.957936904             13.743         0.28525739            -76.114
               591        0.28365687            -76.044        0.957069127             13.653        0.957730475             13.707        0.284933365             -76.15
               592       0.283028535            -76.038        0.957260686             13.598        0.957701623              13.67        0.284465907            -76.217
               593       0.282451259            -76.094        0.957951485             13.593        0.957730934             13.659        0.283787665             -76.24
               594       0.282097995            -76.131        0.957634977             13.534        0.957855506             13.598        0.283334853            -76.276
               595       0.281254837            -76.117        0.957855506             13.548        0.957524732             13.565        0.282813411            -76.257
               596       0.280848894            -76.175        0.957464584             13.507        0.958788284             13.492        0.281982865            -76.361
               597        0.28032168            -76.192        0.957649724             13.486        0.958642519             13.516        0.281939995            -76.334
               598       0.280018719            -76.245        0.958378506             13.388        0.958599207             13.433         0.28124646            -76.462
               599       0.279479527            -76.276        0.958407051             13.467        0.958627757             13.417        0.280898875            -76.392
               600       0.278612117            -76.337        0.958296716             13.335        0.958517398             13.361        0.280091546            -76.481
               601       0.278611069            -76.354        0.959176138             13.379        0.958844907             13.387        0.279768211            -76.448
               602       0.277715424            -76.417        0.958848515             13.297         0.95873813             13.268        0.279318692            -76.598
               603       0.277397719            -76.384         0.95918612             13.258        0.959296556             13.286        0.278678129            -76.599
               604       0.276756074            -76.443        0.959283911             13.184        0.959615293             13.286        0.278289718            -76.686
               605        0.27589892            -76.602        0.959511093             13.173        0.959400632             13.164         0.27758756            -76.669
               606       0.275644924            -76.542        0.959290183             13.153        0.959842554             13.166        0.277108597            -76.744
               607       0.275224075            -76.565        0.959923053             13.127        0.959812544             13.146         0.27671737            -76.731
               608       0.274774536            -76.615        0.960011604             13.059        0.960343237             13.081        0.275979283            -76.846
               609       0.274031192            -76.622        0.959953066             13.012        0.959400632              13.08         0.27542287            -76.811
               610       0.273275061            -76.636        0.959621567             13.058        0.960284679             13.038        0.275010959            -76.775
               611       0.272960623            -76.681        0.959953066             12.978        0.960395242             12.984         0.27431528            -76.835
               612       0.272521016            -76.715        0.960174129             12.929        0.960395242             12.986        0.274220552            -76.895
