!{201R07S100}
!Johanson Technology Inc.
!www.johansontechnology.com
!Test Board Conditions:
!Substrate Type  RO4350B
!Substrate Thickness        10 mil
!Substrate Dk      3.66
!TL Type: GCPW 
!TL Trace Width  21 mil
!TL Gap  20 mil
!Electrode orientation      Horizontal
!DUT TOPOLOGY	SERIES
!Mounting Pad LxW         16x21 mil
!Agilent Technologies,N5230A,MY45001966,A.07.50.67
!Agilent N5230A: A.07.50.67
! Created Mon Mar  9 15:48:25 2020
# mhz S ma R 50
! 2 Port Network Data from SP1.SP block
! freq  magS11  angS11  magS21  angS21  magS12  angS12  magS22  angS22  
!     
               500       0.316182611            -74.474        0.946102046             15.593        0.947519118             15.574        0.318594285            -74.418
               501       0.315809492            -74.518        0.947054951             15.576         0.94770938             15.535        0.317778989            -74.441
               502       0.314838716            -74.567        0.946974168             15.489        0.947737646             15.542        0.317313195            -74.468
               503       0.314899677            -74.564         0.94704849             15.492        0.948248612             15.456        0.316717613            -74.576
               504       0.314068893            -74.683        0.947817937             15.387        0.948036205             15.414        0.316173104            -74.567
               505       0.313627054            -74.675        0.947465749              15.36          0.9486664             15.401        0.315473961            -74.628
               506       0.312952446             -74.77        0.947607197             15.333        0.948917269             15.319         0.31475914            -74.679
               507       0.312518631            -74.799        0.947820099               15.3        0.949239744             15.307          0.3139973            -74.725
               508       0.311950718            -74.823        0.948606269             15.255        0.949043218             15.222         0.31371551            -74.781
               509       0.310977901            -74.868        0.948155411             15.205        0.949247644             15.218        0.313241668            -74.795
               510       0.310239845            -74.893        0.948413169             15.183        0.949505698             15.171        0.312462264            -74.859
               511       0.309863431            -74.939         0.94933682             15.096        0.949118252              15.16        0.312083153            -74.878
               512       0.309479735                -75         0.94947212             15.094        0.949690769             15.088        0.311266381             -74.97
               513       0.308475917            -75.103        0.949994879              15.06        0.948901786             14.999        0.310828809            -74.955
               514       0.308667074            -75.082        0.949489802             15.009        0.950474138             14.984        0.310056117            -75.055
               515       0.307361795            -75.141        0.949182851             14.979        0.950385678             14.978        0.309670534            -75.061
               516       0.307061586            -75.161        0.950222891             14.917        0.950551143             14.924        0.308905392            -75.071
               517       0.306170122            -75.195        0.950195145             14.868        0.950632827             14.872        0.308363387             -75.17
               518       0.305823502            -75.243        0.950431578             14.847        0.950978848             14.837        0.307766154            -75.125
               519       0.305043933            -75.341        0.949975471             14.778        0.951288817             14.781        0.307158396            -75.248
               520        0.30455805            -75.304        0.951086643              14.76        0.951305664             14.774        0.306422099            -75.221
               521       0.303699345             -75.41        0.951029208             14.688        0.951576822             14.662        0.305734082            -75.342
               522       0.303131682            -75.426        0.951220779             14.682        0.951439831             14.632         0.30544381            -75.362
               523       0.302825713            -75.448        0.951245791             14.668        0.951793529             14.686          0.3049248             -75.33
               524       0.301969125            -75.508        0.951070127             14.589        0.952165717             14.608        0.304167313            -75.447
               525       0.301545195            -75.556        0.951705134             14.554        0.952253137             14.538        0.303530552            -75.509
               526       0.300904311            -75.582        0.951762107             14.516        0.952310143              14.52        0.303129644            -75.532
               527        0.30018532            -75.611        0.952115093             14.499        0.952224715             14.443        0.302649144             -75.55
               528       0.299869398            -75.696        0.952537643             14.407        0.952647314             14.403        0.301878475            -75.563
               529       0.299460193            -75.707        0.952004717             14.414        0.953101385             14.389        0.301466529             -75.61
               530       0.298671473            -75.697        0.952343766             14.354        0.953001849             14.357        0.301053543            -75.663
               531       0.298124241            -75.732        0.952132284              14.36        0.953229098             14.313        0.300571149             -75.75
               532       0.297447653            -75.898        0.952819303             14.233        0.953367947             14.228        0.299647423            -75.844
               533       0.296942425            -75.812        0.953283884             14.231        0.953393642             14.254          0.2991729            -75.819
               534       0.296617688             -75.89        0.953557849             14.208        0.953448073             14.214        0.298708132            -75.842
               535       0.295878089            -75.964        0.952933963             14.161        0.954141544             14.157        0.297997627            -75.896
               536       0.295337841            -75.938        0.953167214             14.103         0.95426522             14.125        0.297590522             -75.91
               537       0.294680156            -76.042        0.954115368             14.037        0.954005528             14.073        0.296893638            -75.955
               538       0.294273337            -76.049        0.953785937             14.056        0.954445016             14.026        0.296517899            -75.982
               539       0.293383292            -76.094        0.953642017             14.002        0.954520758             14.046        0.296063847            -75.962
               540       0.292973866            -76.175        0.953957183             13.986        0.954946151             13.914         0.29514055            -76.112
               541       0.292369836            -76.161        0.953855448             13.921        0.954954247              13.92        0.294939245            -76.139
               542       0.291772572              -76.2        0.954540729             13.902        0.954870473             13.864        0.294302847            -76.192
               543       0.291613016            -76.249        0.955007769             13.861        0.955117724             13.843        0.293735816             -76.16
               544        0.29103474            -76.309        0.955641127             13.826        0.954431649             13.834        0.293119582            -76.229
               545       0.290642216            -76.351        0.954901765             13.767        0.955671635             13.773        0.292724246            -76.266
               546       0.290091427            -76.368        0.955729286             13.741         0.95561926             13.747        0.291967757            -76.277
               547       0.289517023            -76.385        0.955705542             13.721        0.956035688             13.694        0.291356093             -76.32
               548       0.288923753            -76.455        0.955835699             13.664        0.956386081             13.657        0.290625185            -76.345
               549       0.288011997            -76.466        0.956005914             13.615        0.955785811             13.644        0.290476216            -76.441
               550        0.28764492            -76.551        0.955447235             13.558        0.956658001             13.544        0.289872294            -76.448
               551       0.287174759            -76.623        0.956084475             13.499        0.956414752             13.564        0.289465138            -76.486
               552        0.28683997            -76.647        0.956180027             13.459        0.956840761             13.512        0.288828249            -76.546
               553       0.286033895            -76.699        0.956351404             13.455        0.956902082             13.446        0.288215611            -76.588
               554       0.285519665            -76.658        0.956172009             13.447        0.957273476             13.463        0.287664338            -76.603
               555       0.285016529            -76.733        0.956026754             13.385        0.957458692             13.383         0.28722355            -76.686
               556       0.284554137            -76.768         0.95656592             13.362        0.957447356             13.329        0.286823614            -76.677
               557       0.284245831            -76.768        0.956740378             13.287          0.9578425             13.313        0.286150232            -76.735
               558       0.283517932            -76.865        0.956600343             13.235        0.958143444             13.296        0.285384599            -76.755
               559       0.283031848            -76.868        0.957382108             13.238          0.9578231              13.27        0.285157834            -76.775
               560       0.282676291            -76.927        0.957501326             13.194        0.958162973             13.186        0.284602941            -76.805
               561        0.28198345            -76.964        0.957466571             13.218        0.958017891             13.195         0.28426515            -76.844
               562       0.281290954            -77.012        0.958088805             13.111        0.958199115             13.091        0.283338614            -76.986
               563        0.28079485            -77.026        0.958052123             13.112        0.958162429              13.09        0.283099523            -76.995
               564       0.280479374            -77.051        0.957857555             13.016        0.958629808             13.094        0.282748903            -76.958
               565       0.279987218            -77.051        0.958601723             13.026        0.958491366             13.028        0.282057859             -77.06
               566       0.279625528            -77.124         0.95758386             12.955        0.959349421             13.001        0.281466568            -77.061
               567       0.278878588            -77.162        0.958882009             12.914         0.95877162             12.921         0.28103808            -77.153
               568        0.27840816            -77.271        0.958367241             12.883        0.959139905             12.909         0.28056401            -77.234
               569        0.27783411            -77.237         0.95826486             12.835        0.959589667             12.889        0.280017751            -77.197
               570       0.277108439            -77.293        0.958627211             12.815          0.9591792              12.85         0.27986575            -77.233
               571       0.277036295            -77.307        0.959260739             12.796        0.959371185             12.834        0.279245813            -77.233
               572       0.276460776            -77.357        0.959806137             12.761        0.959585159             12.763        0.278409162            -77.217
               573       0.276008485            -77.443        0.959560657             12.716        0.959560657             12.771        0.278241838            -77.284
               574       0.275305352            -77.389        0.959653947               12.7        0.959874941             12.725        0.277628888            -77.322
               575       0.274777415             -77.51        0.959579661             12.635        0.960132199             12.665        0.277064596            -77.399
               576       0.274640805            -77.447        0.959875846             12.606        0.960428554             12.616        0.276608208            -77.467
               577       0.273940026            -77.549        0.960075735             12.576        0.960186274             12.614         0.27625204            -77.448
               578       0.273591496            -77.611        0.960179863             12.533        0.960511555             12.564        0.275710048            -77.474
               579       0.272848634             -77.56        0.960332846             12.508        0.960775198             12.501        0.275056418            -77.516
               580       0.272475369            -77.603         0.95990278             12.431        0.961008546             12.507        0.274806657            -77.586
               581       0.271894152            -77.639        0.960616113             12.435        0.960394948             12.483        0.274504752            -77.653
               582       0.271289153            -77.702        0.960798749             12.388        0.960798749             12.434         0.27376784            -77.643
               583       0.271011276            -77.679        0.960367292             12.374        0.961584293             12.359        0.273141293            -77.693
               584       0.270515489            -77.714        0.960930852             12.346        0.961594868             12.387        0.272516082            -77.727
               585       0.270257799            -77.736        0.961453389               12.3        0.961564087             12.301        0.272162468            -77.746
               586       0.269591693            -77.815        0.961405285             12.252        0.961405285             12.294        0.271898308            -77.782
               587       0.269058129            -77.855        0.960939659             12.249        0.962046618             12.226        0.271172795            -77.879
               588       0.268673411            -77.888        0.961666946             12.215        0.961888404             12.208        0.270816231            -77.808
               589       0.267936775            -77.884         0.96135176             12.173         0.96212683             12.189        0.270353705            -77.896
               590       0.267594581            -77.949        0.962337288             12.097        0.961562048             12.156        0.269790911            -77.971
               591       0.267191119             -78.06        0.961882491             12.108        0.962325556             12.097        0.269322117            -77.956
               592        0.26666887            -78.038        0.962215439             12.053        0.962437022             12.068         0.26882665            -77.964
               593       0.266097869            -78.071        0.962257705              12.02        0.962036162             12.071        0.268714683            -78.032
               594       0.265749219            -78.078        0.962325506             11.982        0.962768775             12.071        0.267899558            -78.027
               595       0.265418942            -78.152        0.962679922             11.983        0.962679922              11.96        0.267505006             -78.09
               596        0.26493883            -78.113         0.96171328             11.954        0.963375535             11.943         0.26699038            -78.178
               597       0.264191815            -78.137        0.963095509             11.941        0.962208874             11.887        0.266820601            -78.131
               598       0.264066716            -78.173        0.962972012             11.888        0.963304668             11.877        0.266080878            -78.172
               599       0.263520402            -78.251        0.962862438             11.848        0.963305955             11.798        0.265805673            -78.253
               600       0.262496212            -78.276        0.962771091             11.818        0.963325466             11.806        0.265230242             -78.29
               601       0.262249017            -78.375        0.963416033             11.733        0.963416033             11.737        0.264614641            -78.283
               602       0.261792081            -78.312        0.963510617             11.735        0.963067006             11.741        0.264488324             -78.38
               603       0.261681125            -78.357        0.963656816             11.716        0.963767768             11.689        0.263798546            -78.391
               604       0.261260464            -78.465        0.963881609             11.674        0.963437827             11.678        0.263556477            -78.384
               605       0.260775075            -78.426        0.963642796             11.628        0.964308687              11.61        0.262824641            -78.448
               606       0.260132774            -78.553        0.963374335             11.591        0.964373065             11.608        0.262418877            -78.472
               607          0.259692            -78.578        0.963515203             11.594        0.964292017             11.579        0.262094901            -78.537
               608       0.258983774            -78.576        0.963102601             11.509        0.964767258              11.53        0.261500519            -78.551
               609       0.258563416            -78.565        0.963755962             11.505         0.96453297             11.504        0.261226407            -78.603
               610         0.2581444            -78.633        0.963968201             11.471        0.964523266             11.477        0.260803075            -78.654
               611       0.257965455            -78.637        0.964520698             11.427         0.96485389             11.445        0.260082752            -78.672
               612       0.257500589            -78.668        0.964557732             11.419        0.965002029              11.39        0.259673856            -78.688
