!{201R07S5R1}
!Johanson Technology Inc.
!www.johansontechnology.com
!Test Board Conditions:
!Substrate Type  RO4350B
!Substrate Thickness        10 mil
!Substrate Dk      3.66
!TL Type: GCPW 
!TL Trace Width  21 mil
!TL Gap  20 mil
!Electrode orientation      Horizontal
!DUT TOPOLOGY	SERIES
!Mounting Pad LxW         16x21 mil
!Agilent Technologies,N5230A,MY45001966,A.07.50.67
!Agilent N5230A: A.07.50.67
! Created Mon Mar 9 15:11:14 2020
# mhz S ma R 50
! 2 Port Network Data from SP1.SP block
! freq  magS11  angS11  magS21  angS21  magS12  angS12  magS22  angS22  
!     
               500       0.560983387            -59.096        0.824043238             30.477        0.823663839             30.504        0.561888314            -59.278
               501       0.560079917            -59.141        0.824233003             30.433        0.824517732             30.483        0.560918805            -59.294
               502       0.559564301            -59.203        0.823948372             30.394        0.825182483             30.364        0.559757601            -59.369
               503       0.558663117            -59.249         0.82480256             30.318        0.825657633             30.355        0.559306672            -59.403
               504        0.55808455             -59.35        0.825277491             30.293        0.826513592             30.289        0.558598802            -59.432
               505       0.556800992            -59.468         0.82546754             30.169        0.827179952             30.181        0.557506583            -59.569
               506       0.556352444            -59.445        0.826228174             30.136         0.82727519             30.187        0.556608713            -59.578
               507       0.556608713            -59.514        0.826799109             30.094        0.828609675              30.12        0.556096293            -59.657
               508        0.55468957            -59.527        0.827084725             30.022        0.828514283             30.046        0.555456432            -59.737
               509       0.553604995            -59.627        0.827656252             29.975        0.828705078             29.943        0.554753435            -59.791
               510       0.553796236            -59.711        0.828705078             29.869         0.83004187             29.916        0.553796236            -59.871
               511       0.552713408            -59.771        0.828991352             29.825        0.829468695             29.874           0.552968            -59.887
               512       0.551378719            -59.812        0.828991352             29.792        0.830137437             29.772        0.552141003            -59.977
               513       0.550934539            -59.858        0.830137437             29.709        0.830998041             29.748        0.551823257            -60.066
               514       0.550554098            -59.966        0.830137437             29.652        0.831763771             29.709        0.550997972            -60.059
               515       0.549604146                -60        0.830806719             29.653        0.832242711             29.606        0.550237265            -60.118
               516       0.548782179            -60.034        0.831763771             29.522        0.832434364             29.579        0.549477609            -60.208
               517       0.547898359            -60.096        0.831763771             29.479        0.832626061              29.48        0.548340091             -60.24
               518       0.546952989            -60.183        0.832338532             29.388        0.833297349             29.393        0.547267931             -60.32
               519       0.546512375             -60.22        0.832626061             29.339        0.833681185             29.401        0.547267931            -60.386
               520       0.545443788            -60.269        0.833585209             29.287        0.833681185              29.32        0.546197867            -60.467
               521       0.545757861            -60.316        0.834161228             29.253        0.835314461             29.317        0.545443788            -60.524
               522       0.544126654            -60.398        0.834065197             29.201        0.835603018             29.191        0.544628044            -60.545
               523       0.543312879            -60.447        0.835122145             29.134        0.836084168             29.147        0.544251958            -60.606
               524       0.543419854            -60.534        0.836056258             29.101         0.83721211             29.098        0.543607577            -60.702
               525       0.542375421            -60.583        0.835987916             29.004        0.836950937             29.069        0.542562783            -60.715
               526        0.54143958            -60.613        0.835795445              28.96        0.837432864             28.994        0.541751347            -60.764
               527       0.541003407            -60.716        0.837143674             28.856        0.837915067             28.941        0.541127992            -60.893
               528       0.540256499            -60.713         0.83724006             28.877        0.838397549              28.89        0.540132115             -60.93
               529       0.539262226            -60.771        0.838108027             28.812        0.839363346             28.826        0.540069933            -60.964
               530       0.538393738            -60.879        0.838494079             28.723        0.839943358             28.737        0.539262226            -61.034
               531       0.537774246            -60.912        0.838880308             28.693        0.839943358             28.683        0.538455726            -61.069
               532       0.537093628            -60.943        0.839653302             28.609        0.840330255             28.636        0.537712336             -61.17
               533       0.536660956            -60.999        0.839943358             28.574        0.840910935             28.603        0.536846344             -61.19
               534       0.535611632            -61.056        0.839943358             28.519        0.840910935             28.544        0.535796658            -61.241
               535       0.534749023            -61.168        0.840620545             28.456        0.842073499             28.467         0.53536503            -61.309
               536        0.53431824            -61.104        0.841492016             28.422        0.841588902             28.455        0.535180154            -61.381
               537       0.533396301            -61.242        0.841782708             28.357        0.842849435             28.361         0.53401075            -61.465
               538        0.53278256            -61.318        0.841685799             28.262        0.843140595             28.274        0.532966608            -61.518
               539       0.532353361            -61.321        0.842461378             28.223        0.844111856             28.315        0.532414654            -61.523
               540       0.530945568            -61.424        0.842849435             28.175        0.844111856             28.191        0.531863271              -61.6
               541       0.530945568            -61.435        0.843431856             28.147        0.845181534             28.152        0.531067837            -61.672
               542       0.530090474            -61.523        0.844695149              28.07        0.844695149             28.071        0.530640019            -61.736
               543        0.52911491            -61.568        0.844597905             28.062        0.845570845             28.018        0.529907419            -61.752
               544       0.528262765            -61.568        0.844597905             27.946        0.846155146             27.983        0.529297692             -61.81
               545       0.527837207            -61.664          0.8454735             27.897        0.846837341              27.97        0.528506095            -61.874
               546        0.52686579            -61.774        0.845960334             27.826        0.846447448              27.86        0.527776441            -61.902
               547        0.52595671            -61.796        0.846155146             27.817        0.846739851             27.764        0.526683848            -61.958
               548       0.525793031            -61.842         0.84706127             27.702        0.847939419             27.754        0.526156361            -62.059
               549       0.525109651            -61.907         0.84732496             27.672        0.848496392             27.694         0.52553301            -62.122
               550       0.524143253             -61.92         0.84781286             27.666        0.848691788             27.662        0.525109651            -62.126
               551       0.523540158            -62.006        0.848398711             27.565        0.848691788             27.627        0.524565833            -62.181
               552       0.522696991            -62.077        0.848496392             27.477        0.849473822             27.526        0.523058182            -62.296
               553       0.522035455             -62.13        0.848594085             27.452        0.849865109             27.459        0.522516489            -62.343
               554       0.521735034            -62.139        0.849082715             27.427        0.850060821             27.465         0.52167497            -62.357
               555       0.521105776            -62.205        0.850405161             27.315        0.850503073              27.39        0.521525907            -62.452
               556       0.519936133            -62.282        0.849767271             27.298        0.850648225             27.292        0.520355321            -62.478
               557       0.519457475            -62.336        0.850942079             27.187        0.851432062             27.315        0.520235519            -62.552
               558       0.518322426            -62.353        0.851040053             27.184        0.851922326             27.217        0.519577098            -62.576
               559       0.518083785            -62.415        0.851530092             27.144        0.852020413             27.199        0.518561178            -62.633
               560        0.51736852             -62.47        0.851824251             27.049        0.852412874             27.164        0.517726029            -62.703
               561       0.516951738            -62.553        0.851726187             27.031        0.853689618             27.072        0.516892225            -62.745
               562       0.516119182            -62.599        0.852412874             26.998        0.853689618             27.026        0.516178605            -62.805
               563       0.515228645            -62.596        0.852805515             26.887        0.853787909             26.981        0.515406629            -62.859
               564       0.515199402             -62.73         0.85373945             26.855        0.855018182             26.888        0.514725104            -62.921
               565       0.514280432            -62.789         0.85427953             26.856        0.855362093             26.873        0.514458089            -62.906
               566       0.513215778            -62.764        0.854771434             26.772        0.855165162             26.835         0.51380698             -63.04
               567       0.512625257            -62.872        0.855263622             26.704        0.855756093              26.76        0.513688685            -63.079
               568       0.511905701              -62.9        0.855539304             26.637        0.856130493               26.7        0.512672433            -63.108
               569       0.511151924            -62.948        0.855657576             26.614        0.856840528             26.657        0.512153329            -63.169
               570       0.510152477            -63.034        0.855559071             26.502        0.856643256             26.562           0.510505            -63.258
               571       0.509682826            -63.061        0.856150274             26.504        0.857037845             26.528        0.510093747            -63.261
               572       0.509272236            -63.074        0.857630071             26.462        0.857235208             26.504        0.509506818            -63.365
               573        0.50821795            -63.177        0.856939181             26.411        0.857432617             26.443        0.508803394            -63.373
               574        0.50780854            -63.265         0.85782757             26.304        0.858420341              26.37        0.508452047            -63.475
               575       0.507165847            -63.217        0.858123904             26.349         0.85782757             26.365        0.507457879            -63.468
               576        0.50681563            -63.325        0.858222705             26.227        0.859211339              26.29        0.506873983            -63.556
               577       0.505649987            -63.393        0.858321517             26.161        0.860201113              26.23         0.50640735            -63.692
               578       0.505126322            -63.399        0.859409203             26.149        0.859706084              26.14        0.505591775            -63.679
               579       0.504719402            -63.461        0.859805067             26.077        0.860696427             26.156         0.50518448            -63.693
               580        0.50379053            -63.552        0.860498267             26.057        0.860201113             26.065          0.5046032            -63.788
               581        0.50297917            -63.525        0.860300153             26.028        0.860894632             26.034        0.503442644            -63.752
               582       0.502400427            -63.613        0.860597341             25.966        0.861192026             25.962        0.502805477            -63.876
               583       0.501937912            -63.667        0.861687911             25.862        0.861985579             25.958         0.50257398            -63.944
               584       0.500725836            -63.718        0.860993752             25.816        0.862084824             25.863         0.50182235            -63.965
               585       0.500322461            -63.766        0.861390346             25.786        0.862581223             25.796        0.500495296            -64.061
               586       0.499574198            -63.786        0.862680537             25.732        0.862680537               25.8        0.500610553             -64.07
               587       0.499229224            -63.854        0.863077908             25.674        0.863674307             25.756        0.500207271            -64.097
               588       0.498769628            -63.925        0.862680537              25.62        0.863574878             25.646        0.498941927            -64.189
               589       0.498138375            -63.948        0.863376056             25.591        0.863972661              25.64        0.498138375            -64.242
               590       0.497336118             -64.02        0.863376056             25.552        0.865067508              25.56        0.497737085            -64.278
               591       0.496992689            -64.081        0.864669221             25.474        0.865366343             25.536        0.497450647            -64.326
               592       0.496078037            -64.145        0.864669221             25.382        0.865465978              25.47        0.496535152            -64.419
               593       0.495450191             -64.17        0.865565624             25.385        0.865565624              25.45        0.495849637            -64.425
               594       0.494823139            -64.219        0.865964323             25.301        0.865964323             25.375        0.495450191            -64.512
               595        0.49391248            -64.219        0.865565624             25.299        0.865864631             25.317        0.494538378            -64.495
               596       0.493173804            -64.308        0.865864631             25.256        0.866762273             25.251        0.493741918            -64.606
               597       0.492379542             -64.33        0.866363207             25.193        0.867061694             25.233        0.493628243            -64.623
               598        0.49226618            -64.439        0.867061694             25.122        0.867461083             25.136        0.492719783            -64.701
               599       0.491360227            -64.416        0.867161524             25.147        0.867361218             25.122        0.492152845             -64.72
               600       0.490568886            -64.493        0.867560959              25.02        0.867660846             25.065          0.4912471            -64.807
               601       0.490399479            -64.554        0.867560959             25.041        0.868060511              25.04        0.490625368            -64.778
               602       0.489215265            -64.608        0.868060511             24.977        0.868460359             24.953         0.49023013            -64.896
               603       0.489158945             -64.62        0.868860392              24.91        0.869260609             24.919        0.489722435            -64.945
               604       0.488033911            -64.678        0.869560893             24.845        0.869661011              24.91        0.489271591            -64.994
               605       0.487023593            -64.797        0.869260609             24.789        0.869160538             24.772        0.488090101            -65.057
               606       0.486799362            -64.777        0.869560893             24.778        0.869861281             24.788        0.487640761            -65.082
               607       0.486519218            -64.821        0.869961433             24.742        0.870662822             24.745        0.486967525            -65.087
               608       0.485735673             -64.89        0.870763066             24.653        0.870863322             24.666        0.486407206            -65.207
               609       0.484785922            -64.907        0.870662822             24.596        0.870362157             24.656        0.485456142            -65.257
               610       0.483949449            -64.943        0.870662822              24.63         0.87116416             24.578         0.48495339            -65.211
               611       0.483503921            -65.021        0.871665787             24.512        0.871465101             24.512        0.484228113             -65.33
               612       0.482836396            -65.048        0.871465101             24.457        0.871766147             24.539        0.483838029            -65.347
