!{201R07S330}
!Johanson Technology Inc.
!www.johansontechnology.com
!Test Board Conditions:
!Substrate Type  RO4350B
!Substrate Thickness        10 mil
!Substrate Dk      3.66
!TL Type: GCPW 
!TL Trace Width  21 mil
!TL Gap  20 mil
!Electrode orientation      Horizontal
!DUT TOPOLOGY	SERIES
!Mounting Pad LxW         16x21 mil
!Agilent Technologies,N5230A,MY45001966,A.07.50.67
!Agilent N5230A: A.07.50.67
! Created Mon Mar  9 16:12:35 2020
# mhz S ma R 50
! 2 Port Network Data from SP1.SP block
! freq  magS11  angS11  magS21  angS21  magS12  angS12  magS22  angS22  
!     
               500      0.0917884697            -87.785        0.993775142              2.308        0.995263619              2.299       0.0930975237            -88.434
               501      0.0922484101            -87.723        0.994852945               2.34        0.994967488              2.343       0.0930376838            -88.434
               502      0.0916178446             -87.67        0.994099992              2.342         0.99535974                2.3       0.0926573916            -88.433
               503      0.0914345608            -87.762        0.994512813              2.278        0.995200036              2.247       0.0926851982            -88.383
               504      0.0910517309            -88.004        0.994118615              2.238        0.995034654              2.251       0.0922652592            -88.686
               505      0.0908598042            -87.738        0.994997058              2.232        0.995111618              2.234       0.0919754236            -88.431
               506      0.0904673035             -87.97        0.994813444              2.178        0.994927983              2.178       0.0918843708            -88.487
               507      0.0903217573            -87.766        0.995044214              2.212        0.994815123              2.239       0.0917365448              -88.5
               508      0.0900412927            -87.752        0.995157273              2.209        0.994813618              2.214         0.09134646            -88.559
               509      0.0897892251            -87.934         0.99534634              2.148        0.994315533              2.137       0.0913007245            -88.452
               510      0.0895614009            -87.903        0.994880407              2.148        0.994994953              2.145       0.0909119301            -88.703
               511      0.0895619815            -87.853        0.994772322              2.126        0.995345124              2.127       0.0907870058            -88.578
               512      0.0891413137             -87.89        0.994441019              2.088        0.995357355              2.088       0.0905793146            -88.719
               513      0.0889425626            -87.918        0.994740128              2.081        0.995198328              2.078       0.0904293976            -88.721
               514      0.0887679541            -87.954        0.995075906              2.043         0.99496135              2.046       0.0901791652            -88.802
               515      0.0888891011            -88.062        0.994600136              2.013        0.995402012              2.026       0.0898769889            -88.878
               516      0.0883398222            -87.956         0.99438948               2.05        0.995420364              2.015        0.089744227            -88.884
               517       0.087855246            -88.114        0.995331387              1.974        0.994873125              1.977       0.0892622232            -88.738
               518       0.087729392            -88.185         0.99516506              1.979        0.994935941              1.978       0.0891651449            -88.799
               519      0.0875694669            -88.207        0.995182443              1.965        0.995182443              1.946       0.0888285772             -88.75
               520      0.0873823065            -87.973         0.99511553              1.969         0.99511553              1.944       0.0889761283            -88.868
               521      0.0869365452            -88.135        0.994608984              1.916        0.995525474              1.928       0.0884712936            -88.803
               522      0.0870880363            -88.159        0.995539504              1.916        0.994737517              1.898       0.0884725404            -88.806
               523      0.0867197342            -88.272        0.995102777              1.892        0.995446532              1.864       0.0878350672            -88.884
               524      0.0863395291            -88.224        0.995542203              1.868        0.994511193              1.878       0.0879649531            -88.892
               525      0.0861318639            -88.136          0.9950934              1.835        0.995437152              1.836       0.0875717131            -88.985
               526      0.0858286279             -88.21        0.995135387               1.82        0.995135387              1.843       0.0875451659             -89.03
               527      0.0858034589            -88.336        0.994271053               1.85        0.995645639              1.775       0.0872880508             -89.09
               528      0.0855912186            -88.321        0.994784958               1.77        0.995701611              1.767       0.0867120013            -89.128
               529      0.0854851353            -88.041         0.99526929              1.791        0.995613103              1.791        0.086874157             -88.95
               530      0.0852400566            -88.215        0.994818217               1.78        0.995620268              1.747       0.0866151236             -89.23
               531      0.0848845983             -88.46        0.995127889               1.75        0.995357052              1.706       0.0863930682            -89.109
               532      0.0845865034            -88.244        0.995178701              1.748        0.995522483               1.73       0.0860995879            -89.121
               533      0.0846219147             -88.38        0.995824594              1.666        0.994907827              1.729       0.0858287619            -89.087
               534      0.0842401106            -88.265        0.995563414              1.663        0.994990486              1.705       0.0858556594            -89.289
               535      0.0839855875            -88.353        0.995301743                1.7        0.995416338              1.668       0.0855666964            -89.185
               536      0.0838053873            -88.467        0.994882835              1.678        0.995684939              1.625       0.0851867281            -89.328
               537      0.0835870667            -88.374        0.995151232              1.643        0.995724252              1.623       0.0850431005            -89.203
               538      0.0836105184            -88.427         0.99565967              1.599        0.995315841              1.623       0.0848713121            -89.299
               539      0.0832020718            -88.387        0.995254478              1.603        0.995598286               1.58       0.0849051709            -89.188
               540      0.0832936764             -88.57        0.995318397              1.575        0.995776863              1.556       0.0844524068            -89.236
               541      0.0830156788            -88.417         0.99554323              1.554        0.995887138              1.567       0.0839866238            -89.285
               542      0.0830626091            -88.587        0.996106028               1.56        0.994730807               1.56       0.0839954127            -89.248
               543      0.0825236752            -88.461        0.995356281              1.554        0.995585496              1.558       0.0841063064            -89.362
               544      0.0823678794            -88.352        0.995996667                1.5        0.995308895               1.52       0.0836966133            -89.296
               545       0.081862884            -88.284        0.995490318              1.475        0.995948864              1.478       0.0832601215            -89.391
               546      0.0817665732            -88.456        0.995464546              1.432         0.99592308              1.464        0.083190895            -89.333
               547      0.0818352019            -88.662        0.995841357              1.432        0.995612083              1.468       0.0830405388             -89.29
               548      0.0815908329            -88.425        0.995385629              1.433        0.995958784              1.461       0.0829929814             -89.44
               549      0.0809778687            -88.702        0.995901398                1.4        0.994870016               1.42       0.0825878846            -89.631
               550      0.0808913353            -88.601        0.995753874              1.366        0.995410012              1.398         0.08252813            -89.574
               551      0.0808285301            -88.673        0.995553678              1.364        0.995553678              1.367       0.0824165975            -89.679
               552      0.0805700628            -88.791        0.994772343              1.375        0.996147621              1.425       0.0818226804            -89.556
               553       0.080093985            -88.716        0.995749054              1.283        0.995405193               1.38       0.0819313107            -89.526
               554      0.0806327232            -88.668         0.99554599              1.342        0.996004562              1.383        0.081782678            -89.567
               555      0.0802332115            -88.826        0.995185812              1.285        0.996102835               1.27       0.0814430775            -89.709
               556      0.0799386791            -88.744        0.995306793              1.232        0.996109238              1.267       0.0811721348            -89.802
               557      0.0795898116            -88.941        0.995422555              1.288        0.995766421              1.278       0.0810601638            -89.772
               558      0.0795044106            -88.616        0.995041565               1.24        0.996417215               1.28       0.0808520847            -89.453
               559       0.079188353             -88.79         0.99588986              1.213         0.99588986              1.252       0.0805770401            -89.593
               560      0.0790013886            -88.835        0.995141241              1.179          0.9962876              1.253       0.0802665737            -89.747
               561       0.078807857            -88.987        0.996023346              1.229        0.995564766              1.216       0.0800238641             -89.75
               562      0.0786107644              -88.8        0.996281393              1.202        0.995249617              1.217       0.0800261676            -89.696
               563      0.0785075746            -88.795        0.995431915              1.168        0.996234461              1.147       0.0799487284            -89.759
               564       0.078334425            -88.872         0.99529692              1.191        0.996328744              1.187       0.0796897859             -89.66
               565      0.0782117476            -89.007         0.99545582              1.132        0.996143694              1.125       0.0794825863            -89.912
               566      0.0776839861            -88.933        0.995936162              1.094        0.995706865              1.094       0.0794477316            -89.784
               567      0.0775962039            -88.929        0.996071412              1.092        0.995612809               1.09       0.0792666448            -89.818
               568      0.0773975171            -88.955        0.995925905              1.066        0.995696611              1.096       0.0790909931            -89.944
               569      0.0772764374            -88.934         0.99574261              1.035        0.996201272              1.067       0.0785772982            -89.998
               570      0.0769235877            -89.001        0.996344508               1.02        0.994968957              1.036        0.078642902            -89.989
               571      0.0770612214            -88.914        0.996290269              1.027        0.995831566              1.052       0.0782142506            -90.007
               572      0.0769985169            -88.831        0.995823476               1.03        0.996396883              1.049       0.0781506079            -89.964
               573      0.0766374328            -88.934        0.996301877              0.962        0.995728524              1.001        0.078035272            -90.045
               574      0.0762988148            -89.086        0.996019388              0.972        0.996019388              0.951        0.077744163            -90.036
               575      0.0762729984            -89.051          0.9962557              0.907        0.996141009              0.919        0.077432061             -90.03
               576      0.0759422222            -89.089        0.995481747              0.912        0.996399042              0.989       0.0774253721            -90.042
               577       0.075791315            -89.029        0.996252541              0.959        0.995793856              0.923       0.0773427202            -90.064
               578      0.0756810633            -89.098        0.995949287              0.912        0.996063957              0.948       0.0771768814            -90.178
               579      0.0754707735            -89.015        0.995242243              0.913        0.996618171              0.916       0.0768561811            -90.104
               580      0.0754046446             -89.02        0.996432989               0.86        0.996088893               0.88       0.0766386944            -90.066
               581      0.0750715824            -89.025        0.996037227              0.906        0.996381305              0.874       0.0763880758            -90.125
               582      0.0750693337            -89.108        0.996122068               0.85         0.99635146              0.865       0.0763682012            -90.082
               583      0.0743450648            -89.051        0.996327562              0.858        0.995868842              0.797       0.0761030644            -90.142
               584      0.0749030794            -89.398        0.995175493              0.844        0.996551329              0.817       0.0761376859            -90.281
               585      0.0741926619            -89.055        0.996003704              0.773        0.996233068              0.763       0.0757374979            -90.517
               586      0.0743324704            -89.092        0.996158778               0.77        0.996044098              0.833       0.0758802174            -90.433
               587      0.0737872007            -89.197        0.995935091              0.749        0.996393841              0.772       0.0754277294            -90.214
               588       0.073746498            -89.194        0.996647087              0.689        0.995729563              0.745          0.0751089            -90.343
               589      0.0737411633            -89.152        0.996574992              0.727        0.995657535              0.791       0.0752592671            -90.336
               590      0.0734684652            -89.266        0.996210161              0.729        0.996095475              0.706       0.0749895879            -90.493
               591      0.0733698339            -89.412        0.995904136              0.669        0.996248169              0.715       0.0749579216              -90.5
               592      0.0732797688            -89.218        0.995942099              0.716        0.996515575              0.686       0.0744961949            -90.602
               593      0.0730346509             -89.27        0.996389077              0.656         0.99627437              0.675       0.0743325374             -90.47
               594      0.0729824177             -89.33        0.996364501              0.636        0.996249797              0.664       0.0742622744            -90.516
               595      0.0726419669            -89.383        0.995835479              0.618        0.996638351               0.67       0.0739413874            -90.504
               596      0.0725553936            -89.323        0.996023769              0.586        0.996712036              0.629       0.0738447633            -90.405
               597      0.0721012818            -89.501        0.996535985              0.571         0.99584784              0.625       0.0736534316            -90.515
               598       0.072028054            -89.353        0.996670678              0.584         0.99598244              0.568       0.0735108901            -90.455
               599      0.0719747764             -89.32         0.99604813              0.516        0.996736413              0.533       0.0733551018            -90.537
               600      0.0717821122            -89.312        0.996474601              0.581         0.99613049              0.612       0.0733442773            -90.591
               601        0.07145962              -89.4        0.996691381              0.476        0.995888466               0.55       0.0728552248            -90.767
               602      0.0713777239            -89.525        0.996237064              0.481        0.996581211              0.503       0.0725625765            -90.736
               603      0.0710479283            -89.308        0.996211197               0.52        0.996555335              0.563        0.072619193            -90.638
               604      0.0709575283            -89.484        0.996433865              0.449        0.996433865              0.508       0.0723016951            -90.734
               605      0.0707279408            -89.511        0.995728675              0.477        0.996646198              0.488       0.0723337556            -90.868
               606       0.070361087            -89.296        0.995594617              0.455        0.996856259              0.472       0.0721826031            -90.629
               607       0.070311695            -89.579        0.995812487              0.416        0.996730086              0.418       0.0719991829            -90.722
               608      0.0702346635            -89.297        0.996555535              0.409        0.996440809              0.423       0.0718292788            -90.767
               609      0.0702323368            -89.199        0.996063713              0.403        0.996981544              0.434       0.0716617021            -90.668
               610      0.0698113966            -89.526         0.99615364               0.39        0.996612491              0.363       0.0714621908            -90.883
               611      0.0698759848            -89.362        0.996730945              0.405        0.996272039              0.392       0.0713391519            -90.884
               612      0.0693680461            -89.553        0.996114959              0.348        0.996573792               0.36       0.0711065261            -90.995
