!{201R07S3R9}
!Johanson Technology Inc.
!www.johansontechnology.com
!Test Board Conditions:
!Substrate Type  RO4350B
!Substrate Thickness        10 mil
!Substrate Dk      3.66
!TL Type: GCPW 
!TL Trace Width  21 mil
!TL Gap  20 mil
!Electrode orientation      Horizontal
!DUT TOPOLOGY	SERIES
!Mounting Pad LxW         16x21 mil
!Agilent Technologies,N5230A,MY45001966,A.07.50.67
!Agilent N5230A: A.07.50.67
!Created Mon Mar  9 15:07:59 2020
# mhz S ma R 50
! 2 Port Network Data from SP1.SP block
! freq  magS11  angS11  magS21  angS21  magS12  angS12  magS22  angS22  
!     
               500       0.654862316            -51.311         0.74980788             38.309        0.752142276             38.345        0.655239394            -51.326
               501       0.654560811            -51.324        0.751103871             38.283        0.752402102             38.331        0.654711546            -51.367
               502       0.652905008            -51.365        0.751103871             38.232        0.753095409             38.218        0.653581875            -51.452
               503       0.652604404             -51.47        0.752142276             38.142        0.753615808             38.129        0.652905008            -51.492
               504       0.651616573            -51.527        0.753428634             38.061        0.754643997              38.13        0.652818001            -51.607
               505       0.650728758            -51.593        0.753268835             37.985        0.754918381             38.019        0.650653844            -51.639
               506       0.650607935             -51.68         0.75460444             37.938        0.755995753             37.968        0.650607935            -51.706
               507       0.649519772            -51.682        0.755339812             37.905        0.756384073             37.934        0.650118277            -51.745
               508       0.648559761            -51.718        0.756049099             37.851        0.756832895             37.882        0.649157382            -51.835
               509         0.6475898            -51.855        0.756484441             37.746        0.756745766             37.777        0.647813509            -51.862
               510       0.647037715            -51.881        0.757494696             37.696        0.758192696             37.707          0.6477085            -51.956
               511       0.646449121             -51.93        0.757764664             37.618        0.759074408             37.676        0.646970307            -52.027
               512         0.6454263            -52.025        0.758135194             37.533        0.760057866             37.603        0.646095413            -52.085
               513       0.644749466            -52.065        0.758998628             37.506        0.760398044             37.547        0.645789517            -52.152
               514       0.644320732             -52.17        0.759804927             37.426        0.761118198             37.479         0.64469174            -52.205
               515       0.643279927            -52.219        0.760238746             37.379        0.761289781             37.426        0.644095107            -52.281
               516       0.642613729            -52.242        0.760676501             37.331        0.762781234             37.358        0.643057785            -52.354
               517       0.641283403            -52.364        0.761903555             37.233        0.763132589              37.27        0.642391817            -52.401
               518       0.640766798            -52.412        0.762430041             37.187         0.76357201             37.231        0.641283403            -52.454
               519       0.640176901            -52.435        0.762869058             37.132        0.763484105             37.171        0.640250609            -52.497
               520       0.639293075            -52.502        0.763220453             37.088        0.764715688             37.088        0.640103202            -52.589
               521       0.638495286            -52.608        0.764025221             36.975         0.76596283             37.038        0.639157214            -52.633
               522       0.637896178            -52.675        0.764979857              36.96        0.765508469             36.978        0.638557485            -52.658
               523       0.637235556            -52.739        0.765684755             36.891        0.766919888              36.88        0.637529081            -52.775
               524       0.635916363            -52.783        0.766919888             36.827        0.766743318             36.852        0.637382301            -52.807
               525       0.635184658            -52.848        0.766743318             36.774        0.768068581             36.763        0.636429057            -52.875
               526       0.634526844             -52.91        0.767626572              36.67        0.768422371             36.728        0.635477239            -52.967
               527       0.634086144            -52.963        0.767888676             36.663        0.769924719             36.638        0.634962772            -53.061
               528       0.633067473            -53.042        0.768953362             36.551        0.770105101             36.603        0.634015682            -53.114
               529       0.632630316            -53.033         0.76913044              36.53        0.770193768             36.548        0.632630316            -53.128
               530       0.631756909            -53.131        0.769396134             36.465        0.770992228             36.466        0.631829647            -53.217
               531       0.630666845            -53.238        0.770371132             36.398        0.771613824               36.4        0.631611458            -53.263
               532       0.630179197            -53.242        0.771372341             36.358        0.772527704             36.374        0.631195745            -53.304
               533       0.629143914            -53.338        0.771880376             36.218        0.772324834             36.316        0.630158792            -53.412
               534       0.628492356             -53.39        0.772324834             36.212          0.7730365             36.259        0.629216351            -53.449
               535       0.628132377            -53.418        0.773305644             36.189        0.774285595             36.204        0.629000774            -53.482
               536       0.627263475            -53.495        0.773748821             36.108        0.774818533             36.108        0.628130671            -53.579
               537       0.626403291            -53.549        0.774379827             36.053        0.775718289             36.055        0.627485986            -53.636
               538       0.626181165            -53.623        0.775175432             35.971        0.775889724              36.02        0.626325365            -53.678
               539       0.625106888            -53.681        0.775540146             35.899        0.776433534             35.921        0.626187342            -53.761
               540       0.624669066            -53.747        0.775889724             35.876        0.777588806             35.875        0.625244673            -53.816
               541       0.623878472            -53.752         0.77687295             35.814        0.777767873             35.853        0.623950303            -53.876
               542       0.623017147            -53.857        0.777320283             35.775        0.777588806             35.798        0.623232367            -53.863
               543       0.622162576            -53.887        0.777685289             35.694        0.779119159             35.736        0.623166192            -53.958
               544       0.621576119             -53.96        0.778922628             35.598        0.779371141             35.671        0.622077252            -54.035
               545       0.621010646            -54.008        0.779200182             35.536        0.780367268             35.565        0.620796193            -54.145
               546       0.619990353            -54.099        0.779533766             35.464        0.780971044              35.51        0.620490207            -54.178
               547       0.619155878            -54.133        0.780368984             35.417        0.781088062             35.469        0.619655059            -54.224
               548       0.618553201            -54.168        0.780597325             35.384        0.782306716             35.453        0.619123172            -54.271
               549       0.618087556            -54.286         0.78198784             35.304        0.782798527             35.366        0.618301073            -54.401
               550       0.617248302            -54.372        0.782546051             35.209        0.783176963             35.308        0.617959345            -54.446
               551       0.616598756            -54.409        0.783073711             35.202        0.783795281             35.259        0.617380125            -54.484
               552       0.615106052            -54.424        0.783068943              35.15        0.784874103             35.234        0.616382074            -54.504
               553       0.614893639            -54.553        0.784241825             35.051        0.784783747             35.164        0.615814627            -54.546
               554        0.61475207            -54.525        0.784151541              35.02        0.785416463             35.142        0.614893639            -54.644
               555       0.613866914            -54.699        0.784827527             34.952        0.786365093             34.965        0.614078973            -54.711
               556       0.613090321            -54.687        0.785641579             34.852        0.786637163             34.937        0.613372725             -54.83
               557       0.611927541            -54.753        0.786230704             34.866        0.787317673             34.905        0.612914647            -54.832
               558        0.61124891            -54.795        0.785991949             34.766        0.787985267             34.853        0.611741717            -54.824
               559       0.610469162             -54.83        0.787705233             34.693        0.788249548             34.798        0.610961341            -54.956
               560        0.61006543            -54.938        0.787456216             34.632        0.789544142             34.742         0.61006543            -55.007
               561       0.609546154            -54.966        0.789053764             34.634         0.78950811             34.686        0.609265513            -55.043
               562       0.608485173            -55.026        0.789223485             34.543        0.789768849             34.607        0.609045866            -55.116
               563       0.607547962            -55.108        0.789279037              34.51        0.790825325             34.534        0.608668138            -55.167
               564       0.606876052            -55.121        0.789587019             34.489        0.790860709             34.518        0.607575146            -55.181
               565       0.606718767            -55.205        0.790746774             34.389        0.791931155             34.442        0.606928357            -55.318
               566       0.605759174             -55.28        0.791680595             34.298        0.792136454             34.365        0.606038201            -55.393
               567       0.605062169            -55.347        0.791862907             34.248        0.792592576             34.317        0.605410571            -55.386
               568       0.604120735            -55.379        0.792453416             34.202        0.793274953             34.286        0.605095248            -55.455
               569       0.603392628            -55.439        0.792775098             34.127        0.793779722             34.222        0.603879101            -55.547
               570        0.60273426            -55.491        0.794375568             34.064        0.793827022              34.14        0.603289655             -55.62
               571       0.601242954            -55.496        0.793414257             34.014        0.794145355             34.118        0.602004864            -55.671
               572       0.601450652            -55.555        0.793962517             33.995        0.795334827             34.041        0.601381411            -55.703
               573       0.600343759            -55.637        0.794602633             33.896        0.795243266             33.986        0.600827774            -55.781
               574       0.599652985            -55.748        0.795609573             33.859        0.796617789             33.895        0.600482009            -55.817
               575       0.599307896            -55.804        0.795976049             33.798        0.796892978             33.837        0.599445908            -55.871
               576       0.598273822            -55.812         0.79652608             33.735        0.797627282             33.848        0.599307896            -55.914
               577       0.597516634            -55.865        0.797168263             33.728        0.797719117             33.737        0.598067221            -55.966
               578       0.596892534            -55.902        0.797987608             33.662        0.798814882             33.734        0.597993064            -56.048
               579       0.596005133            -55.953        0.797719117             33.603        0.799005925             33.662         0.59689783             -56.09
               580       0.595593569            -56.039        0.798730006             33.525        0.799373966             33.597        0.596005133            -56.152
               581       0.594702823            -56.067         0.79909792             33.522        0.799834255             33.531        0.595319352            -56.147
               582       0.594292159            -56.128        0.799650108             33.408        0.800386952             33.502        0.594565903            -56.257
               583       0.592788814            -56.214        0.800294809             33.402        0.800663443             33.389        0.593813409            -56.306
               584       0.592857065            -56.263        0.800294809             33.372        0.801678063             33.371        0.593745047            -56.353
               585       0.591761742            -56.353        0.801580021             33.262         0.80268821             33.255        0.593057612            -56.483
               586       0.591289273            -56.334        0.801770365             33.174        0.802416776             33.286        0.592174906            -56.525
               587       0.590507989            -56.458        0.802741614             33.146        0.803388808             33.173        0.591460543            -56.534
               588       0.589250555            -56.478        0.803063708             33.064        0.802601561             33.128         0.59020108            -56.599
               589       0.589586286            -56.498        0.804169085             33.059        0.803891382             33.155        0.590333424            -56.633
               590        0.58833708            -56.616        0.804315098             32.967        0.804778232             33.012         0.58962545            -56.723
               591       0.588030699            -56.679        0.805007636              32.92        0.805193017                 33        0.588979257             -56.77
               592       0.587151264            -56.677        0.804729644               32.9        0.806027761             32.905        0.587759964            -56.829
               593        0.58620565            -56.739        0.805934969             32.812        0.805749417             32.883        0.587151264            -56.889
               594       0.585935755            -56.801        0.806027761             32.764        0.806399036             32.806        0.586273143            -56.975
               595       0.584790084             -56.84        0.805378441             32.712        0.806770482               32.8        0.584924753            -56.962
               596       0.584117207            -56.927        0.806399036             32.638        0.807420924             32.733        0.584857414            -57.002
               597       0.583579463            -56.971        0.807978864               32.6        0.807699846             32.682        0.584318989            -57.087
               598       0.582505459            -57.016        0.808071891             32.558        0.808164929             32.563        0.583445104            -57.166
               599       0.582371348             -57.08        0.808164929             32.481        0.809561786             32.542        0.583109343            -57.216
               600       0.581567328            -57.115        0.809189055             32.493        0.809654996             32.533        0.582706684            -57.228
               601       0.581366496            -57.198        0.809841447             32.377        0.810214479             32.481        0.581835211            -57.313
               602       0.579895849            -57.255        0.810214479             32.313        0.810307764             32.384        0.581165734            -57.419
               603       0.579361991            -57.239        0.810401059             32.302        0.810961058             32.381        0.580296565            -57.387
               604        0.57869536            -57.365        0.811054429              32.23        0.811614879             32.305         0.57956213            -57.451
               605       0.578029495            -57.362        0.811334605              32.18        0.812362748             32.256        0.579228603            -57.552
               606       0.576965706            -57.433        0.811895249             32.132        0.812736941             32.187        0.578428922            -57.551
               607       0.576500914            -57.486        0.812736941             32.063        0.813298554             32.111        0.577962951            -57.658
               608       0.576235486             -57.54        0.813111306             32.011        0.813485844             32.073        0.576766463            -57.685
               609       0.575373691            -57.559        0.812830516             31.958        0.814235437             32.029        0.576169149            -57.734
               610       0.574711649            -57.663        0.813860555             31.913        0.814985722             31.942        0.575307453            -57.821
               611       0.574116462            -57.629        0.814610493             31.934        0.814798086             31.955        0.575042575            -57.798
               612       0.573125854            -57.728        0.814704284             31.827        0.815642787             31.882        0.574182564            -57.896
