!{201R07S4R3}
!Johanson Technology Inc.
!www.johansontechnology.com
!Test Board Conditions:
!Substrate Type  RO4350B
!Substrate Thickness        10 mil
!Substrate Dk      3.66
!TL Type: GCPW 
!TL Trace Width  21 mil
!TL Gap  20 mil
!Electrode orientation      Horizontal
!DUT TOPOLOGY	SERIES
!Mounting Pad LxW         16x21 mil
!Agilent Technologies,N5230A,MY45001966,A.07.50.67
!Agilent N5230A: A.07.50.67
!Created Mon Mar  9 15:09:30 2020
# mhz S ma R 50
! 2 Port Network Data from SP1.SP block
! freq  magS11  angS11  magS21  angS21  magS12  angS12  magS22  angS22  
!     
               500       0.627769194            -54.404        0.772769548             35.201        0.773570679             35.164        0.628058359            -54.489
               501       0.626974676            -54.436        0.773481623             35.109        0.774550966             35.193        0.626974676            -54.551
               502       0.626613865            -54.552        0.773837907             35.055        0.775353943             35.096        0.626541727            -54.625
               503       0.625820809             -54.61        0.775086192             34.976        0.775800401             34.956        0.625388657            -54.723
               504       0.624597153            -54.639        0.775175432             34.938          0.7760684             34.956        0.625028758            -54.732
               505        0.62380665            -54.737        0.776694089             34.877        0.776515269             34.846        0.624165845            -54.812
               506       0.622945424            -54.803        0.776604674             34.785        0.777320283             34.824        0.623519442            -54.879
               507       0.622515257            -54.867        0.776515269             34.724        0.778753479             34.778        0.622658613            -54.918
               508       0.621727389            -54.932        0.777320283             34.647        0.779022498             34.696        0.621798972            -54.976
               509       0.621155021            -54.959        0.778932815             34.615        0.779650569             34.651        0.621512689            -55.052
               510       0.620226046            -55.064        0.778574185             34.551        0.780638561             34.559         0.62072609            -55.103
               511       0.619797757            -55.072        0.779830111             34.445        0.781357887             34.539         0.62008325            -55.233
               512       0.618443458            -55.162        0.779830111             34.416        0.781267935             34.454        0.618514663            -55.217
               513       0.618229892            -55.165        0.781267935             34.445        0.781717798             34.406        0.617945252            -55.262
               514       0.617163168            -55.305        0.781447849             34.263        0.782528205             34.346        0.617518538            -55.373
               515       0.616595002             -55.33        0.781897816             34.261        0.783429643             34.254        0.616595002            -55.426
               516       0.615389384            -55.379         0.78270841             34.194        0.783610055             34.187        0.616311115             -55.49
               517       0.615176873            -55.465         0.78270841             34.128        0.784422424             34.135        0.615035239            -55.509
               518       0.614044718            -55.551        0.783610055             34.031        0.784874103             34.046        0.614469032            -55.616
               519       0.613620698            -55.626        0.784151541             33.997        0.786049689              34.02        0.614044718            -55.701
               520        0.61270299            -55.641        0.784964471             33.869        0.785687783             33.976        0.612914647            -55.795
               521       0.611645803            -55.751        0.784783747             33.841        0.786774001             33.888        0.611927541            -55.793
               522       0.611082716            -55.784        0.786411761             33.841        0.787408321             33.822        0.611927541            -55.829
               523       0.611082716            -55.787        0.786864587               33.8        0.787680329             33.778        0.610871692             -55.91
               524        0.60974746            -55.882        0.786955183             33.667        0.788678497             33.751        0.610168804            -55.994
               525        0.60925626            -55.958         0.78777102             33.645        0.788950944             33.641        0.609045866            -56.006
               526       0.608485173             -56.07        0.788587702             33.526         0.78949612             33.525        0.608555231            -56.157
               527       0.607225498            -56.065        0.788406144             33.499         0.78985978             33.506        0.607994989            -56.187
               528       0.607225498            -56.126        0.789587019             33.455        0.790678628             33.519        0.607225498            -56.227
               529       0.606317356            -56.212        0.790405584             33.379        0.791498325             33.388        0.606317356            -56.311
               530       0.605898671            -56.259        0.790951766              33.32        0.791498325               33.4        0.605480276            -56.377
               531       0.604644351            -56.324        0.790678628             33.257        0.792227657             33.289        0.604783592            -56.437
               532       0.603740069            -56.408        0.791680595             33.223        0.792866375             33.215        0.604365966            -56.469
               533       0.603601069             -56.41        0.792227657             33.155        0.793779722               33.2          0.6034621            -56.517
               534       0.602420858             -56.49        0.792957662             33.089        0.793871114             33.109        0.602767739            -56.612
               535       0.601589157             -56.56        0.793414257             32.995        0.794877127             33.019        0.602282161            -56.706
               536       0.601381411            -56.626        0.794145355             32.993        0.795426398             33.001        0.601866263            -56.703
               537       0.600689444            -56.624        0.794877127             32.935         0.79579279             32.995         0.60089695            -56.751
               538       0.599652985            -56.692        0.794968646             32.878        0.795976049               32.9        0.600482009            -56.802
               539       0.599238903            -56.778        0.795426398             32.747        0.797168263             32.854        0.599445908            -56.893
               540       0.598480494            -56.837        0.796434382             32.755        0.797443642              32.78        0.598687237            -56.911
               541       0.597920521            -56.954        0.797156257             32.668        0.798626026             32.697        0.597989363            -57.005
               542       0.597447846            -56.965        0.797535457             32.617        0.798454182              32.68        0.596829114            -57.044
               543       0.596211021            -57.065        0.797994687             32.552        0.798821969             32.603         0.59648565            -57.101
               544       0.595730726            -57.036         0.79790282             32.514        0.799373966             32.579        0.595593569            -57.161
               545        0.59504526            -57.105        0.799189924             32.467        0.800018445              32.48        0.595387894            -57.219
               546       0.594395437             -57.19        0.799881159             32.368        0.800986999             32.441         0.59466923            -57.312
               547        0.59354001            -57.212        0.799926345             32.361        0.800663443             32.404        0.593608348            -57.295
               548       0.592857065            -57.306        0.800294809             32.266        0.801862678              32.26        0.592993592            -57.411
               549       0.592174906             -57.34        0.800663443             32.245        0.801955001             32.299        0.592243087            -57.454
               550       0.591425438            -57.421        0.801678063             32.145        0.802139679             32.226        0.591221202            -57.555
               551        0.59047294            -57.515        0.801493491             32.103        0.803988802             32.112        0.591153139            -57.612
               552       0.589861431            -57.513        0.802601561             32.082        0.803433618             32.097        0.590065197             -57.58
               553       0.589787632             -57.61        0.803055686             31.981        0.804814257             32.008        0.589448221            -57.704
               554        0.58904707            -57.624        0.803711162             31.942        0.804729644             32.005        0.588843655            -57.753
               555       0.587489353            -57.673         0.80408137             31.894        0.804359138              31.91        0.587827636              -57.8
               556       0.587421719            -57.758        0.804914962             31.855        0.805934969             31.862        0.587895316            -57.854
               557       0.586948504            -57.819        0.805378441             31.761        0.806213377             31.814        0.587016083            -57.911
               558       0.586333824            -57.847        0.806018385               31.7        0.806946882             31.765        0.585928939            -57.967
               559       0.585531144            -57.908        0.806584738             31.693        0.806956269             31.728         0.58559856            -57.991
               560       0.584655447            -57.988        0.806770482             31.565        0.807885847             31.625         0.58452084            -58.118
               561       0.583781059            -58.016        0.806677605             31.541        0.808257978             31.588        0.583713853            -58.153
               562       0.583109343            -58.117        0.807699846              31.49        0.809189055             31.537        0.583713853            -58.199
               563       0.582639602            -58.182        0.808537189             31.441        0.808444108             31.415        0.582170239            -58.273
               564       0.581902201            -58.295         0.80863028             31.346        0.810401059             31.331        0.582170239             -58.36
               565       0.581098829            -58.268        0.809002754             31.319        0.809841447             31.334        0.580898159            -58.396
               566        0.58022976            -58.349        0.810214479             31.249        0.810307764             31.296        0.581031931            -58.431
               567       0.580162962            -58.395        0.810214479             31.183        0.811334605             31.237         0.57956213            -58.545
               568       0.578895269            -58.453        0.810494365             31.143        0.811241202             31.164         0.57896192            -58.526
               569        0.57869536            -58.497         0.81114781             31.124        0.812269227             31.134        0.578628739            -58.544
               570        0.57729793            -58.562        0.811614879             31.041        0.812830516             31.042        0.577962951            -58.674
               571       0.577364397            -58.576        0.811988727             30.993        0.813392194             31.026        0.576965706            -58.734
               572        0.57656729            -58.675        0.812736941             30.927        0.814047974             30.955        0.576368185            -58.761
               573       0.575903874            -58.684        0.813673178             30.866        0.813954259             30.896        0.575771283            -58.847
               574       0.575108783            -58.734        0.813579506             30.793        0.814516713             30.858        0.575241222            -58.878
               575       0.574314789            -58.797        0.814047974             30.803        0.814516713             30.782        0.574314789            -58.923
               576       0.573059874            -58.851        0.814141701             30.686        0.814704284             30.779        0.573587925            -58.984
               577       0.572927937            -58.911        0.815642787             30.636        0.815830617             30.716        0.573191841            -59.052
               578       0.572466398            -58.977        0.815267256             30.589        0.816394368               30.6        0.572202828            -59.133
               579       0.571478637            -59.044        0.815548888             30.568        0.816676389             30.558        0.571478637            -59.118
               580       0.571149762            -59.035        0.816488364             30.473        0.816770418             30.514        0.570623956            -59.222
               581       0.570033002            -59.115        0.817052569             30.431        0.817523038             30.495         0.57049258            -59.252
               582       0.569573795            -59.178        0.816958508             30.407        0.818182149             30.407        0.569704959            -59.327
               583       0.568852931            -59.274        0.818370564             30.314        0.818370564             30.356        0.569508224            -59.383
               584       0.568254128            -59.314        0.818168206              30.26        0.819865476             30.284        0.568974233            -59.454
               585       0.567740662             -59.34        0.818841792             30.275        0.819501966             30.235        0.568002177            -59.474
               586       0.567283302            -59.396        0.819407623             30.166        0.820257103             30.187        0.567152695            -59.567
               587       0.566174102            -59.478        0.820068254             30.145        0.820445996             30.105        0.566695808            -59.622
               588       0.565587757            -59.495        0.819785061              30.08        0.821107464             30.089        0.565587757            -59.628
               589       0.564611865            -59.552        0.820257103             30.031        0.821012936             30.053        0.565002019            -59.682
               590       0.564221979            -59.607        0.821012936             29.989         0.82186408             29.989        0.564936975            -59.748
               591       0.563507888            -59.609         0.82186408             29.942        0.821674861             29.952        0.563507888            -59.823
               592       0.562276587            -59.727        0.821769465             29.845         0.82224265             29.815        0.562989117            -59.868
               593       0.562665128            -59.739           0.822432             29.812        0.823474206             29.887        0.562665128            -59.917
               594       0.561823628            -59.814        0.822810831             29.759        0.823663839             29.756        0.561823628            -59.967
               595       0.560789663             -59.87        0.822810831             29.719        0.823474206             29.728        0.560918805            -60.024
               596       0.560660552             -59.89        0.824043238             29.682        0.824138115             29.689        0.560402417            -60.062
               597       0.559306672            -59.953        0.824043238             29.559        0.824897524             29.629        0.559757601            -60.151
               598       0.558534495            -59.997        0.823948372             29.519        0.824422811              29.61        0.559049161            -60.198
               599       0.558148806            -60.036        0.824897524             29.504         0.82537251             29.521        0.558470195            -60.236
               600       0.557763384            -60.126         0.82546754             29.466        0.826418442             29.476        0.558148806            -60.247
               601       0.557442402            -60.178        0.825752695             29.406        0.826703926             29.434        0.557442402            -60.316
               602        0.55584026            -60.239        0.826133056             29.319        0.826799109             29.363        0.556800992            -60.407
               603        0.55584026            -60.265        0.826703926             29.255        0.827656252             29.337        0.555648313            -60.489
               604       0.555136777            -60.326        0.827084725             29.238        0.827465699              29.27        0.555008967            -60.521
               605       0.554434185             -60.36        0.828228174             29.151         0.82803749             29.225        0.555136777            -60.575
               606       0.553477537            -60.435        0.827751545             29.136        0.828228174             29.151        0.554051328            -60.602
               607       0.553604995             -60.48        0.828514283             29.109        0.829755233             29.088        0.553732482            -60.685
               608       0.552586156            -60.509        0.829182256             29.074        0.829850768             29.081        0.552904341            -60.672
               609       0.551950333            -60.573        0.829755233             28.991        0.830233016             28.989           0.552968            -60.749
               610       0.551124858            -60.596        0.829564197              28.94        0.830806719             29.007        0.551378719             -60.79
               611       0.550617487            -60.665        0.829850768             28.875         0.83147654             28.923        0.550554098             -60.87
               612       0.549730711            -60.758        0.830711074             28.846         0.83061544             28.867        0.550554098            -60.892
