!{201R07S270}
!Johanson Technology Inc.
!www.johansontechnology.com
!Test Board Conditions:
!Substrate Type  RO4350B
!Substrate Thickness        10 mil
!Substrate Dk      3.66
!TL Type: GCPW 
!TL Trace Width  21 mil
!TL Gap  20 mil
!Electrode orientation      Horizontal
!DUT TOPOLOGY	SERIES
!Mounting Pad LxW         16x21 mil
!Agilent Technologies,N5230A,MY45001966,A.07.50.67
!Agilent N5230A: A.07.50.67
! Created Mon Mar  9 16:11:19 2020
# mhz S ma R 50
! 2 Port Network Data from SP1.SP block
! freq  magS11  angS11  magS21  angS21  magS12  angS12  magS22  angS22  
!     
               500       0.118369452            -86.204        0.991264692              3.603        0.992520847              3.602        0.119726321            -86.928
               501       0.118593401            -86.163        0.992225817              3.625        0.992225817              3.618        0.119676953            -86.936
               502       0.118184556            -86.161        0.991312835              3.646        0.992683331              3.579        0.119154577            -86.999
               503       0.118014189            -86.126        0.991937315              3.576        0.992622758              3.559        0.119078739             -86.93
               504       0.117458615            -86.427        0.991710415              3.526        0.992281454              3.524        0.118805043            -87.181
               505       0.117195518            -86.178        0.992341154               3.52        0.992455408              3.504        0.118402536            -86.979
               506         0.1168677            -86.386         0.99196077              3.484        0.992531953              3.462        0.118193746            -87.042
               507       0.116599257            -86.202        0.992306377              3.478        0.992420627              3.504        0.117962993            -87.064
               508       0.116226953             -86.23        0.992560187              3.483        0.991988988              3.485        0.117721788            -87.095
               509       0.115949438            -86.354        0.992815723              3.424        0.991445044              3.406        0.117427184            -87.027
               510       0.115671323            -86.262        0.992717561              3.435        0.991917847              3.407        0.117105072            -87.208
               511       0.115726342            -86.365        0.992275398              3.399        0.992618177              3.392        0.116985551             -87.22
               512       0.115359435            -86.325         0.99198047              3.347        0.992894539              3.341        0.116601227            -87.226
               513       0.115020316             -86.35        0.992029427              3.353         0.99282923              3.331        0.116445995            -87.177
               514        0.11481729              -86.4        0.992561199              3.314        0.992561199              3.319        0.116173559            -87.265
               515       0.114930205            -86.516        0.992622652              3.279        0.992508379              3.285        0.116113892            -87.349
               516       0.114360514            -86.401        0.992147167              3.282        0.992947066              3.274        0.115604861            -87.384
               517       0.113833081             -86.51        0.992586786              3.228        0.992701068              3.247        0.115257313            -87.299
               518       0.113736041            -86.539        0.992654477              3.257        0.992768767              3.239        0.115026553            -87.281
               519       0.113471487            -86.593        0.992628517              3.233        0.992742804               3.21        0.114877969            -87.273
               520       0.113287573            -86.466        0.992047055              3.217        0.992961185              3.185        0.114876785             -87.42
               521       0.112757497            -86.504        0.992305565              3.168        0.992991262              3.165         0.11432611            -87.362
               522       0.112795463            -86.588        0.993096908              3.172        0.992296889              3.133        0.114219862            -87.277
               523       0.112339584            -86.644        0.992962421              3.148        0.992619523              3.104        0.113758227            -87.419
               524        0.11192579            -86.623        0.993070703                3.1        0.992042252              3.117        0.113705159            -87.389
               525       0.111602414            -86.587        0.992598442              3.078        0.992827022              3.052        0.113376642            -87.556
               526        0.11153072            -86.619        0.992989154              3.046        0.992646247              3.053        0.113108308            -87.549
               527       0.111301226            -86.704        0.991859024              3.061        0.993230275              2.996        0.112927561            -87.668
               528        0.11093531            -86.715        0.992818366              2.997        0.993046997              2.973        0.112362088            -87.691
               529       0.111076498            -86.553        0.993052433              3.029        0.993052433              3.009        0.112388579            -87.596
               530       0.110788981            -86.676        0.992536682              2.996        0.993336895              2.968         0.11208476            -87.698
               531       0.110313217            -86.776        0.992721776              2.966        0.993064709              2.945        0.111925115            -87.707
               532       0.110025064            -86.731        0.993096911              2.975        0.992753966              2.936        0.111709892            -87.646
               533        0.10997209            -86.748        0.993419034              2.864        0.992847341              2.932        0.111258315            -87.636
               534       0.109623269            -86.678        0.993236677              2.889         0.99255081               2.92        0.111366033              -87.8
               535       0.109375896            -86.718        0.993051164               2.91        0.993051164              2.895        0.111025216            -87.701
               536       0.109144399            -86.856        0.992433585               2.89        0.993462441              2.852        0.110637271            -87.816
               537       0.108798563            -86.807        0.992940352              2.864        0.993283361              2.833         0.11041375            -87.738
               538       0.108985096            -86.843        0.993383888              2.805        0.993269527              2.832        0.110107553             -87.86
               539       0.108407627            -86.883        0.992567015              2.802        0.993481624              2.783        0.110093034            -87.761
               540       0.108423739            -86.914         0.99248598              2.791        0.993743682              2.745        0.109679227             -87.78
               541       0.108093725            -86.772        0.993231493              2.765        0.993688999              2.777        0.109181858            -87.875
               542         0.1080404            -86.912        0.993770691              2.775        0.992627229              2.761        0.109253708            -87.835
               543       0.107585907            -86.893        0.993128361              2.744        0.993471434              2.746        0.109070018            -87.909
               544       0.107317164            -86.785        0.993617399              2.689        0.993274275              2.695        0.108672382             -87.88
               545       0.106951951            -86.708        0.993204574              2.686        0.993662067              2.662        0.108377396            -87.951
               546       0.106624867            -86.917         0.99324984              2.625        0.993592956              2.644        0.108120614            -88.024
               547        0.10655034            -86.998        0.993698971              2.638        0.992898466               2.65        0.108169504            -87.873
               548       0.106330618            -86.849        0.993020781              2.634        0.993706973              2.649        0.107921591            -88.004
               549       0.105820158            -87.028        0.993615607              2.589        0.993043801              2.598        0.107490085            -88.193
               550       0.105801704            -87.008        0.993442335              2.558        0.993442335              2.583        0.107409492             -88.16
               551        0.10564868              -87.1        0.993605702              2.557        0.993262582              2.546         0.10719242            -88.218
               552       0.105324023            -87.076        0.992835826              2.552        0.993979529              2.585        0.106690915            -88.149
               553        0.10484849            -87.133        0.993372607              2.468        0.993372607              2.531        0.106810065            -88.107
               554       0.105292926             -87.11        0.993342909              2.502        0.993914888              2.538        0.106561223            -88.124
               555       0.104922102            -87.219        0.993269234              2.476        0.993955597              2.427        0.106185932             -88.25
               556       0.104563219            -87.189        0.993182239              2.421        0.993982972              2.433        0.105920237             -88.33
               557       0.104300717            -87.156        0.993430056              2.458        0.993773234              2.441        0.105824761            -88.335
               558       0.104093483            -87.071        0.992598335              2.415        0.994199504              2.438         0.10555372            -88.136
               559       0.103775083            -87.157         0.99355769              2.384        0.994015346              2.438        0.105146081            -88.183
               560       0.103546232            -87.302        0.993194488              2.352        0.994109675              2.392        0.104950449            -88.296
               561       0.103347177            -87.263         0.99414245              2.381        0.993455958                2.4        0.104567956             -88.33
               562       0.103115311            -87.211        0.993969726               2.33         0.99362648              2.355        0.104597946            -88.335
               563       0.102984573            -87.227        0.992938093              2.348        0.994196368              2.312         0.10452548            -88.406
               564       0.102828067            -87.212        0.993142738              2.346        0.994286794              2.331        0.104186553            -88.322
               565       0.102666317            -87.355         0.99363752              2.281         0.99398077              2.273        0.103986745            -88.624
               566       0.102071429            -87.507        0.993926326              2.268        0.993468711              2.226        0.103837493            -88.407
               567       0.102056396            -87.407        0.993779943              2.257        0.993894363              2.235         0.10364306             -88.45
               568        0.10189744            -87.453        0.993832678               2.22        0.993832678              2.231        0.103457808            -88.544
               569       0.101694647            -87.386        0.993797941              2.172        0.994141246              2.211        0.103002578            -88.655
               570       0.101299793            -87.406         0.99427967              2.171        0.993135622              2.181        0.102945783            -88.623
               571       0.101286135            -87.344        0.994145612              2.172        0.993916728              2.183        0.102541579            -88.655
               572       0.101203721             -87.32        0.993565447              2.165        0.994480976              2.168        0.102352034            -88.641
               573       0.100967886            -87.344        0.994336228              2.122        0.993878424              2.133        0.102254696             -88.63
               574       0.100344572             -87.52        0.993902731              2.112        0.994017165              2.095        0.101998523            -88.682
               575       0.100475029            -87.401        0.994164246              2.079         0.99427871              2.063        0.101708709            -88.686
               576       0.100036753            -87.461        0.993709831              2.054        0.994282021              2.116        0.101650516            -88.689
               577      0.0998645269            -87.438        0.994171362              2.096        0.993942472              2.062        0.101440469            -88.774
               578       0.099681447            -87.558        0.993835106              2.067        0.994178423              2.049          0.1012545            -88.855
               579      0.0995410849            -87.501        0.993693318               2.06        0.994494463              2.034        0.100949081            -88.749
               580      0.0993922659            -87.585        0.994151545              2.018        0.994266007              2.003        0.100786553             -88.75
               581      0.0990242239            -87.473        0.994011588              2.027        0.994354967              2.001         0.10052902            -88.824
               582      0.0989538905            -87.546        0.994449821              1.968        0.994106409              1.981        0.100249652             -88.88
               583       0.098155263            -87.575        0.994176724              1.955        0.994062271              1.907       0.0999801055            -88.886
               584      0.0985973425            -87.735        0.993608297              1.951        0.994409374              1.925        0.100153288             -89.03
               585      0.0979575347            -87.579        0.993888914              1.908        0.994346722              1.866       0.0996294761            -89.191
               586      0.0981400259            -87.556        0.994365776              1.895        0.993793538              1.917       0.0998725568            -89.112
               587      0.0975266909            -87.651        0.994199382              1.879         0.99431385              1.871       0.0992255441            -88.892
               588      0.0974235261            -87.609        0.994749763              1.813        0.993490788              1.855       0.0989609474            -89.088
               589      0.0975178239            -87.654          0.9945669              1.843        0.993994546               1.89       0.0989541474            -89.099
               590      0.0972804458            -87.652        0.994204106              1.804        0.994547551              1.793       0.0987360053            -89.101
               591      0.0969329526            -87.773          0.9939658              1.795        0.994423644              1.798       0.0986555318            -89.184
               592      0.0968409939            -87.646        0.993823446              1.836        0.994739213              1.764       0.0982786627             -89.23
               593      0.0966755684            -87.745        0.994527358              1.777        0.994298386              1.763       0.0980994866            -89.198
               594      0.0964467478            -87.819        0.994460615              1.756         0.99434613              1.743       0.0978560289            -89.265
               595      0.0962108271            -87.797        0.993971537              1.699        0.994772906              1.765       0.0975829512            -89.283
               596      0.0962144603            -87.739        0.994237977              1.698        0.994810471              1.753       0.0975080223            -89.169
               597      0.0955790377            -87.868        0.994747036              1.668         0.99371685              1.719       0.0973559847            -89.209
               598      0.0954670434            -87.826        0.994840536              1.677        0.993924676              1.673       0.0970070891             -89.27
               599      0.0954359748            -87.751        0.994287807              1.633        0.994745799              1.637       0.0969420309            -89.335
               600      0.0951689813            -87.803        0.994593051              1.676         0.99424959              1.693        0.096804472            -89.385
               601       0.094960059            -87.878        0.994811909              1.576        0.994239414              1.635       0.0963254343            -89.495
               602      0.0948007498            -88.012        0.994745016              1.571        0.994401503              1.588       0.0960974298            -89.471
               603      0.0945941386            -87.809        0.994521615              1.616        0.994521615               1.64       0.0962640716             -89.37
               604      0.0942146862            -87.924        0.994417151              1.546         0.99476067              1.602       0.0957345292            -89.439
               605      0.0940418671            -87.992         0.99419424               1.55        0.994652189              1.556       0.0957681819            -89.589
               606      0.0935691625            -87.879        0.993877233              1.531        0.994907586              1.532        0.095440508            -89.492
               607      0.0935593705            -87.907         0.99411652              1.504        0.994918007              1.519       0.0952439265            -89.547
               608      0.0935629397            -87.863        0.994955962              1.502        0.994383384               1.49       0.0950503803            -89.567
               609      0.0934054941            -87.868        0.994311408              1.492        0.994998491              1.498       0.0949669351            -89.472
               610      0.0931519036            -87.923        0.994126691              1.461        0.995157303              1.409       0.0945674621            -89.621
               611      0.0929576547            -87.872        0.994798583              1.496        0.994684059              1.454       0.0945116092            -89.599
               612       0.092631913             -88.01        0.994513386              1.422        0.994627891              1.451       0.0944410122            -89.744
