!{201R07S8R2}
!Johanson Technology Inc.
!www.johansontechnology.com
!Test Board Conditions:
!Substrate Type  RO4350B
!Substrate Thickness        10 mil
!Substrate Dk      3.66
!TL Type: GCPW 
!TL Trace Width  21 mil
!TL Gap  20 mil
!Electrode orientation      Horizontal
!DUT TOPOLOGY	SERIES
!Mounting Pad LxW         16x21 mil
!Agilent Technologies,N5230A,MY45001966,A.07.50.67
!Agilent N5230A: A.07.50.67
! Created Mon Mar  9 15:19:22 2020
# mhz S ma R 50
! 2 Port Network Data from SP1.SP block
! freq  magS11  angS11  magS21  angS21  magS12  angS12  magS22  angS22  
!     
               500        0.37745423            -70.539          0.9238773             19.166        0.923664594             19.169        0.378498617            -70.531
               501       0.376573713            -70.596        0.924059636             19.161        0.923846888              19.15        0.377920108            -70.501
               502       0.376227035            -70.602        0.923315232             19.107         0.92459172             19.067         0.37683393            -70.603
               503       0.375446604            -70.691        0.924374976             19.021        0.924694299             19.038        0.376398757            -70.626
               504       0.374886671            -70.739        0.924272433             19.016        0.925230626             18.983        0.375491405            -70.655
               505       0.373809212            -70.857        0.924272433             18.897        0.925976575             18.912        0.374757213            -70.766
               506       0.373422085            -70.815         0.92480464             18.875        0.925763385             18.925        0.374153662            -70.784
               507       0.373238094            -70.906         0.92552033             18.845        0.926266512             18.873        0.373582017            -70.849
               508       0.371834772            -70.897        0.925337153             18.778        0.926403101             18.803        0.372949475            -70.924
               509       0.370894164            -70.927        0.925443693             18.745        0.926083188             18.745        0.372134556            -70.965
               510       0.370578645            -71.037        0.926467927             18.671         0.92689468             18.699        0.371432917            -71.012
               511       0.370083736            -71.099        0.926509763             18.641        0.926296451             18.684          0.3707234            -70.999
               512       0.368977599            -71.134        0.926296451             18.628        0.926936535             18.579        0.370083736            -71.053
               513       0.368510613            -71.205        0.926829823             18.534        0.928004324             18.523        0.369487712            -71.183
               514       0.367917123            -71.245        0.927043258             18.503         0.92789749             18.555        0.369062569            -71.136
               515       0.367347982            -71.301        0.927209042             18.493        0.928704731             18.439        0.368110036            -71.219
               516       0.366445324            -71.265        0.927917113             18.413         0.92823766             18.453        0.367501558            -71.222
               517       0.365931672            -71.348        0.927790668             18.381        0.928645589             18.359         0.36656416            -71.251
               518       0.365005997            -71.416         0.92821803             18.282         0.92853868              18.28        0.365636885            -71.343
               519       0.364544038            -71.428         0.92821803             18.255        0.928752509             18.279        0.365636885             -71.39
               520       0.363873141            -71.473        0.928966387             18.169        0.929073344             18.202        0.364711955            -71.502
               521       0.363639906            -71.549        0.929440381             18.178        0.929868502             18.185        0.364226497            -71.544
               522        0.36252629            -71.604        0.929264843             18.127        0.930228212             18.093         0.36323652            -71.548
               523       0.361698821            -71.609        0.929495075             18.083        0.930137369             18.072        0.362741373            -71.546
               524       0.361553002             -71.74        0.930083568             18.021        0.930833429             18.012        0.362219621            -71.695
               525       0.360811658            -71.757        0.930209051             17.958        0.930959014             18.003        0.361393686            -71.687
               526       0.359915044            -71.749        0.929715347             17.941        0.930893505             17.944        0.360952455            -71.704
               527       0.359649913             -71.86        0.930850549             17.814        0.931386544             17.889         0.36010567             -71.85
               528       0.359128606            -71.852        0.930893505              17.87        0.931751284             17.845        0.359418146            -71.868
               529       0.358020936            -71.906        0.931125935             17.799        0.931876636             17.802        0.359094227            -71.892
               530       0.356836133            -71.975        0.931469898             17.714        0.932006249             17.732        0.358441944            -71.964
               531       0.356815738            -72.012         0.93141666             17.711         0.93248961             17.695        0.357761829            -71.975
               532       0.356303581            -72.009        0.932009174             17.671        0.932331134             17.647        0.357124946            -72.034
               533       0.355616418            -72.061        0.932141414             17.614        0.932785537             17.645        0.356354136            -72.049
               534       0.355140335            -72.092         0.93250249             17.577         0.93282462             17.594         0.35575417            -72.107
               535       0.354201177            -72.216        0.931965853             17.531        0.933684179             17.515        0.355017695            -72.128
               536       0.353836331            -72.142        0.933044642             17.501        0.933044642             17.503        0.354856221            -72.208
               537       0.353176963            -72.243        0.932808227             17.435        0.934312949             17.463        0.353787405            -72.318
               538       0.352330305            -72.322        0.933146862             17.358         0.93379168             17.366        0.353386537            -72.313
               539        0.35183972            -72.354         0.93335072             17.313        0.934533485             17.371         0.35248843            -72.356
               540       0.350913438            -72.404        0.933469215             17.304        0.934436943             17.311        0.352046475            -72.398
               541       0.350588157            -72.419        0.933463286             17.273        0.935184374             17.252        0.351194124            -72.451
               542       0.349979478            -72.482        0.934851393             17.204        0.934636161             17.209        0.350867045            -72.522
               543       0.349233426            -72.492        0.934578539             17.205        0.935224346             17.164        0.350159412            -72.527
               544       0.348333889            -72.499        0.934105068             17.134        0.935288788             17.123        0.349619565            -72.505
               545       0.348134663            -72.587        0.934646248             17.073        0.935830654             17.117        0.348977371            -72.599
               546       0.347491609            -72.675        0.935070428             16.994        0.935824309             17.036        0.348332761            -72.639
               547       0.346657021            -72.713        0.935405674             17.008        0.935621084             16.946        0.347656217            -72.662
               548        0.34614918            -72.711        0.935865218             16.922        0.936080733             16.976        0.347066988            -72.738
               549       0.345715316            -72.759        0.935553483             16.886        0.936846891             16.912        0.346233128            -72.812
               550       0.344793979              -72.8        0.936072903             16.883        0.936827592              16.86        0.345867435            -72.824
               551       0.344508546            -72.852        0.936591043             16.831         0.93648322             16.849         0.34554133            -72.818
               552       0.343697028            -72.879        0.936970196             16.735        0.937078075             16.805        0.344608334            -72.973
               553       0.343083633            -72.921        0.936375409             16.727        0.937130343             16.732        0.344072529            -72.983
               554       0.342886195            -72.955        0.936698878             16.701        0.937669954             16.716         0.34320215            -72.967
               555       0.342186381            -72.976        0.937589469             16.614        0.937373606             16.688        0.342817293            -73.051
               556       0.341389375            -73.087        0.937130343              16.59        0.937562007             16.568        0.341979443            -73.077
               557       0.340785775            -73.064        0.937737875             16.501        0.938061815             16.632        0.341846752            -73.144
               558       0.340048216            -73.091        0.937433567             16.514        0.938513449             16.549        0.341224731            -73.155
               559       0.339797589            -73.147        0.938145701             16.474        0.938577832             16.525        0.340541694            -73.197
               560       0.339078302            -73.239        0.938425931             16.404        0.938642037              16.48        0.339899089            -73.263
               561       0.338686348             -73.25          0.9378809             16.398        0.939610132             16.425        0.339232686            -73.313
               562       0.338025917            -73.299        0.938642037             16.346        0.939723311               16.4         0.33857119            -73.395
               563       0.337481523            -73.312        0.938533978             16.279        0.939398798             16.338         0.33775361            -73.353
               564        0.33692253            -73.462        0.939031267             16.245         0.94022123             16.259        0.337194167            -73.442
               565       0.336188897            -73.485        0.939687318             16.253         0.94012016             16.269        0.336886312             -73.41
               566       0.335544404            -73.432        0.939615127             16.173        0.940047936             16.221        0.336201773            -73.544
               567       0.334942528            -73.546        0.940091863             16.133        0.940416616             16.165        0.336062686            -73.584
               568       0.334277068            -73.517        0.939845754             16.072        0.940603486             16.138        0.335279179            -73.601
               569       0.333656815            -73.572        0.939723311             16.077        0.941130829             16.103        0.334849766            -73.632
               570       0.332697854            -73.648        0.939939715             15.959        0.940480943             16.008        0.333464802             -73.72
               571       0.332506393            -73.673        0.940264415             15.975         0.94080583             15.984        0.333196169            -73.711
               572       0.332281369            -73.681        0.941577324             15.953        0.941143812             15.966        0.332625845            -73.802
               573       0.331321791            -73.773         0.94080583              15.87        0.941022484             15.913        0.332123801            -73.826
               574       0.331054885            -73.835        0.941130829              15.81        0.941672743             15.884        0.331818045            -73.885
               575       0.330559772            -73.773         0.94145594             15.853        0.941022484              15.87        0.331169247            -73.887
               576       0.330027402            -73.859        0.941781164             15.745         0.94221497             15.822        0.330750112            -74.003
               577       0.329040988            -73.925        0.941347557             15.697        0.942866054             15.777        0.330141409            -74.068
               578       0.328576812            -73.932        0.942295053             15.706        0.942620566             15.671        0.329372178            -74.055
               579       0.328086998            -73.983        0.942408121             15.632        0.942950771             15.714        0.328956915            -74.066
               580       0.327529182            -74.089         0.94330036             15.606        0.942757509             15.618        0.328548887            -74.181
               581       0.326775885            -74.038        0.942431948             15.595        0.943083182               15.6        0.327529182             -74.12
               582         0.3260994            -74.103        0.942648976             15.542        0.942757509             15.552        0.327114654            -74.216
               583       0.325836701            -74.148        0.943191764             15.466        0.943517588             15.548        0.326550235            -74.291
               584       0.324937624            -74.208        0.942757509             15.414        0.943517588             15.449        0.326287172            -74.312
               585       0.324563741            -74.227        0.942540456             15.422         0.94362622             15.411        0.324975036            -74.351
               586       0.323929127            -74.244        0.943843523             15.365        0.944169572             15.419        0.325199598            -74.391
               587       0.323668176            -74.252         0.94362622             15.344        0.944278279              15.41         0.32460111            -74.367
               588       0.323407435            -74.369        0.944169572             15.282        0.944604478             15.299        0.323891835            -74.465
               589       0.322626473             -74.36        0.944278279              15.26           0.944387             15.306        0.323146904            -74.532
               590       0.321810344            -74.454        0.943734866             15.241        0.945257213             15.212        0.322812245            -74.524
               591       0.321512798            -74.493        0.944818231             15.171        0.945471113             15.217        0.322402399            -74.585
               592       0.320865543            -74.517        0.944981011             15.096        0.945634006             15.178        0.321864502            -74.666
               593       0.320147415            -74.551        0.945366046             15.116        0.944930789             15.161        0.321070201            -74.629
               594        0.31974223            -74.551        0.945257213             15.019        0.945039584             15.115        0.320590021            -74.751
               595       0.319117044            -74.566        0.944930789             15.033        0.945474892             15.047        0.319889511            -74.711
               596       0.318529749            -74.633        0.945148392             14.989        0.946564037             14.994        0.319264036             -74.84
               597       0.317980143            -74.635        0.945474892             14.966        0.946128228             15.003        0.319227282            -74.788
               598       0.317614265            -74.756        0.946128228             14.867        0.946455066             14.894        0.318566424            -74.913
               599       0.316993239            -74.719        0.945801503             14.917        0.946019307             14.915        0.318016754            -74.906
               600       0.316409854            -74.811        0.946455066             14.814        0.946346107              14.84        0.317394941            -74.932
               601       0.316045783             -74.84        0.946564037             14.819        0.946455066              14.84        0.316847292            -74.945
               602       0.315318898            -74.911        0.946455066             14.752        0.947000046             14.746        0.316337006            -75.073
               603       0.314956083            -74.895        0.947000046             14.729        0.947218126             14.733        0.315791183            -75.059
               604       0.314314498            -74.925        0.947467702              14.69        0.947576789             14.742        0.315583591             -75.12
               605       0.313436811            -75.044        0.947000046             14.645        0.947000046             14.622        0.314629906            -75.158
               606       0.312968047            -75.026        0.946891025             14.612        0.947218126             14.631        0.314014715            -75.204
               607       0.312643929            -75.008        0.947436256             14.596        0.947654436             14.615        0.313689513            -75.172
               608       0.312140413            -75.075        0.947654436              14.54        0.948090948             14.554        0.313076161            -75.275
               609       0.311458365            -75.086        0.947872667             14.466        0.947436256             14.532        0.312499984             -75.34
               610       0.310670488            -75.111        0.947436256             14.507        0.948090948             14.484        0.312068548            -75.273
               611       0.310098739            -75.188        0.948200107             14.432        0.947872667             14.421        0.311314967            -75.321
               612       0.309706272            -75.197        0.947981801             14.355        0.948309279             14.451        0.311135811            -75.419
