!{201R07S7R5}
!Johanson Technology Inc.
!www.johansontechnology.com
!Test Board Conditions:
!Substrate Type  RO4350B
!Substrate Thickness        10 mil
!Substrate Dk      3.66
!TL Type: GCPW 
!TL Trace Width  21 mil
!TL Gap  20 mil
!Electrode orientation      Horizontal
!DUT TOPOLOGY	SERIES
!Mounting Pad LxW         16x21 mil
!Agilent Technologies,N5230A,MY45001966,A.07.50.67
!Agilent N5230A: A.07.50.67
! Created Mon Mar  9 15:17:36 2020
# mhz S ma R 50
! 2 Port Network Data from SP1.SP block
! freq  magS11  angS11  magS21  angS21  magS12  angS12  magS22  angS22  
!     
               500       0.406958384            -68.402        0.910437212             21.214        0.910437212             21.198        0.408037427            -68.501
               501       0.406022406            -68.447         0.91085658             21.177        0.910646872              21.19        0.407427182            -68.507
               502       0.405695322            -68.475        0.910646872             21.125        0.911695896               21.1        0.406630546            -68.616
               503       0.404902073            -68.522        0.911066337             21.071        0.911695896             21.083        0.405975663            -68.615
               504       0.404389621            -68.614        0.911066337             21.054        0.912325891              21.04        0.405181866            -68.628
               505       0.403243884             -68.72         0.91131347             20.935         0.91330911             20.951        0.404406185            -68.773
               506       0.402856152             -68.69        0.911695896             20.891        0.913061435             20.955        0.403506003              -68.8
               507       0.402464389            -68.754        0.912698757             20.878        0.913434602              20.92        0.403252863            -68.846
               508         0.4012361            -68.759        0.912325891             20.823        0.913902783             20.831        0.402346289            -68.917
               509        0.40008291            -68.833        0.912851219             20.794        0.913587187             20.759        0.401837071            -68.932
               510        0.39989926            -68.923         0.91358845             20.693        0.914535568             20.724        0.400774979            -69.031
               511       0.399208702             -68.98        0.913902783             20.655        0.913902783             20.698        0.400175043             -69.01
               512       0.398107171            -69.021        0.913692374              20.63         0.91442902             20.573        0.399300634            -69.084
               513       0.397466014            -69.032        0.914008006             20.576        0.915166259              20.56        0.398749361             -69.16
               514       0.396962973            -69.117        0.914323748             20.492        0.915377008             20.577        0.398336405            -69.169
               515       0.396423237            -69.181        0.914869405             20.505        0.916239697             20.468        0.397428588            -69.239
               516       0.395550026            -69.177        0.915696212             20.429        0.915801641             20.454        0.396735824            -69.259
               517       0.394820778            -69.231        0.915166259             20.348        0.916115012              20.37        0.395594277            -69.322
               518       0.393958069             -69.35        0.915693223             20.286         0.91632598             20.253        0.394729878            -69.362
               519       0.393323595            -69.337         0.91632598             20.218        0.916748061             20.296        0.394911699             -69.47
               520       0.392554536              -69.4        0.916536996             20.167        0.916536996             20.201        0.393686026            -69.536
               521       0.392418976            -69.483        0.917064749             20.158        0.917804114              20.18        0.393233039            -69.609
               522       0.391241939            -69.501        0.917160627             20.122        0.917794398             20.101         0.39255038            -69.572
               523       0.390412303            -69.534        0.917536808             20.064        0.918065137             20.079        0.391763071            -69.611
               524       0.390078788            -69.663        0.918126103             20.017        0.918654771             19.984        0.391203143            -69.736
               525       0.389627857            -69.669         0.91801547             19.959        0.918967177             19.998         0.39016652            -69.704
               526       0.388418583             -69.67         0.91748717             19.894        0.918861383             19.941        0.389538152            -69.783
               527       0.388425805            -69.798        0.918666912             19.822        0.919725175             19.877        0.388828486             -69.88
               528       0.387659115            -69.791        0.918861383             19.849        0.919708076             19.832        0.388016327            -69.925
               529       0.386551886            -69.837        0.919195302             19.783        0.920042302             19.783        0.387844642            -69.938
               530       0.385512403            -69.892        0.919259983             19.707        0.920530865             19.726        0.386935303            -69.996
               531       0.385279659             -69.96        0.919657423             19.678        0.920716828             19.651         0.38639018            -70.048
               532       0.384585147            -69.933         0.92022178             19.637        0.920433693             19.639        0.385871326            -70.079
               533       0.384051263            -70.019        0.920214766             19.584        0.921168753               19.6        0.384980913            -70.106
               534       0.383309868             -70.03        0.920449572             19.539        0.920979578             19.569        0.384193489            -70.158
               535       0.382384254            -70.153        0.920873552             19.481        0.921615988             19.485        0.383707245             -70.22
               536       0.382063531            -70.096        0.921267148             19.442        0.921585398             19.474        0.383297145            -70.282
               537       0.381306825            -70.232        0.921774266             19.382        0.922623642             19.409        0.382361872            -70.408
               538       0.380539725            -70.293        0.921934357             19.348        0.922252837              19.32        0.381768419            -70.361
               539       0.380001638            -70.296        0.922009653             19.264        0.922965501             19.349        0.380965342            -70.434
               540       0.379009416            -70.387        0.922040505             19.281        0.922783882             19.248         0.38036452            -70.433
               541       0.378793776            -70.374        0.922152683              19.23         0.92374656             19.225        0.379623277             -70.52
               542       0.377965278            -70.463        0.923531909             19.172        0.923212988             19.149         0.37909836            -70.573
               543       0.377245976            -70.472        0.923367566              19.15         0.92379289              19.12         0.37855119            -70.608
               544       0.376353644            -70.479        0.922988151             19.072        0.924051392             19.086         0.37774274            -70.602
               545        0.37604298            -70.548         0.92339493             19.025        0.924671529             19.082        0.377083462             -70.68
               546       0.375448177            -70.667        0.924059636              18.94         0.92437885             18.988        0.376703799            -70.717
               547       0.374369104            -70.687        0.924485279              18.95         0.92437885             18.903        0.375880677             -70.75
               548       0.373753645            -70.704         0.92477363             18.852         0.92477363             18.905        0.375219532            -70.826
               549       0.373604027            -70.762        0.924616306               18.8        0.925574856             18.835        0.374292865            -70.908
               550       0.372534358            -70.804        0.925158904             18.793        0.925585053             18.795        0.374038523            -70.936
               551       0.372215412            -70.863         0.92564477             18.724         0.92564477             18.782        0.373503221            -70.975
               552        0.37144969            -70.912        0.925656809             18.666        0.926189813             18.714        0.372348836            -71.052
               553         0.3707234            -70.937        0.925337153             18.649        0.926296451             18.653        0.371663575            -71.076
               554       0.370595379            -70.947        0.925869974             18.639        0.926936535             18.655        0.371022289            -71.072
               555       0.369952049            -70.991        0.926393369              18.52        0.926820087              18.61        0.370591486            -71.173
               556       0.369020081            -71.076        0.925656809             18.484        0.927149994             18.495        0.369615351              -71.2
               557       0.368298542            -71.124        0.927043258              18.43        0.927256743             18.539        0.369615351            -71.231
               558       0.367503615            -71.134         0.92664122             18.416        0.927815482             18.443        0.368860045             -71.28
               559        0.36728074            -71.189        0.927466335             18.374        0.927893548             18.447        0.368212184            -71.311
               560        0.36652196            -71.242        0.927577061              18.29         0.92789749             18.404        0.367536098            -71.407
               561       0.365993715            -71.307        0.927413958             18.288        0.928909978             18.324        0.366795186            -71.421
               562       0.365384399            -71.355        0.927790668             18.254        0.929073344             18.301         0.36614238            -71.468
               563       0.364654069            -71.339        0.928391304             18.168        0.928712014             18.255        0.365536765            -71.495
               564        0.36403919            -71.461        0.928641611             18.155         0.92939031             18.171        0.364710393             -71.53
               565       0.363390439            -71.538        0.929230585             18.139        0.929444573             18.155        0.364353962            -71.524
               566       0.362743801            -71.451        0.929180314             18.095        0.929501297             18.123        0.363621873            -71.658
               567       0.362163709            -71.576        0.929511847             18.032        0.929832945             18.068         0.36350043            -71.675
               568       0.361447846            -71.553        0.929491967             17.972         0.93002718             18.026        0.362573151            -71.714
               569        0.36083571            -71.615        0.929307648             17.957        0.930806722              18.01         0.36216753            -71.768
               570       0.359956483            -71.711        0.929501297             17.842        0.930572041             17.879        0.360744734            -71.857
               571       0.359666509             -71.73        0.929608316             17.843        0.930786338             17.868        0.360412629            -71.854
               572        0.35906948            -71.716        0.931276176             17.812        0.930525959             17.851        0.359897221            -71.929
               573       0.358508948            -71.831        0.930679183             17.753        0.930786338             17.821        0.359418146            -71.945
               574        0.35789036            -71.897        0.931000684             17.683        0.931429524             17.759        0.358963259            -72.054
               575       0.357396257            -71.839        0.931107875             17.732        0.931000684             17.733        0.358096437            -72.037
               576       0.356820666             -71.89        0.931644019             17.633        0.931858562             17.722        0.357931566            -72.099
               577        0.35575417            -71.996        0.931429524             17.567         0.93282462             17.655        0.357231708            -72.213
               578       0.355506177            -72.011        0.932281682              17.57        0.932389022             17.545        0.356448795            -72.198
               579       0.354895097            -72.028        0.932073155             17.491         0.93282462              17.59        0.355877065            -72.201
               580       0.354187123            -72.157        0.933109837             17.468        0.932895005             17.491        0.355494403            -72.306
               581       0.353549315             -72.08        0.932609854             17.445        0.933146862             17.475        0.354527559            -72.267
               582        0.35297992            -72.173        0.932609854             17.397        0.933254301             17.416         0.35391584            -72.359
               583       0.352452017            -72.247        0.933361752              17.32         0.93379168             17.399        0.353427224            -72.432
               584       0.351519968             -72.28         0.93250249              17.24        0.933899193             17.314        0.352939284             -72.48
               585       0.351075077            -72.315        0.932932022             17.282         0.93379168             17.267        0.351965423            -72.487
               586       0.350388626             -72.34         0.93379168             17.205        0.934329368             17.265        0.351843879            -72.532
               587       0.350025754            -72.378        0.934006718              17.18         0.93454453              17.26        0.351439037            -72.521
               588       0.349623004            -72.453        0.934006718             17.117         0.93465213              17.16        0.350590384            -72.628
               589       0.348818893            -72.461        0.934329368             17.103        0.934221806             17.154        0.349784048            -72.665
               590       0.348129918            -72.536        0.934525912             17.069        0.935602444             17.078        0.349455072            -72.682
               591       0.347803021            -72.584        0.935046803             17.005        0.935585214             17.057        0.349006367            -72.728
               592       0.347216216             -72.63        0.934975003             16.952        0.935728808             17.009        0.348257117            -72.796
               593       0.346617112            -72.651        0.935621084             16.922        0.935621084             16.989        0.347496152            -72.817
               594       0.345979208            -72.682        0.935944292             16.868        0.935513373             16.928        0.347256193            -72.896
               595       0.345183478            -72.691        0.935513373             16.861        0.935728808             16.877        0.346377761            -72.855
               596       0.344786299            -72.752        0.935621084             16.821        0.937022458             16.822        0.345660696            -72.979
               597       0.343914115            -72.757        0.935728808              16.81        0.936591043             16.814        0.345581114            -72.965
               598       0.343637064            -72.881         0.93648322             16.696        0.936806726              16.73        0.344865698            -73.052
               599       0.343083633            -72.854        0.936806726             16.737         0.93648322              16.71        0.344468886            -73.049
               600       0.342176358            -72.939        0.936591043             16.638        0.936914586             16.651        0.343637064            -73.077
               601       0.342215755            -72.951        0.937022458             16.643        0.937130343             16.662         0.34316264            -73.093
               602       0.341153633            -73.036        0.937022458             16.576         0.93723824             16.555         0.34268887             -73.22
               603       0.340878806                -73        0.937454072             16.525        0.937885885             16.559        0.342176358             -73.25
               604       0.340200253            -73.091         0.93796068             16.449        0.938284696             16.537        0.341731201            -73.329
               605        0.33923449             -73.14        0.937562007             16.439        0.937454072             16.437        0.340682637             -73.35
               606       0.338805148            -73.152        0.937669954              16.43         0.93799387             16.444        0.340212291            -73.358
               607        0.33849324            -73.153        0.938101866             16.386        0.938642037             16.417        0.339820833             -73.36
               608       0.337792498            -73.218        0.938209876             16.335        0.938642037              16.35        0.338961209            -73.465
               609       0.337287309            -73.226        0.938533978             16.264        0.938317897             16.351        0.338532213            -73.502
               610       0.336240482            -73.283        0.938317897             16.286        0.938966288             16.292        0.337948093            -73.492
               611        0.33581493            -73.366        0.939290652              16.21        0.938750108              16.21        0.337326143            -73.529
               612       0.335312698            -73.341        0.938425931             16.156        0.938858192             16.234        0.337015597            -73.603
