!{201R07S180}
!Johanson Technology Inc.
!www.johansontechnology.com
!Test Board Conditions:
!Substrate Type  RO4350B
!Substrate Thickness        10 mil
!Substrate Dk      3.66
!TL Type: GCPW 
!TL Trace Width  21 mil
!TL Gap  20 mil
!Electrode orientation      Horizontal
!DUT TOPOLOGY	SERIES
!Mounting Pad LxW         16x21 mil
!Agilent Technologies,N5230A,MY45001966,A.07.50.67
!Agilent N5230A: A.07.50.67
! Created Mon Mar  9 16:05:34 2020
# mhz S ma R 50
! 2 Port Network Data from SP1.SP block
! freq  magS11  angS11  magS21  angS21  magS12  angS12  magS22  angS22  
!     
               500       0.179517588            -82.598        0.982102925              7.394        0.983347469              7.383        0.180803571            -82.656
               501       0.179568882            -82.511        0.983062385              7.404        0.982949212              7.402        0.180792778            -82.714
               502       0.178783357            -82.549        0.982035272              7.408        0.983506165              7.348        0.180084812            -82.701
               503       0.178587612            -82.532        0.982429352              7.348        0.983447836              7.315        0.179908354            -82.697
               504        0.17787261            -82.723        0.982559993              7.293        0.983352162                7.3        0.179435792            -82.905
               505       0.177705144            -82.626        0.982878873              7.279        0.983558056              7.251        0.178731047            -82.772
               506       0.177230823            -82.794        0.982967714               7.23        0.983646958              7.207        0.178520976            -82.817
               507       0.176889573            -82.674        0.983336666              7.238        0.983336666              7.228        0.178382495            -82.855
               508        0.17628821            -82.747        0.983497517              7.218        0.983384294              7.198        0.177776056            -82.894
               509       0.175832844            -82.792        0.983558056               7.15        0.982765721              7.131        0.177439375            -82.869
               510       0.175470233            -82.803        0.983792379              7.144        0.983113034              7.114        0.177073452            -82.989
               511       0.175186017            -82.839        0.983670028              7.103        0.983670028              7.098        0.176623887             -83.02
               512       0.174697503            -82.832        0.983188289              7.042        0.983980965              7.075        0.176273366            -83.032
               513       0.174592331            -82.853        0.983388588              7.059        0.983954835              7.055        0.176126686            -83.061
               514       0.173910658            -82.951        0.983843902              6.989        0.983504153              6.987        0.175701795            -83.113
               515       0.173900681            -83.055        0.983900731              6.982        0.983674206              6.958        0.175428958            -83.201
               516        0.17340327            -82.949        0.983008523              6.956        0.984480874              6.945        0.174685671            -83.174
               517       0.172713248            -83.053        0.983842662              6.892        0.984182528              6.908        0.174291276            -83.162
               518       0.172443332            -83.132        0.984002962              6.885        0.984229564              6.879         0.17391875            -83.204
               519       0.172305841            -83.138        0.984124401              6.875        0.984464364              6.855        0.173420327            -83.199
               520          0.171843            -83.096        0.983630181              6.858        0.984536556              6.839        0.173353193            -83.312
               521       0.171140723             -83.21        0.983678916              6.797        0.984585335               6.79         0.17280383            -83.282
               522       0.171151625            -83.166        0.984534701              6.778        0.983968121              6.788        0.172735272            -83.245
               523       0.170433144            -83.208        0.984586905              6.751        0.984133591              6.727        0.172069563            -83.372
               524       0.170100713            -83.245        0.984704979              6.732         0.98379845              6.727        0.171892186            -83.298
               525       0.169793673            -83.242        0.984286443              6.704        0.984739828              6.672        0.171364755            -83.376
               526        0.16944095            -83.295        0.984279361              6.653        0.984846121              6.658        0.170969397             -83.51
               527       0.169048406            -83.331        0.983809654              6.655        0.984942959                6.6        0.170789466            -83.575
               528       0.168693848             -83.39        0.984689358              6.599        0.985029516              6.588        0.169980556            -83.542
               529       0.168558245            -83.265        0.984691071              6.601         0.98503123              6.599        0.169843918            -83.507
               530       0.168010908            -83.387        0.984435979              6.566        0.985229661              6.532        0.169428895            -83.582
               531       0.167420402              -83.5        0.984823449              6.534        0.984823449              6.507        0.169183646            -83.577
               532       0.167187694            -83.388        0.984700839              6.535        0.985154415               6.52        0.168812386            -83.604
               533       0.166878351            -83.481        0.985144643              6.432        0.984804445              6.503        0.168364296            -83.638
               534       0.166379571            -83.443        0.985258068              6.418        0.984464364               6.46        0.168248035            -83.756
               535       0.166004305            -83.517        0.984734944              6.464        0.985301966              6.428        0.167791265            -83.651
               536       0.165878543            -83.601        0.984668878              6.425         0.98557621               6.38        0.167336319             -83.75
               537        0.16521422            -83.607         0.98491199              6.388        0.985365663              6.347        0.167050363            -83.723
               538       0.165456332            -83.608        0.985674209              6.349        0.985106973              6.364        0.166718346            -83.789
               539       0.164877636              -83.6        0.984831093              6.326        0.985738573               6.32         0.16640323            -83.772
               540       0.164704191            -83.716         0.98481499              6.326        0.985949453              6.274        0.165922258            -83.791
               541       0.164266877            -83.691        0.985825392              6.266        0.985598423              6.268        0.165291302             -83.86
               542        0.16404009            -83.763        0.985938896              6.256        0.985371507              6.249          0.1652152            -83.842
               543       0.163304293            -83.741        0.985366068              6.235        0.985592983              6.233        0.165138221            -83.867
               544       0.163112633            -83.707        0.985910744              6.185        0.985570281              6.185        0.164546102            -83.906
               545       0.162662486            -83.625         0.98545638              6.165        0.986137345              6.148        0.163997567            -83.959
               546       0.162203714            -83.756        0.985509451              6.113        0.986076919              6.115        0.163742265             -83.95
               547       0.162015424            -83.905        0.985953339              6.104        0.985839834              6.103        0.163514534            -83.952
               548       0.161612033            -83.764        0.985311823              6.095        0.986219747              6.099        0.163257708            -84.049
               549       0.160934518            -83.936         0.98593709              6.038        0.985823586              6.068        0.162666905            -84.197
               550       0.160805824            -83.984        0.985942922              6.015        0.985829418              6.023        0.162630416            -84.127
               551       0.160635181            -84.012        0.986031225              6.007        0.986031225              6.003        0.162214872            -84.187
               552       0.160000064            -83.963        0.985076946              5.983        0.986665983              6.046        0.161499118            -84.143
               553        0.15965551            -84.087        0.986015886              5.923        0.986015886               5.98         0.16159723            -84.132
               554       0.159980446            -84.017        0.985863764               5.91        0.986658596              5.963        0.161219253            -84.205
               555       0.159420244            -84.159         0.98524325              5.885        0.986832555               5.86         0.16071021            -84.278
               556       0.159053184            -84.136        0.985921569              5.821        0.986716448               5.86        0.160414037            -84.371
               557       0.158497046             -84.18        0.985986964              5.881        0.986554707              5.849        0.160166311             -84.33
               558       0.158272783            -84.038        0.985272222               5.81        0.986975197              5.849        0.159737263            -84.167
               559       0.157718656            -84.164         0.98658173              5.762         0.98658173              5.823         0.15925133            -84.296
               560       0.157420983             -84.24        0.985854037              5.726        0.987103335              5.793        0.158749593            -84.389
               561       0.157261198            -84.279        0.986782822              5.769        0.986782822              5.776        0.158460704            -84.394
               562       0.156834206            -84.217        0.986826466              5.711        0.986599267              5.727        0.158358285            -84.434
               563        0.15658479            -84.261        0.986164975              5.704         0.98696005              5.676        0.158306801            -84.421
               564       0.156227105            -84.273        0.986521116              5.709         0.98697553              5.708        0.157817946            -84.395
               565       0.156097876            -84.405        0.986386213              5.646        0.987181467               5.63        0.157397197            -84.587
               566       0.155439672            -84.431        0.987101633               5.59        0.986420003              5.607        0.157130999            -84.537
               567       0.155184253            -84.387         0.98695568              5.576        0.986728451              5.595         0.15694506            -84.512
               568       0.154843161            -84.416          0.9869429              5.549        0.986829281              5.592        0.156600097            -84.592
               569       0.154619476            -84.434         0.98653886              5.514        0.987447915              5.549        0.156032187            -84.635
               570       0.154060497            -84.431        0.987509528              5.491        0.986032648              5.527        0.155772681            -84.669
               571       0.153868599            -84.413        0.987301962              5.471        0.986961019              5.509        0.155363859             -84.72
               572       0.153870818            -84.416        0.986975253              5.496        0.987543565              5.497        0.155169465            -84.688
               573       0.153532386            -84.452        0.987301962              5.411        0.987301962              5.459        0.154917329            -84.734
               574       0.152778775            -84.599        0.986990617              5.423        0.987445247              5.388        0.154476714            -84.733
               575       0.152871258            -84.586        0.987474388                5.4        0.987588082              5.375        0.154055015            -84.757
               576       0.152305396            -84.545        0.986995764              5.337        0.987564088              5.397        0.154015805            -84.814
               577       0.151914235            -84.593        0.987412159              5.398        0.987298485              5.336        0.153673319            -84.773
               578       0.151661537            -84.669         0.98724616              5.337        0.987473508              5.356        0.153364716            -84.908
               579       0.151559191            -84.583        0.987034376              5.325        0.987943887              5.327        0.152961551            -84.832
               580       0.151085044             -84.65        0.987691863              5.271        0.987464465              5.293        0.152676247            -84.864
               581       0.150827354            -84.586        0.987484098              5.306        0.987825222              5.273        0.152345668            -84.867
               582        0.15055555            -84.703        0.987408291              5.261        0.987976853              5.248        0.152001114            -84.892
               583        0.14965763            -84.721         0.98775415              5.217        0.987299377               5.16        0.151687175            -84.972
               584       0.150143293            -84.869        0.986633683              5.225        0.988225231              5.164        0.151549999                -85
               585       0.149166304            -84.756         0.98734909              5.162        0.987917618              5.125        0.151067392            -85.147
               586       0.149317549            -84.765        0.987554003              5.126        0.987895151              5.166        0.151081349            -85.095
               587       0.148707586            -84.879         0.98771835              5.108        0.987832072              5.094        0.150602826            -84.965
               588       0.148565853            -84.838        0.988368741               5.05        0.987458839              5.083        0.150026854            -85.116
               589       0.148543163            -84.866        0.988331571              5.076        0.987421703              5.129        0.150021212            -85.133
               590       0.148014459            -84.977        0.987879886              5.043        0.987993627              5.002        0.149745625            -85.185
               591        0.14783373            -84.989        0.987810267              5.007        0.988151504              5.039        0.149459504            -85.232
               592       0.147556107            -84.953        0.987659372              5.038        0.988455653              4.983        0.148955721            -85.305
               593        0.14716676            -84.982         0.98834764              4.976        0.988006336              4.968        0.148699576            -85.231
               594         0.1470451            -84.994        0.988212989              4.964        0.988326767              4.946        0.148474051            -85.253
               595       0.146650378            -85.061        0.987718497              4.917        0.988628638              4.966        0.148075493            -85.294
               596       0.146448915            -85.063        0.987725256              4.903        0.988749231              4.939        0.147821008            -85.211
               597        0.14584057            -85.106        0.988617637              4.843         0.98793496              4.876        0.147478379            -85.294
               598       0.145430544            -85.113        0.988679727              4.834        0.987769539               4.82        0.147182315            -85.373
               599       0.145433422            -85.051        0.987902817              4.803        0.988813128              4.834        0.146948184             -85.38
               600       0.144978073            -85.145        0.988217008              4.836        0.988558385              4.841         0.14665684            -85.429
               601       0.144741138            -85.198        0.988648664              4.741        0.988307256              4.811        0.146282369            -85.538
               602       0.144497619            -85.273         0.98869125              4.737         0.98857743              4.751        0.145918612            -85.444
               603       0.144164449            -85.211        0.988457897              4.762        0.988685524              4.765        0.145800219            -85.431
               604       0.143717723            -85.285          0.9885766              4.677        0.988690421              4.754         0.14531496            -85.533
               605        0.14340246            -85.301        0.988112976               4.68        0.988795776               4.71        0.145230089            -85.652
               606       0.142858741            -85.233        0.988227238              4.667        0.988796271              4.697         0.14487946            -85.581
               607       0.142785158            -85.328         0.98828696               4.64        0.988856028              4.643        0.144704843            -85.589
               608       0.142683148            -85.283        0.988718551              4.617        0.988946238              4.628        0.144235672            -85.648
               609       0.142573465            -85.224        0.988072255              4.594        0.989324364              4.648        0.144041855            -85.604
               610       0.141931353            -85.372        0.988617613              4.557        0.989072994               4.54        0.143607904            -85.723
               611       0.141860992            -85.284        0.988924175              4.591        0.989038036              4.571        0.143404571            -85.663
               612       0.141320472            -85.388        0.988564658              4.534        0.989133885               4.54         0.14310509            -85.761
