!{201R07S130}
!Johanson Technology Inc.
!www.johansontechnology.com
!Test Board Conditions:
!Substrate Type  RO4350B
!Substrate Thickness        10 mil
!Substrate Dk      3.66
!TL Type: GCPW 
!TL Trace Width  21 mil
!TL Gap  20 mil
!Electrode orientation      Horizontal
!DUT TOPOLOGY	SERIES
!Mounting Pad LxW         16x21 mil
!Agilent Technologies,N5230A,MY45001966,A.07.50.67
!Agilent N5230A: A.07.50.67
! Created Mon Mar  9 15:50:40 2020
# mhz S ma R 50
! 2 Port Network Data from SP1.SP block
! freq  magS11  angS11  magS21  angS21  magS12  angS12  magS22  angS22  
!     
               500       0.245094371            -78.568        0.967015282              11.36        0.968798232             11.309        0.246878538             -78.57
               501       0.244709033            -78.599         0.96783205              11.32        0.968723867             11.272        0.246291827            -78.617
               502       0.244202441            -78.659         0.96838934             11.258        0.968835402             11.213        0.245668797            -78.686
               503       0.243865295            -78.691        0.968612345             11.238        0.968500836             11.202        0.245273145            -78.718
               504       0.243361828            -78.658        0.968283338             11.215        0.969063996             11.153        0.244992313            -78.741
               505       0.242884612             -78.74        0.968166386             11.114         0.96928167             11.152        0.244146217            -78.747
               506        0.24224231            -78.694         0.96838934             11.078        0.968835402              11.08        0.243696897            -78.808
               507       0.242201963             -78.84        0.969120228             11.082        0.969566627             11.071        0.243375949            -78.843
               508       0.241379287            -78.784        0.968835402             11.035        0.969504881             11.076        0.242772785            -78.829
               509       0.240907322            -78.837        0.969170084             11.003         0.96928167             11.038        0.242186538            -78.904
               510       0.240463963            -78.902        0.969058511             10.926        0.969839794             10.972        0.241685169            -78.998
               511       0.239596602            -78.976        0.969684947             10.929        0.969684947             10.942        0.241396325            -79.027
               512       0.239252135            -78.996        0.970187831               10.9        0.969406267             10.914        0.240799634            -79.011
               513       0.238828394            -78.972        0.969808436             10.863        0.970143454             10.878        0.240345479            -79.092
               514       0.238457438            -79.048        0.969082774             10.865        0.970757766             10.833        0.239530529            -79.062
               515       0.237985228            -79.109        0.969839794             10.777        0.970286525             10.836        0.239414252            -79.153
               516       0.237355883            -79.093        0.970063134              10.74        0.970174823             10.767        0.238836116            -79.165
               517       0.236731963            -79.209        0.970748884             10.696         0.97030194             10.668        0.238126045            -79.209
               518       0.236210936            -79.126        0.969951458             10.612        0.970845227             10.733        0.237766136             -79.24
               519       0.235712661            -79.287        0.970248346             10.639        0.971254203             10.624         0.23712804            -79.404
               520       0.235206869              -79.2        0.970174823             10.668        0.970957007              10.62        0.236782717            -79.275
               521       0.234990335            -79.301        0.970845227             10.582        0.971180603             10.576        0.236156552            -79.416
               522        0.23436054            -79.344        0.971145921             10.585        0.971369561             10.551        0.235713518            -79.433
               523       0.233864616            -79.281        0.970654153             10.555        0.971436723             10.571        0.235594158            -79.459
               524       0.233437397            -79.386        0.971114484             10.544        0.971561801             10.499        0.234893193              -79.4
               525       0.233006214            -79.522        0.971443401              10.45         0.97166711             10.427        0.234378355            -79.483
               526        0.23272873            -79.439        0.970621708             10.421        0.971851703               10.4        0.233776041            -79.523
               527       0.232119826            -79.447        0.971543467             10.382        0.971767199             10.396        0.233459868            -79.519
               528       0.231677569            -79.541        0.971815871             10.347        0.971703993             10.358        0.233256625            -79.645
               529       0.231350395             -79.51        0.971449534             10.304        0.972232746             10.339        0.232632423            -79.643
               530       0.230667352            -79.606        0.971261403             10.304        0.972380253             10.288        0.232186054            -79.629
               531       0.230250191            -79.734         0.97229936             10.246        0.971963598             10.257        0.231739465             -79.76
               532       0.229453777            -79.663        0.972176708             10.256         0.97228864             10.174        0.231124089            -79.796
               533       0.228967595            -79.678        0.971457986             10.186        0.972689041             10.183        0.230714039            -79.776
               534       0.228857074            -79.717        0.972107604             10.148        0.972667355             10.129        0.230310819              -79.8
               535       0.228334928            -79.699         0.97201362             10.125        0.973133337              10.16        0.229547385            -79.928
               536       0.228037683            -79.856        0.971754631              10.07        0.973098088             10.112        0.229512646            -79.843
               537        0.22773848            -79.792        0.972828795             10.061        0.973164856              10.07        0.228789673            -79.976
               538       0.226848576            -79.804        0.972492043             10.058        0.973164049             10.005        0.228421015            -79.999
               539       0.226568746            -79.859        0.972747224              9.971        0.972635239             10.026        0.227955461            -80.022
               540       0.226035469            -79.953        0.972918796              9.973        0.973591096               9.94        0.227261879            -80.103
               541       0.225218879             -79.99        0.973430146               9.92        0.972869956               9.89         0.22693673            -80.078
               542       0.224957253            -79.994        0.972971233              9.916        0.973195294              9.877        0.226647013            -80.103
               543       0.224801912            -79.976        0.972859222              9.891        0.973867785              9.868        0.225995608            -80.088
               544       0.224094859            -80.068        0.973042686              9.755        0.973715072              9.856        0.225856135            -80.228
               545       0.223691767            -80.105        0.973083257              9.741        0.973979912              9.819        0.225086786            -80.236
               546        0.22314866            -80.094        0.973406593              9.795        0.973967092               9.75        0.224773073            -80.245
               547       0.222772072            -80.038         0.97321937              9.725        0.974116152              9.729        0.224367911            -80.305
               548       0.222508666            -80.212        0.972964354              9.662        0.974533852              9.713        0.223741698             -80.32
               549       0.222356587            -80.259        0.973307343              9.695        0.973979912              9.681         0.22343438             -80.29
               550       0.221498512            -80.302        0.974026589              9.649        0.974250893              9.639        0.223110913            -80.376
               551       0.221152911            -80.257        0.973739213              9.637        0.974748689              9.576         0.22242964            -80.449
               552        0.22062335            -80.352        0.974207513               9.56        0.974768473              9.547        0.221871477            -80.439
               553       0.220432465            -80.346        0.974822527              9.541        0.974261535              9.522         0.22155194            -80.408
               554        0.21958365            -80.406        0.974092052              9.467        0.974316371              9.536        0.221309471            -80.555
               555       0.219479681            -80.355        0.974079312                9.5        0.975201408              9.459        0.220568922            -80.534
               556       0.218851738            -80.454        0.974540742                9.4        0.974877394              9.439        0.220115183            -80.579
               557       0.218373533            -80.483         0.97442855              9.427        0.975214163              9.371        0.219760685            -80.613
               558         0.2181785            -80.505        0.974343184              9.368        0.975353286              9.385        0.219564413             -80.63
               559        0.21779605             -80.47        0.974652946              9.353        0.974989638              9.333        0.218776162             -80.64
               560       0.217145083            -80.529        0.975101894              9.315        0.974989638              9.331        0.218499275             -80.71
               561       0.216795351            -80.599        0.974765084              9.299        0.975663289              9.288        0.218172478            -80.759
               562       0.216320562             -80.53         0.97453581              9.243        0.975770765               9.27        0.217669611            -80.746
               563       0.215636943            -80.686        0.974929398              9.197        0.975603088              9.228        0.217431853            -80.769
               564       0.215377336            -80.743        0.975101894              9.168        0.975663369              9.204        0.216845293            -80.745
               565       0.214931466            -80.666        0.975326445              9.162        0.975101894              9.198        0.216446217             -80.82
               566       0.214684159            -80.652        0.975551048               9.11        0.975663369              9.117        0.215973268            -80.902
               567       0.214398674            -80.769        0.975488368              9.088        0.976274835              9.093        0.215512316            -80.917
               568       0.214126505            -80.845        0.975933954              9.049        0.976271088              9.075        0.215213955            -81.023
               569       0.213299475            -80.816        0.975528106              9.065        0.976314606              9.034        0.214827456             -80.99
               570       0.212889896            -80.836        0.975899398               9.01        0.976461333              9.035         0.21419289            -81.013
               571       0.212862912            -80.846         0.97600041              8.983        0.976337567              8.978        0.214165741             -81.05
               572       0.212106585            -80.934        0.976234499              8.921        0.976459311               8.94        0.213503083            -81.106
               573       0.211782859            -80.874        0.975867392              8.957        0.976766613              8.929        0.213128146             -81.13
               574       0.211373238            -80.976         0.97600041              8.913         0.97678729              8.904        0.212764908            -81.155
               575       0.210929411            -81.074        0.976533484              8.814        0.976645918              8.863        0.212391503            -81.217
               576        0.21062019            -80.938        0.976562402              8.867         0.97667484              8.821        0.211884896            -81.225
               577       0.210208368            -81.025         0.97588805               8.78         0.97701223              8.812        0.211300245              -81.2
               578       0.209604209            -81.055         0.97588805              8.703        0.977349736              8.797        0.210862815              -81.3
               579       0.209002767            -81.129         0.97611736              8.705        0.977241804              8.735        0.210693936            -81.335
               580       0.208889234            -81.161         0.97659851              8.693        0.977385872              8.691        0.210191939            -81.339
               581       0.208301669            -81.149        0.976546099              8.656        0.977333419              8.666        0.209938819            -81.422
               582       0.207928523            -81.205        0.976706481              8.639        0.977606475              8.638        0.209297514            -81.478
               583       0.207715432            -81.238        0.977391964              8.619        0.977166937              8.616        0.209131169             -81.42
               584       0.207483702            -81.233        0.976638833              8.616        0.977876454              8.584        0.208561427             -81.45
               585       0.206635407             -81.28        0.977247885              8.564         0.97747293              8.584         0.20830742            -81.476
               586       0.206558355            -81.288        0.976995958              8.521        0.977783641              8.567        0.208061999            -81.529
               587       0.206201763            -81.286        0.977107562              8.499        0.977895335              8.507        0.207631086            -81.601
               588       0.205565392            -81.333        0.977462264              8.513        0.976899753              8.478        0.207085647            -81.529
               589       0.205187758            -81.344        0.977578059              8.439        0.977803181              8.469        0.206824244            -81.659
               590       0.205040523            -81.426        0.977776737              8.421        0.978001905              8.409        0.206390499            -81.645
               591       0.204332894            -81.366        0.976985876              8.388        0.978336565              8.379        0.205844035            -81.693
               592       0.204346202            -81.356        0.977949816              8.377        0.978175024              8.374        0.205596904             -81.74
               593       0.203758895            -81.425        0.977387043              8.357        0.978512949              8.333        0.205100433            -81.742
               594       0.203151406            -81.473        0.977506903              8.265        0.978407635              8.318        0.204818807            -81.771
               595       0.202657236            -81.426        0.977939784              8.298        0.978164989              8.286         0.20448531            -81.788
               596       0.202570425            -81.522        0.978534268               8.28        0.978196353              8.268        0.203998061            -81.885
               597       0.202283767            -81.563        0.978500455              8.262        0.978162552              8.228        0.203850148            -81.861
               598       0.201984965            -81.557        0.977842802              8.188        0.978969233               8.24        0.203174427            -81.905
               599        0.20157503            -81.601        0.978445707              8.185        0.978558361              8.186        0.203065775            -81.864
               600       0.201117564             -81.55        0.978362955              8.158        0.978813611              8.125        0.202232057            -81.897
               601       0.200747433            -81.609        0.978025099              8.128        0.978700928              8.105        0.201999363            -81.923
               602       0.200262669            -81.649        0.977912506              8.081        0.978588257              8.081        0.201720483            -82.091
               603       0.199963164            -81.693        0.978362955              8.054        0.979264475              8.043         0.20118704            -82.033
               604       0.199526231            -81.814        0.978700928              8.024        0.978813611              8.035        0.200909281              -82.1
               605       0.199015648            -81.819        0.979235673              7.985        0.978672141              7.981        0.200602909            -82.107
               606       0.198651548            -81.817        0.978570126              7.995        0.979246331              7.988        0.200443489            -82.168
               607       0.198221154            -81.748        0.978813611              7.916        0.978926308               7.97        0.199825082            -82.208
               608        0.19807167            -81.763        0.979540422              7.888        0.978864013               7.97        0.199513535             -82.26
               609       0.197492377            -81.864        0.979152501              7.881        0.979490746              7.851        0.198998745            -82.253
               610        0.19724942            -81.877        0.978849077              7.866        0.979751046              7.845        0.198662426            -82.232
               611       0.196809928            -81.941        0.978919553              7.811        0.979821587              7.874        0.198333924            -82.283
               612       0.196430008            -81.907        0.978943966              7.794        0.979846022              7.833        0.198019443            -82.327
