!{201R07S150}
!Johanson Technology Inc.
!www.johansontechnology.com
!Test Board Conditions:
!Substrate Type  RO4350B
!Substrate Thickness        10 mil
!Substrate Dk      3.66
!TL Type: GCPW 
!TL Trace Width  21 mil
!TL Gap  20 mil
!Electrode orientation      Horizontal
!DUT TOPOLOGY	SERIES
!Mounting Pad LxW         16x21 mil
!Agilent Technologies,N5230A,MY45001966,A.07.50.67
!Agilent N5230A: A.07.50.67
! Created Mon Mar  9 15:51:50 2020
# mhz S ma R 50
! 2 Port Network Data from SP1.SP block
! freq  magS11  angS11  magS21  angS21  magS12  angS12  magS22  angS22  
!     
               500       0.206148688             -80.69        0.976293899              9.451        0.977643631              9.421        0.208080113            -80.772
               501       0.205706395            -80.719        0.977007266               9.44         0.97734477              9.411        0.207657582            -80.819
               502       0.204921256            -80.786        0.976645625              9.361        0.977658114              9.387        0.207103295            -80.835
               503         0.2049087            -80.806        0.976923144              9.341        0.977710768              9.314        0.206685685            -80.986
               504       0.204422637            -80.863        0.977527507              9.288        0.977527507              9.313        0.206290385            -80.903
               505       0.203909083            -80.882        0.977319517              9.256         0.97788227              9.277        0.205677399                -81
               506        0.20346897            -80.943        0.977233142              9.254        0.978021017              9.223         0.20523347            -81.028
               507       0.203150001            -80.953        0.977500139              9.204        0.978175606              9.219        0.204652393            -81.067
               508        0.20283272            -80.956        0.977660377              9.182        0.978335955              9.147        0.204238689            -81.116
               509       0.201841428            -81.018         0.97726042              9.153        0.978273546              9.158        0.203967189            -81.109
               510       0.201307956            -81.075        0.977711987              9.146        0.978049735              9.125         0.20345152            -81.162
               511       0.201105174            -81.087        0.978302683               9.02        0.977852262              9.101        0.203036091            -81.248
               512       0.200815113            -81.132        0.978354831              9.086        0.977904386              9.046         0.20262657            -81.249
               513       0.200165876              -81.2        0.978678487              9.007        0.977890083               8.97        0.202017988            -81.265
               514       0.200236231            -81.159        0.978121177              8.994        0.978909768              8.968        0.201531372            -81.324
               515       0.199147117            -81.219        0.977854014              8.962        0.978755065              8.974        0.201267672            -81.329
               516       0.198841466            -81.201        0.978716604              8.936        0.978603932               8.94        0.200773762            -81.287
               517        0.19828022            -81.249        0.978767166               8.87        0.978767166              8.883        0.200114884            -81.422
               518       0.197889133            -81.303        0.978863073              8.868        0.978863073              8.845        0.199766171            -81.372
               519       0.197542793             -81.34        0.978388164              8.823        0.979176969              8.841        0.199393589            -81.479
               520       0.197018581            -81.342        0.979055221              8.805        0.979280682              8.799        0.198704264            -81.408
               521       0.196256032            -81.462        0.978978184               8.73        0.979203628              8.708        0.198094772            -81.599
               522       0.195902776            -81.428        0.979356006              8.739        0.979017806              8.692        0.197852067            -81.561
               523       0.195635221            -81.485        0.979257813              8.727        0.979370561              8.716        0.197445411              -81.5
               524       0.194880067            -81.461        0.978965574              8.682        0.979303755              8.711        0.197204772            -81.634
               525       0.194755659            -81.546        0.979354867               8.64        0.979580397              8.625        0.196444596            -81.687
               526       0.194117729            -81.569        0.979186017              8.599        0.979637052              8.634        0.196162146            -81.696
               527        0.19354936            -81.609        0.979584129              8.592        0.979358597               8.55        0.195768016            -81.729
               528       0.193331112            -81.635         0.97994511              8.521        0.979606707              8.531        0.195232336            -81.685
               529       0.193035458            -81.643        0.979573639              8.536        0.979912031              8.516        0.194911332            -81.782
               530       0.192512807            -81.667        0.979511698              8.485        0.980075712              8.465         0.19458512            -81.794
               531       0.192037845            -81.662        0.979234765              8.497        0.980249938              8.438        0.194127394            -81.889
               532       0.191460139             -81.78        0.979553969              8.396        0.980343715               8.38        0.193342963            -81.972
               533       0.191195247            -81.741        0.980227975               8.39        0.980115128              8.402        0.192986572            -81.935
               534       0.191073961            -81.806        0.980170226              8.378        0.980283079              8.367        0.192664414            -81.971
               535       0.190295429            -81.909        0.979779516              8.332        0.980569443               8.31        0.192166799            -81.987
               536        0.18999583            -81.788        0.979702169              8.302        0.980943671               8.31        0.191864254            -81.946
               537       0.189479398            -81.901        0.980419628              8.217        0.980758311              8.268         0.19123263            -82.013
               538       0.189212391            -81.917        0.980165864              8.284        0.980730255              8.248        0.191139116            -82.036
               539       0.188396756            -81.969        0.980106839              8.194        0.980784106              8.239        0.190688024            -82.048
               540       0.188059207            -82.048        0.980380355              8.187         0.98094487              8.125        0.189843005            -82.197
               541       0.187620834             -81.95        0.979672828              8.127        0.981253147              8.141        0.189837088            -82.224
               542       0.187091147             -82.02        0.980512732              8.131        0.980851448              8.101        0.189322939            -82.283
               543       0.187052958            -82.059        0.980764144              8.112        0.981215907                8.1        0.188805473             -82.19
               544       0.186517208            -82.148        0.981451644              8.066        0.980209498              8.074        0.188308059            -82.283
               545        0.18624757            -82.152        0.980710026              8.056        0.981500703              8.019        0.187927621            -82.262
               546        0.18571759            -82.132        0.981528782              8.025           0.980851               8.04        0.187565535            -82.249
               547       0.185423815            -82.185        0.981443974              8.017        0.981443974              7.954        0.186988765             -82.28
               548       0.184833302            -82.169        0.981364224              7.958        0.981703234              7.965        0.186436191            -82.336
               549       0.184205891            -82.225         0.98141686              7.932        0.981190907              7.924        0.186381806            -82.422
               550       0.183892585            -82.303         0.98110213              7.885        0.981780085              7.846        0.185957722            -82.402
               551        0.18359952            -82.368         0.98134461              7.854        0.981570599              7.892        0.185575885            -82.448
               552       0.183350203            -82.333        0.981366878              7.763        0.982045017               7.82        0.185089336            -82.518
               553       0.182719321            -82.408        0.981599823              7.775        0.981825871              7.771        0.184622434            -82.558
               554       0.182127518            -82.399        0.981127774              7.788         0.98225799              7.795        0.184088038            -82.516
               555        0.18191455            -82.396        0.981109401              7.729        0.982352686              7.731        0.183893948            -82.606
               556       0.181614614             -82.46        0.981636712               7.72         0.98220195              7.669        0.183590748              -82.6
               557       0.181300865             -82.43         0.98163464              7.657        0.982539175              7.659        0.183020558            -82.661
               558       0.180761143            -82.526          0.9816464              7.624        0.982550946              7.691        0.182475717            -82.664
               559       0.180258987            -82.509        0.982193207              7.629        0.982193207              7.637        0.182241351            -82.685
               560       0.180017394             -82.59        0.982119807              7.598        0.982459078              7.595        0.181745836            -82.737
               561       0.179547974            -82.619        0.981929955              7.619        0.982382254              7.592        0.181564321            -82.765
               562       0.179000486            -82.653        0.982322767              7.543        0.982548981              7.501        0.180760781            -82.856
               563       0.178672867            -82.677        0.982219621              7.517         0.98233271              7.514        0.180783423            -82.903
               564        0.17820983            -82.679        0.982271753              7.449        0.982611076              7.509        0.180439517            -82.816
               565       0.178027919            -82.654        0.982625692              7.471        0.982738828              7.444        0.179820051             -82.91
               566       0.177861106            -82.694        0.981931039              7.415        0.983288565              7.448        0.179527502            -82.888
               567       0.177203075             -82.71        0.982926977              7.373        0.982700676              7.393        0.179131208            -82.947
               568       0.176724243            -82.844        0.982304493              7.346        0.982870116               7.37        0.178729455            -83.118
               569       0.176161544            -82.833        0.982564587              7.327        0.982904011               7.33        0.178427219            -83.039
               570       0.175915738            -82.903        0.982550081              7.305        0.982776347              7.308        0.178383506            -83.035
               571       0.175709158             -82.87        0.982866193                7.3        0.982979356              7.324        0.177641486            -83.102
               572       0.175073683            -82.906        0.983492082              7.262        0.982586669              7.259        0.177080552            -83.049
               573       0.174956835            -82.987        0.982948836              7.191        0.983062008              7.277        0.177023496            -83.133
               574       0.174399281            -82.942        0.983319587               7.22        0.983093196              7.225         0.17641873            -83.117
               575       0.173876436            -83.051        0.982857894              7.161        0.983310621              7.204         0.17617356             -83.16
               576       0.173891757            -82.978        0.983170854              7.127        0.983623725              7.131        0.175662474            -83.273
               577       0.173408841            -83.038        0.983379692                7.1        0.983266483              7.149        0.175416821            -83.292
               578       0.173099649            -83.101        0.983322977              7.049        0.983549421              7.108        0.175104048            -83.259
               579       0.172494762            -83.067        0.983503506              7.084        0.983729992              7.056          0.1744319            -83.267
               580       0.172204688            -83.055        0.983093828              7.016        0.983886427              7.054        0.174379316            -83.353
               581       0.171817681            -83.103        0.983485256              7.011        0.983372034              7.051         0.17410765            -83.461
               582       0.171392742            -83.196        0.983654144              6.964        0.983654144              6.995        0.173497182            -83.409
               583       0.170974809            -83.137        0.983291145              6.951        0.984197206              6.947        0.173054194            -83.434
               584        0.17050187            -83.199        0.983737317              6.947         0.98385058              6.969        0.172615244            -83.463
               585       0.170539165            -83.137        0.984065784              6.903        0.984179085              6.899        0.172275743            -83.473
               586       0.169916075            -83.297        0.984202505              6.877        0.983522877              6.895        0.172002384            -83.516
               587       0.169587882            -83.282        0.983772815              6.854        0.984225963              6.825        0.171492376            -83.654
               588       0.169142807            -83.316        0.984359037              6.853        0.983679301              6.803        0.171298489            -83.552
               589       0.168885713             -83.29        0.983768499               6.79        0.984561642              6.809        0.170801984            -83.632
               590       0.168617512            -83.295        0.984357095              6.731         0.98447043              6.805        0.170295305            -83.663
               591       0.168119931            -83.452        0.984167915              6.735        0.984394554              6.748        0.170027513             -83.67
               592       0.167841201            -83.402        0.984347809              6.699        0.984574489              6.729        0.169647935            -83.688
               593       0.167344625            -83.444        0.984264378              6.675        0.984377702              6.746        0.169438371            -83.753
               594       0.166924253            -83.463         0.98428177              6.631        0.984735153              6.748         0.16889603            -83.695
               595       0.166675216            -83.558        0.984512027               6.65        0.984512027              6.645        0.168585814            -83.777
               596        0.16643173            -83.465        0.984206271              6.627        0.984886371              6.599        0.168397689            -83.874
               597       0.165869935            -83.443        0.985071321              6.616        0.984051155              6.573        0.168158055            -83.759
               598       0.165804498            -83.448        0.984569339              6.612         0.98524969              6.584        0.167531434            -83.751
               599       0.165472265            -83.537        0.984861615              6.549        0.984975007              6.513        0.167292015            -83.863
               600       0.164436064            -83.584        0.984344396              6.544        0.984911193              6.526        0.166934874            -83.931
               601       0.164522506            -83.712        0.984975245              6.455        0.985088651              6.479        0.166178684            -83.949
               602       0.164063724            -83.606        0.985059731              6.493         0.98437951              6.449        0.166403542            -84.083
               603       0.163850708             -83.66        0.985140836              6.468        0.984800639              6.411         0.16588164             -84.05
               604       0.163598882            -83.788        0.985326882              6.411        0.984646477              6.406        0.165607626            -83.989
               605        0.16318515            -83.658        0.985100719              6.385        0.985441019              6.366         0.16503674            -84.064
               606       0.162756964            -83.849        0.985007595              6.346        0.985461312              6.351        0.164584745            -84.051
               607       0.162491456            -83.865        0.984873677              6.366        0.985327333              6.339        0.164505541            -84.126
               608       0.161782475            -83.849        0.984762439              6.285        0.985442923              6.306        0.164127546            -84.193
               609       0.161501331             -83.79        0.985090443              6.282        0.985317295              6.266        0.163842326            -84.275
               610       0.161172056            -83.906        0.984894579              6.251        0.985348244              6.252        0.163621265            -84.289
               611       0.161005808            -83.893         0.98535232              6.228        0.985579231              6.228        0.162907674            -84.296
               612       0.160585771             -83.83        0.985841422              6.194         0.98538753              6.211        0.162557519            -84.267
