!{201R07S1R9}
!Johanson Technology Inc.
!www.johansontechnology.com
!Test Board Conditions:
!Substrate Type  RO4350B
!Substrate Thickness        10 mil
!Substrate Dk      3.66
!TL Type: GCPW 
!TL Trace Width  21 mil
!TL Gap  20 mil
!Electrode orientation      Horizontal
!DUT TOPOLOGY	SERIES
!Mounting Pad LxW         16x21 mil
!Agilent Technologies,N5230A,MY45001966,A.07.50.67
!Agilent N5230A: A.07.50.67
! Created Mon Mar  9 16:25:40 2020
# mhz S ma R 50
! 2 Port Network Data from SP1.SP block
! freq  magS11  angS11  magS21  angS21  magS12  angS12  magS22  angS22  
!     
               500       0.875310715            -31.043         0.47759772             58.496        0.479194964             58.597        0.874706281            -31.149
               501       0.875026037            -31.044         0.47865321             58.475         0.47942533             58.596          0.8744218            -31.162
               502       0.874162606            -31.095        0.479062553             58.473        0.480664696             58.487         0.87406197            -31.204
               503       0.874129175            -31.166        0.479706514              58.39        0.481199996             58.429        0.873324443            -31.263
               504       0.873522268            -31.214        0.480699843             58.313        0.482140907              58.41        0.873321155            -31.359
               505       0.873221231            -31.262         0.48158648             58.239        0.482696652             58.339        0.872316899            -31.393
               506       0.873264523            -31.368        0.482220664               58.2        0.483443602              58.27        0.871858121            -31.457
               507       0.872296078            -31.362         0.48318553             58.171        0.484020683             58.244        0.871894464            -31.476
               508       0.872066233            -31.385        0.484060306             58.126        0.484785332             58.228        0.871564376            -31.556
               509       0.871264462             -31.53        0.484897561             58.029        0.485009226             58.095        0.870763066            -31.591
               510       0.871091467            -31.538        0.485471522             58.007        0.486310626             58.053        0.870590171            -31.663
               511       0.870518316            -31.571        0.485878759             57.958        0.486942761             58.026          0.8704181            -31.689
               512       0.870101541            -31.645        0.486485542             57.859         0.48800013             57.978        0.869700937            -31.754
               513       0.869747787            -31.697        0.487296545             57.832        0.488701118             57.927        0.869547543            -31.817
               514        0.86919708            -31.781        0.488391682             57.775        0.489123196             57.847        0.869397243            -31.871
               515       0.869117341            -31.842        0.489078324               57.7        0.489923662             57.794        0.868917243            -31.974
               516       0.868402725            -31.841        0.489689935             57.691        0.490988339             57.766        0.868502709            -32.003
               517       0.867720119             -31.95        0.490602398             57.592        0.491620141             57.679        0.867919942            -32.026
               518       0.867776449            -31.987        0.491482275             57.558        0.492331768              57.65        0.867277061            -32.089
               519        0.86768661            -32.025        0.492054146             57.515        0.492734414             57.586        0.866488684            -32.131
               520       0.866685122            -32.083        0.492675926             57.473        0.493811661             57.523        0.866884707            -32.215
               521       0.866202586            -32.182        0.493309496             57.383          0.4947314              57.47        0.866102866            -32.223
               522       0.865829203             -32.19        0.494518143             57.355        0.494973821             57.447         0.86602859             -32.29
               523       0.865562605            -32.259        0.494935363             57.306        0.496190546             57.359         0.86516409            -32.354
               524        0.86483594             -32.29        0.496173687              57.25         0.49651655             57.336        0.865234304            -32.413
               525       0.864433586            -32.382        0.496399839             57.185        0.497716035             57.248        0.864732203            -32.484
               526       0.864407092            -32.427         0.49707088              57.11        0.498331478             57.204        0.863710743            -32.525
               527       0.863769328            -32.434        0.497619945             57.119        0.499284149             57.156        0.863868779            -32.613
               528       0.863099353            -32.551        0.498954325             57.024        0.499701659             57.081        0.863496917            -32.637
               529       0.863410774            -32.527        0.499306781             56.994         0.50034258             57.065        0.862119491            -32.674
               530       0.862958373            -32.601        0.500080416             56.964         0.50129093             56.996        0.861866195            -32.734
               531       0.861923404             -32.72         0.50086268             56.868        0.502075088             56.922        0.862121892            -32.787
               532       0.861451689            -32.698        0.501569278             56.814        0.502609771             56.899        0.861650069            -32.856
               533       0.861145136            -32.753        0.502546616             56.722        0.503183455             56.874        0.861145136            -32.921
               534       0.860597341            -32.833        0.503442644              56.69         0.50379053             56.811        0.860993752            -32.963
               535       0.860372809            -32.869        0.503891087             56.706        0.504820144             56.754        0.860372809            -32.971
               536       0.859913706            -32.922        0.504434604             56.629        0.505597445             56.666        0.859913706            -33.073
               537       0.858958528            -32.954        0.505326642             56.543        0.506258346             56.641        0.859849011            -33.144
               538       0.859308304            -33.038        0.506173039             56.492        0.506872826             56.616        0.858912669            -33.156
               539       0.858848699            -33.085        0.506426779              56.47        0.507594213             56.516        0.858552115            -33.213
               540       0.858293494            -33.151        0.507149288             56.416        0.508493985              56.46        0.858293494            -33.279
               541        0.85821915            -33.151        0.508157338             56.358        0.509152876             56.469        0.857429065            -33.332
               542       0.857625862             -33.24        0.509152487             56.303        0.509328372               56.4        0.857231002            -33.339
               543       0.856771931            -33.267        0.509407377              56.24         0.51046413              56.34        0.857067901            -33.426
               544       0.856612099            -33.368        0.510486433             56.158        0.511133333             56.256        0.856217706            -33.488
               545       0.856451621            -33.385        0.510978745             56.115         0.51192087              56.18        0.855170745            -33.562
               546       0.855526921             -33.47        0.511780436             56.045        0.512724039             56.138         0.85542843            -33.605
               547       0.855369311              -33.5        0.512511559             56.003        0.513279199             56.101        0.854975489            -33.671
               548       0.854430664            -33.532        0.513188394             55.989        0.514016223             56.074        0.855021088            -33.679
               549       0.854932199            -33.597        0.514140333             55.926        0.514851135             56.042         0.85385018            -33.764
               550       0.853958493            -33.709        0.514797895             55.827        0.515390919             55.955        0.854056814            -33.817
               551       0.853557565            -33.743        0.515623635             55.809         0.51609876             55.908         0.85365584            -33.861
               552       0.852663796            -33.743        0.515855213             55.774        0.517342102              55.89        0.853252999            -33.897
               553        0.85258568            -33.865        0.517056538              55.67        0.517532984             55.838        0.852683843            -33.926
               554       0.852755343            -33.866        0.517338083             55.637        0.518172606              55.78        0.851872207            -34.022
               555       0.852231302            -34.006         0.51809271             55.607        0.519227255             55.634        0.851348708            -34.072
               556       0.851691869            -33.974        0.518719412             55.518         0.51985533             55.648        0.851103744            -34.172
               557       0.850992482            -34.026        0.519548055             55.542        0.520565909             55.597        0.850894513            -34.144
               558       0.850335394            -34.097        0.519924468             55.407        0.521363059             55.551        0.850237501            -34.199
               559       0.850048552            -34.119        0.521187189             55.357         0.52184765             55.494        0.849657181            -34.291
               560       0.849863326            -34.189        0.521613819             55.328        0.522996868             55.478        0.849178693            -34.322
               561       0.849576623            -34.221         0.52288063             55.305        0.523121481             55.398        0.848599075            -34.376
               562       0.848644579            -34.288        0.523450768             55.248        0.523691882             55.329        0.848840009            -34.426
               563       0.848125852            -34.356        0.523673143             55.205         0.52475949             55.269        0.848516519            -34.471
               564       0.848090598            -34.365        0.524314959             55.162         0.52546313             55.256        0.847700128            -34.518
               565       0.847866701            -34.442        0.525203461             55.096        0.526111239             55.176        0.847086147              -34.6
               566       0.847333604            -34.529        0.526386122             55.016         0.52656796             55.086        0.846651009            -34.678
               567       0.846862741            -34.584        0.526699645             54.955        0.527245675             55.061        0.846277951            -34.686
               568       0.846114059            -34.608        0.527507831             54.919        0.528115497             55.038        0.846308907            -34.755
               569       0.845978759            -34.652        0.527909477             54.837        0.528821932             54.992        0.845394579            -34.809
               570       0.845587983            -34.696        0.529247484             54.796        0.529186556             54.904        0.844809526            -34.898
               571       0.844500673            -34.711        0.529785417             54.769         0.52996843             54.882        0.844889669            -34.923
               572       0.844808832            -34.785        0.530039756             54.716        0.530894768             54.801        0.843836769            -34.985
               573       0.844162477            -34.848        0.531038544             54.643        0.531221989             54.755        0.843870964            -35.048
               574       0.843536796            -34.934         0.53162333             54.617        0.532419596             54.673        0.843439686            -35.084
               575       0.843185698            -34.983        0.532504438             54.522         0.53281106             54.631        0.842894522            -35.157
               576       0.842222281            -34.999         0.53312215              54.49        0.533551969             54.651        0.843095413            -35.173
               577       0.842335924            -35.057        0.533869761              54.49          0.5343617              54.53        0.841948103            -35.225
               578       0.841648494            -35.088        0.534602211             54.439        0.535033223             54.536        0.842133125            -35.282
               579       0.841248318            -35.136        0.534901984             54.392        0.535703161             54.465        0.841538925            -35.315
               580       0.841258436            -35.215         0.53583297             54.315        0.536326718             54.414        0.840483965             -35.36
               581       0.840607169             -35.25          0.5362201             54.289        0.537023251             54.333        0.840123416            -35.398
               582       0.840261787            -35.311        0.536988041             54.218        0.537420976             54.282        0.839681555            -35.451
               583       0.839622788            -35.393        0.537816618             54.188        0.538498152              54.19         0.83942948            -35.527
               584       0.839012308             -35.41        0.538168571              54.14        0.539160828             54.194        0.839688745            -35.598
               585       0.838142193            -35.484        0.539160049              54.08        0.539843285             54.096        0.839300929            -35.667
               586       0.838075695            -35.497        0.539986927             53.982        0.540173464             54.111        0.838654817            -35.724
               587       0.837784188            -35.593        0.540607615             53.971        0.541105763             54.011        0.837784188            -35.721
               588       0.836950937            -35.612        0.541564265              53.87        0.541252606             53.974         0.83724006            -35.816
               589       0.837046105            -35.655        0.542187349             53.849         0.54193772             53.977        0.837142479            -35.833
               590       0.836262509            -35.768        0.542740996             53.791        0.542928484             53.831        0.836840379            -35.919
               591       0.836543669            -35.818        0.543236093             53.749        0.543674066             53.831        0.836062254            -35.945
               592       0.835664446            -35.804        0.543853496             53.757        0.544542681             53.771        0.835856887                -36
               593       0.835392442            -35.876        0.544804319              53.67         0.54499252             53.721        0.835103958            -36.049
               594       0.835363797            -35.907         0.54522486             53.622        0.545727262              53.69        0.834594752            -36.129
               595       0.834353323            -35.961        0.545506588             53.538        0.546512375             53.673        0.833393291            -36.144
               596       0.833969178            -36.041        0.546323648             53.485        0.547267931             53.602        0.833777171            -36.181
               597       0.833683575            -36.085        0.547647671             53.449        0.547584625             53.552        0.833491634            -36.256
               598       0.832721926             -36.13        0.548276965             53.379        0.548213846             53.443        0.833201417            -36.359
               599       0.832645432            -36.217        0.548542276             53.333        0.549174172             53.393          0.8327413            -36.388
               600       0.832201948            -36.198        0.549387442             53.351        0.549767076              53.44         0.83248943            -36.367
               601       0.832307374            -36.293        0.550026662             53.236        0.550280017             53.381        0.831732635             -36.46
               602       0.831189407            -36.344        0.550871114             53.178        0.551124858             53.269         0.83147654            -36.556
               603       0.830843558            -36.345        0.551403168             53.168        0.551657157             53.281        0.831034889            -36.538
               604       0.830381677            -36.436        0.552112726             53.092        0.552367042             53.211         0.83066853            -36.606
               605       0.829940423            -36.474        0.552455012             53.065        0.553282479             53.119        0.830227124             -36.69
               606       0.829233238            -36.527        0.553193032             53.007        0.553894052             53.098         0.82980625            -36.693
               607        0.82898369            -36.578        0.553854879             52.943        0.554556737             53.023         0.82927006            -36.789
               608       0.829091503            -36.645        0.554756583             52.896        0.554948222             52.971        0.828232874            -36.817
               609       0.828326813            -36.661        0.555011165             52.822        0.555714488             52.938        0.828136106            -36.887
               610       0.827719528            -36.758        0.556138807             52.789        0.556523107             52.837        0.827814828            -36.959
               611       0.827332384            -36.741        0.556583111             52.802        0.556967718             52.855         0.82742764            -36.927
               612       0.826616578            -36.817        0.557447678             52.728        0.557704451             52.774        0.827187782            -37.022
