!{251R14S160}
!Johanson Technology Inc.
!www.johansontechnology.com
!Test Board Conditions:
!Substrate Type  RO4350B
!Substrate Thickness        20 mil
!Substrate Dk      3.66
!TL Type: GCPW 
!TL Trace Width  36 mil
!TL Gap  12 mil
!Electrode orientation      Horizontal
!DUT TOPOLOGY	SERIES
!Mounting Pad LxW         26x36 mil
! Created Wed Mar 11 15:50:45 2020
# mhz S ma R 50
! 2 Port Network Data from SP1.SP block
! freq  magS11  angS11  magS21  angS21  magS12  angS12  magS22  angS22  
!     
               500       0.180384825            -83.052        0.980957066              6.258         0.98107001              6.207        0.180779841            -83.321
               501        0.17980427            -83.082        0.980957066              6.183        0.981408918               6.16         0.18005285            -83.325
               502        0.17901936            -83.237        0.981295935              6.117        0.981408918              6.116        0.179556032            -83.362
               503        0.17895754            -83.189        0.980618314              6.111        0.981295935              6.081        0.178978144            -83.398
               504       0.178340508            -83.176        0.980392545              6.052        0.981295935              6.044        0.178340508            -83.441
               505       0.177786999            -83.255        0.981295935              6.041        0.981521913              6.017        0.177991802            -83.546
               506       0.177439375            -83.268         0.98107001              6.042        0.981747943              5.967        0.177276023              -83.6
               507       0.176766515            -83.413        0.981634922              5.943        0.981634922              5.928        0.176909029             -83.65
               508       0.176420886             -83.37        0.980844136              5.885        0.981521913              5.913        0.176522472            -83.627
               509       0.176299061            -83.448        0.981182966              5.865        0.982652583               5.88        0.176055663            -83.702
               510        0.17538805            -83.429        0.982087085              5.831        0.981521913              5.853        0.175772124            -83.737
               511       0.174843705            -83.443        0.980957066              5.791        0.981974025              5.816        0.174924242            -83.705
               512       0.174562117            -83.532        0.981860977              5.771        0.981974025              5.768        0.174743086             -83.76
               513       0.174060409            -83.525        0.981747943              5.698        0.982313245              5.685        0.174220799            -83.825
               514       0.173660081            -83.533        0.981974025              5.698        0.982313245              5.719        0.173760077            -83.836
               515       0.173160966            -83.655        0.981408918              5.631         0.98333161              5.657        0.173081241            -83.862
               516       0.172802492            -83.687        0.982200159              5.657        0.982992038              5.661        0.172981636            -83.926
               517       0.172206682            -83.654        0.982200159              5.537        0.982652583              5.614         0.17222651            -84.019
               518       0.172008536            -83.762        0.982539457              5.552        0.982878873              5.533        0.171929342            -83.963
               519       0.171454939             -83.78        0.982087085              5.508        0.982765721              5.529        0.171514168            -83.995
               520       0.171040911            -83.761        0.982652583               5.47        0.982992038              5.496        0.171297096            -84.052
               521       0.170294256            -83.751        0.982200159              5.401        0.982426345               5.46        0.170274651            -84.107
               522       0.169980851            -83.897        0.982878873              5.413        0.982878873              5.431        0.170117895            -84.216
               523        0.16925831            -83.933        0.982200159              5.366        0.982313245               5.35        0.169492311            -84.241
               524       0.169083021            -83.978        0.983444826              5.359        0.982878873              5.361        0.169492311            -84.199
               525       0.168403068            -83.985        0.982539457              5.346        0.982765721              5.257        0.168635886             -84.21
               526       0.168228666            -83.981        0.982426345              5.288        0.983784555              5.272        0.168093144            -84.401
               527       0.167610029            -83.981        0.982539457              5.285        0.982992038              5.235        0.167610029            -84.301
               528       0.167051354            -84.095        0.982992038              5.204        0.983784555              5.204        0.167320826            -84.374
               529       0.167109061            -84.127        0.982992038              5.192        0.984237709              5.174        0.166878351            -84.369
               530         0.1662264            -84.171        0.983444826              5.131        0.983218406              5.134        0.166398727            -84.455
               531       0.166054252            -84.166        0.983784555              5.124        0.983671299              5.123        0.166168998            -84.467
               532       0.165329366            -84.304        0.983897824              5.077        0.983897824              5.042        0.165767734            -84.578
               533       0.164854194             -84.29        0.982878873               5.02        0.983218406               5.01        0.164835215            -84.476
               534       0.164664508            -84.364        0.983558056              4.982         0.98333161              4.978        0.164380388            -84.589
               535       0.164077866            -84.341        0.983784555              4.969        0.983897824              4.956        0.164456105             -84.61
               536       0.163587457             -84.37        0.984237709                4.9        0.982992038              4.971        0.163851341            -84.603
               537       0.162985887            -84.365        0.983558056              4.882        0.983218406              4.927        0.163455674            -84.633
               538       0.162667203            -84.497        0.983671299              4.845        0.984124401              4.844        0.162742132            -84.697
               539       0.162704663            -84.556        0.984577711              4.866        0.984691071              4.789        0.162554876            -84.789
               540         0.1618639            -84.592         0.98435103              4.758        0.984691071              4.781        0.161845266            -84.879
               541       0.161528812            -84.663        0.984804445              4.785        0.984464364              4.764        0.161938458            -84.791
               542       0.161138754            -84.692        0.984691071              4.726        0.985144643              4.729        0.161380107            -84.802
               543       0.160694125            -84.675        0.984917831              4.653         0.98435103              4.704        0.160712627            -84.885
               544       0.159863751            -84.746        0.984011106              4.612        0.985598423              4.641        0.160158503            -84.946
               545       0.159698192            -84.841        0.984804445              4.601        0.984804445              4.613        0.159918976             -84.98
               546       0.159110925            -84.753         0.98435103              4.547        0.984124401              4.586        0.159385937            -84.928
               547       0.158872965            -84.792        0.983671299              4.544        0.985371507              4.564        0.159110925            -85.034
               548        0.15874498            -84.844        0.984011106              4.528        0.984124401              4.523        0.158671892            -84.981
               549       0.158215854            -84.962        0.984691071              4.497        0.984804445              4.507         0.15814301            -85.017
               550       0.157670338            -84.786        0.984691071               4.41        0.985371507              4.473        0.157488918            -85.099
               551       0.157180983            -84.832        0.984577711              4.413         0.98503123              4.432        0.157380166            -85.123
               552       0.156927841            -84.956        0.985144643              4.384        0.985825392              4.419        0.156909775            -85.168
               553       0.156548893            -85.027        0.984804445              4.386        0.984691071              4.352        0.156368763            -85.146
               554       0.156045051            -85.012        0.984917831              4.334        0.985484958              4.359        0.156063018            -85.275
               555       0.155668235            -85.027        0.984917831              4.301        0.986393042              4.316        0.155829616            -85.216
               556       0.155024379             -85.03        0.984804445              4.264        0.985484958              4.264        0.155256575            -85.205
               557       0.154721262            -85.173        0.985484958              4.209        0.985484958              4.223        0.154596622            -85.371
               558       0.154436518            -85.173        0.985711901              4.238        0.984464364              4.193        0.154418738            -85.293
               559       0.153797756            -85.266        0.984917831              4.114        0.986052413              4.173        0.154010383            -85.354
               560       0.153144005            -85.157        0.985711901                4.1        0.986052413              4.081        0.153833174            -85.511
               561       0.153073496            -85.263        0.985144643              4.085        0.985711901              4.128        0.153108746            -85.355
               562       0.152580839            -85.213        0.984804445              4.103        0.985144643              4.045        0.152633548            -85.492
               563       0.152422823            -85.364        0.985484958              3.983        0.986847397              4.034        0.152352646            -85.548
               564       0.151774916            -85.363        0.985598423              3.995        0.986506611              4.014        0.151949754            -85.495
               565       0.151582826            -85.419        0.985484958              3.984        0.985938896              3.954        0.151234195             -85.46
               566       0.151129763            -85.429         0.98503123              3.922        0.986620193              3.921         0.15104279            -85.588
               567       0.150712752            -85.543        0.985825392               3.92        0.985938896              3.902        0.150886366            -85.562
               568       0.150435384            -85.526        0.986620193              3.896        0.986847397              3.896        0.150487352             -85.57
               569       0.149899436            -85.502        0.986620193              3.836        0.986506611              3.809         0.14998575            -85.696
               570       0.149623566            -85.523        0.986620193              3.772        0.986620193              3.836        0.149623566            -85.685
               571       0.148987557            -85.516        0.985484958               3.81        0.986393042              3.755        0.149296628            -85.635
               572       0.148764737            -85.683        0.986165943               3.74        0.985938896              3.766        0.148730487             -85.84
               573         0.1479449            -85.678        0.986393042               3.71        0.985711901                3.7        0.148320097            -85.818
               574       0.147876785            -85.623        0.986620193               3.68        0.986279486              3.685        0.148098275            -85.912
               575       0.147282111            -85.701        0.986279486              3.617        0.986506611              3.635        0.147248202            -85.726
               576       0.147095708             -85.78        0.986393042              3.617        0.985938896              3.614        0.147332989            -85.855
               577        0.14690954            -85.751        0.986620193              3.592        0.987074653              3.593        0.147095708            -85.894
               578       0.146251389            -85.704        0.986733789               3.51        0.987415636              3.594        0.146436722            -85.983
               579       0.146133572            -85.865        0.986847397              3.541        0.987301962              3.538        0.145982232            -85.972
               580       0.145529152            -85.836        0.987756736              3.403        0.986620193              3.491        0.145194445            -86.058
               581        0.14517773            -85.825        0.986733789              3.412        0.987074653              3.433        0.145211162            -86.061
               582       0.144477427            -85.889        0.985711901              3.429        0.986847397              3.416        0.144494062            -86.033
               583       0.144294574            -85.922        0.986733789              3.375        0.986733789              3.405        0.144394283            -86.037
               584       0.143830172            -85.969        0.986052413              3.369        0.986620193              3.386        0.144111952            -86.071
               585       0.143763951            -85.924        0.986620193              3.394        0.986733789              3.325        0.143813614            -86.147
               586       0.143433303            -85.946        0.986733789              3.341        0.987415636              3.334        0.143548943            -86.156
               587       0.143070469            -85.973        0.987188301              3.275        0.986961019              3.308        0.143053998            -86.229
               588       0.142593589            -86.078        0.987415636              3.262        0.987870462              3.269        0.142495123            -86.233
               589       0.142216504            -85.994        0.986847397              3.194        0.986620193              3.228        0.142134662            -86.221
               590       0.141971117            -86.106        0.986733789              3.169        0.987188301              3.163        0.141775112            -86.258
               591       0.141530487            -86.132        0.987415636              3.132        0.987074653              3.194        0.141351363            -86.301
               592       0.141139963            -86.209        0.986961019              3.099        0.987756736              3.082        0.141123715            -86.366
               593       0.140766723            -86.253        0.987301962               3.07        0.988325498              3.106         0.14078293            -86.458
               594       0.140459138            -86.258        0.987643023              3.069        0.987643023              3.065        0.140394469            -86.392
               595       0.139926509            -86.281        0.986847397              3.002        0.987756736              3.017        0.139781598            -86.417
               596       0.139685073            -86.219        0.986961019               3.02        0.987984202              2.977        0.139588616            -86.452
               597         0.1393959            -86.247        0.987301962              2.988        0.987870462              3.021        0.139379852            -86.412
               598       0.138947264            -86.247        0.987643023              2.929        0.988097954              2.958        0.138899282            -86.534
               599       0.138356638            -86.368        0.987756736                2.9        0.987643023              2.913        0.138436305            -86.493
               600       0.138117911            -86.372        0.987643023              2.891        0.988097954              2.889        0.138006646            -86.465
               601       0.137657539            -86.454        0.987984202              2.842         0.98843929              2.872        0.138006646            -86.628
               602       0.137514977            -86.341        0.987756736              2.828         0.98843929              2.857        0.137673388            -86.575
               603       0.136977741            -86.383        0.987643023              2.768        0.987643023              2.825        0.137072395            -86.597
               604       0.136646968            -86.448        0.987643023              2.801        0.988553095              2.726        0.136662701            -86.577
               605       0.136411191            -86.413        0.988325498              2.734        0.989122315              2.743        0.136442604             -86.76
               606       0.136034793            -86.414        0.988325498              2.749        0.989122315               2.72        0.136113123             -86.79
               607        0.13542536            -86.498         0.98843929              2.699        0.988097954              2.662        0.135659434            -86.802
               608        0.13528511            -86.626        0.988666913              2.645        0.988780744              2.645        0.135363009            -86.812
               609       0.134896288            -86.609        0.987984202              2.594        0.988780744              2.645        0.134973963            -86.805
               610       0.134415701             -86.53        0.988894588              2.571        0.987984202              2.592        0.134586035            -86.882
               611       0.134183773            -86.558        0.987984202               2.51        0.988666913              2.589        0.134121994            -86.937
               612       0.133798117            -86.712        0.988211719              2.549         0.98843929              2.526        0.133690331            -87.043
