!{251R15S430}
!Johanson Technology Inc.
!www.johansontechnology.com
!Test Board Conditions:
!Substrate Type  RO4350B
!Substrate Thickness        20 mil
!Substrate Dk      3.66
!TL Type: GCPW 
!TL Trace Width  34 mil
!TL Gap  10 mil
!Electrode orientation      Horizontal
!DUT TOPOLOGY	SERIES
!Mounting Pad LxW         26x52 mil
! Created Thu Mar 12 17:14:08 2020
# mhz S ma R 50
! 2 Port Network Data from SP1.SP block
! freq  magS11  angS11  magS21  angS21  magS12  angS12  magS22  angS22  
!     
               500      0.0647812774            -92.985        0.996780441             -2.705        0.997584074             -2.713       0.0641504205            -93.375
               501      0.0643948712            -93.183        0.997358466             -2.738        0.996784506             -2.724       0.0637898056            -93.647
               502      0.0641624276            -93.086        0.996852235              -2.78        0.997541074             -2.803       0.0637134008            -93.634
               503      0.0637157681            -93.266        0.997348463             -2.802        0.997233646             -2.843       0.0635545902            -93.593
               504      0.0636444547            -93.138        0.997035381             -2.828        0.997609486             -2.844       0.0634542288            -93.582
               505      0.0635700945            -93.089        0.997132466             -2.853        0.997476923             -2.825       0.0631615613            -93.729
               506      0.0631697461            -93.228        0.997261679             -2.881        0.997261679             -2.904       0.0628795074            -93.894
               507      0.0631863105            -93.409        0.997523182             -2.939        0.996834355               -2.9       0.0628091617            -93.768
               508       0.062943144             -93.36         0.99746676             -2.901        0.996777973             -2.923       0.0626323104            -93.962
               509      0.0628211189            -93.658        0.997138919             -2.935        0.997024125             -2.986       0.0624964958            -93.977
               510       0.062610312             -93.28        0.996657337             -2.963        0.997690572             -3.011       0.0621006103            -93.913
               511      0.0625015925            -93.321        0.997220236             -3.005        0.997449881             -3.012       0.0620498996            -93.942
               512      0.0619970643            -93.266        0.997633733             -3.055        0.997174411              -3.03       0.0619613862            -93.987
               513      0.0619189149            -93.326        0.997409125             -3.056        0.997523963             -3.082       0.0616202331            -93.929
               514      0.0616785153            -93.453        0.997548251             -3.074        0.996974181             -3.083       0.0615862714            -94.163
               515       0.061780473            -93.621        0.997013936             -3.113        0.997473183              -3.11       0.0613339915            -94.086
               516      0.0616930539            -93.749        0.997209182             -3.065        0.997209182             -3.153       0.0611696885            -94.078
               517      0.0612501966            -93.437        0.996798756             -3.173        0.997832138             -3.152       0.0609407069            -94.034
               518      0.0609484872            -93.478        0.996926019              -3.16         0.99772977             -3.141       0.0610046487            -94.144
               519      0.0612213292            -93.445        0.997706392             -3.199        0.997361856             -3.149       0.0608418981            -93.923
               520      0.0608170371            -93.535        0.997069102             -3.207        0.997643226             -3.209       0.0604749138            -94.259
               521      0.0605258224            -93.687        0.997678698             -3.235        0.996989764             -3.253       0.0600261791            -94.192
               522      0.0603547517            -93.758        0.997381866             -3.298        0.997381866             -3.262       0.0601674309            -94.313
               523      0.0602755183            -93.497        0.997679281             -3.276        0.997449583             -3.307       0.0600607779            -94.234
               524      0.0600288933            -93.808        0.997379268             -3.299        0.997379268             -3.309       0.0597737271            -94.358
               525      0.0601926605            -93.527        0.996996284             -3.313        0.997800092             -3.283       0.0597232647            -94.316
               526      0.0598072218            -93.499        0.997249045             -3.324        0.997708401             -3.316        0.059354497             -94.43
               527      0.0595651651            -93.797        0.997797359             -3.388        0.996764014             -3.379       0.0591006626            -94.458
               528      0.0593059149            -93.777         0.99735096             -3.411        0.997465791             -3.409       0.0589519276            -94.633
               529      0.0592912791            -93.587        0.997678973             -3.399        0.997678973             -3.452       0.0589373791            -94.317
               530      0.0591037447            -93.719        0.997964283             -3.437        0.996930764             -3.454       0.0586766077            -94.327
               531      0.0587403219            -93.947         0.99732412             -3.463        0.997668643             -3.418       0.0585445298            -94.412
               532      0.0587805314            -93.869        0.997777044             -3.477        0.997088043             -3.522       0.0582885844            -94.577
               533      0.0587828813             -93.79        0.997357527             -3.544        0.997702061             -3.539        0.058203737            -94.621
               534      0.0584315437            -93.787        0.997722716             -3.535        0.997005055              -3.55       0.0577493846            -94.889
               535      0.0580716261            -93.959         0.99799459             -3.554        0.996698919              -3.58       0.0579447358             -94.59
               536      0.0583066215            -93.797        0.997511423             -3.577        0.997626272             -3.584       0.0577521129            -94.725
               537       0.057974563            -93.702        0.997901059             -3.602        0.997326786             -3.652       0.0574232123            -94.741
               538      0.0576241892            -93.806        0.997596296             -3.676        0.997711155             -3.625       0.0571550788            -94.801
               539      0.0573786546            -94.008        0.996897165             -3.632        0.997928465             -3.675       0.0570099107            -94.852
               540      0.0573245612            -94.089        0.997449092             -3.665        0.997563934             -3.709       0.0568775314             -94.95
               541      0.0572187965            -93.863        0.997329623             -3.727        0.997903898             -3.711         0.05673992              -94.9
               542      0.0572457961            -94.016         0.99745566             -3.735        0.997800229             -3.706       0.0568255436            -94.815
               543      0.0568310714            -93.995        0.997667543             -3.759        0.997667543              -3.77        0.056511371            -94.963
               544      0.0568767394            -93.949        0.997779764             -3.808        0.997664897             -3.777       0.0564007257            -94.901
               545      0.0567289982             -93.94        0.997711813             -3.785        0.997711813             -3.774       0.0561377645            -94.893
               546      0.0565923263            -93.935         0.99806206             -3.766        0.997143234             -3.806       0.0562156902            -94.922
               547      0.0562377699            -94.036        0.997764598              -3.82        0.997649733             -3.811       0.0559278457            -95.023
               548      0.0561017925            -94.124        0.997991259             -3.859        0.996957713             -3.875       0.0557348373            -95.224
               549      0.0557208177            -94.114        0.997395676             -3.898        0.997969988             -3.852       0.0554711898            -95.085
               550      0.0557928052            -94.143        0.997994614             -3.917        0.997305462             -3.922       0.0556260469            -95.162
               551      0.0556289266            -94.226        0.997816497             -3.893        0.997586767             -3.933       0.0550174782            -95.035
               552      0.0552884323            -94.466        0.997778807             -3.953        0.997549087             -3.934       0.0551168356            -95.077
               553      0.0552339716            -94.516        0.997484767             -3.964        0.997714473              -3.94       0.0548916483            -95.174
               554      0.0550961434            -94.199        0.997404217             -3.995        0.997792189             -3.992       0.0546413222            -95.549
               555      0.0550215598             -94.29        0.997431082             -4.027        0.997961294              -3.99       0.0545108429            -95.218
               556      0.0550679504            -94.082        0.997697566             -4.008        0.997812436             -4.042       0.0543186431            -95.317
               557      0.0546609467             -94.34        0.996958658             -4.076         0.99810711             -4.034       0.0542034774             -95.38
               558      0.0543699556            -94.256        0.997835563             -4.066        0.997835563             -4.023       0.0538528855            -95.207
               559      0.0541525095             -94.18        0.998087433             -4.097        0.997742765             -4.111       0.0538974958             -95.27
               560      0.0540655398            -94.365        0.997747259              -4.11        0.997862135             -4.105       0.0536624557            -95.366
               561      0.0542085583            -94.435        0.996937327             -4.183        0.998032668              -4.11       0.0534401732             -95.62
               562      0.0538254247            -94.303        0.998130818             -4.187        0.997671268             -4.134       0.0534548931            -95.275
               563      0.0536732763            -94.118        0.997488979             -4.219        0.998178258             -4.201       0.0532608516            -95.621
               564       0.053560402            -94.282        0.998195777             -4.212        0.997341357             -4.199       0.0531978191             -95.54
               565      0.0536125343            -94.336        0.997163417             -4.205        0.998082262             -4.214       0.0528647688            -95.703
               566       0.053262787             -94.44        0.997525226             -4.241         0.99798471             -4.231       0.0527380281            -95.681
               567      0.0529939725            -94.393        0.997760889             -4.252        0.997990658             -4.289       0.0524960318            -95.621
               568       0.053198173            -94.542        0.997462822             -4.262        0.998037173             -4.296        0.052347593            -95.502
               569      0.0527823888            -94.594        0.997904638             -4.313        0.997560034             -4.302       0.0521781938            -95.807
               570      0.0525407694            -94.554        0.997806728             -4.333        0.997921612             -4.334       0.0521490532            -95.725
               571      0.0522742851            -94.598        0.998064255             -4.326        0.997557876             -4.388       0.0520580747            -95.828
               572      0.0522336418            -94.573        0.998181248             -4.439        0.997585911             -4.447       0.0518084151            -95.784
               573      0.0522509624            -94.539        0.998031604             -4.378        0.997686956             -4.409       0.0516231254            -95.802
               574      0.0520717814            -94.636         0.99782053             -4.463        0.998165225             -4.436       0.0514757207            -95.522
               575        0.05211311            -94.922        0.997578295             -4.447        0.997808023             -4.451       0.0512975935            -95.906
               576       0.051760141            -94.738        0.997804482             -4.476        0.997689613             -4.454       0.0512619887            -96.169
               577      0.0514655552            -94.553        0.998263777             -4.526        0.997278974             -4.516       0.0508822916            -96.094
               578      0.0514515006             -94.68        0.997695573             -4.508        0.998155135             -4.491       0.0508332697              -95.8
               579      0.0514476394            -94.833        0.997850439             -4.534        0.997850439             -4.501        0.050829455            -95.953
               580      0.0510287794            -94.669        0.998079603             -4.599        0.997849813             -4.572       0.0507709372            -96.118
               581      0.0508473328            -94.836        0.997971588             -4.617        0.997741823             -4.604       0.0503173983            -96.226
               582      0.0507532917            -94.639        0.997617857             -4.593        0.998307225             -4.592       0.0503285264                -96
               583      0.0506122998            -94.718        0.997828885             -4.624        0.998173583             -4.632       0.0501021164            -96.042
               584      0.0505976475            -94.792        0.997884611             -4.662        0.998229328             -4.673       0.0500876118            -95.908
               585      0.0503790448            -94.972        0.997470198             -4.686        0.998274388             -4.701       0.0498826973            -96.083
               586        0.05045905            -94.831        0.997674954             -4.727        0.998134506             -4.654       0.0498871931            -96.263
               587      0.0501209359            -94.873        0.998228515              -4.74        0.997629245             -4.707       0.0494218697            -96.166
               588      0.0498262301            -94.835        0.998022377              -4.77        0.998092125             -4.718       0.0494206017            -96.222
               589      0.0499027695            -94.923        0.997412137              -4.74        0.998249609             -4.806       0.0491727672            -96.378
               590      0.0495479465            -95.079        0.998103687             -4.813        0.998103687             -4.717        0.049048492             -95.92
               591      0.0495220285              -95.1          0.9980411             -4.779        0.997926203             -4.772       0.0489946237            -96.207
               592      0.0491686121            -95.022        0.997902129             -4.831        0.998192148             -4.814       0.0488357598            -96.301
               593      0.0491662245            -94.728        0.997968561             -4.833        0.998313307             -4.818       0.0486538106            -96.293
               594      0.0489357366            -94.943        0.997989863             -4.859         0.99817636             -4.838       0.0487501695            -96.421
               595      0.0486085644            -95.053        0.998303963             -4.905        0.997844333             -4.908       0.0483852284            -96.422
               596      0.0487191834            -95.039        0.997585206             -4.912        0.998159627             -4.912       0.0482003287            -96.524
               597      0.0484753702            -95.226        0.998484632             -4.899        0.997289243             -4.934       0.0480254159            -96.268
               598      0.0484829984            -95.217         0.99756102              -4.96        0.998250348             -4.957       0.0481326165            -96.696
               599      0.0482481444            -95.378        0.997885277             -4.989        0.998000169             -4.972       0.0479104903            -96.686
               600      0.0482640509            -95.246         0.99786955             -4.994        0.998099344             -4.937       0.0476841198            -96.608
               601      0.0480197637             -95.15        0.997171869             -5.014        0.998452407             -5.072       0.0473282033            -96.754
               602      0.0478774376            -95.389        0.998000822             -5.055        0.998000822             -5.026       0.0472096629            -96.622
               603      0.0476565537            -95.171         0.99694829             -5.049        0.998595909             -5.046        0.047132734            -96.579
               604      0.0476614542            -95.186        0.998423717             -5.103        0.997739782             -5.054       0.0470887637            -96.561
               605      0.0472547188            -95.208        0.997730465             -5.096        0.998409359             -5.097       0.0469402268            -96.759
               606      0.0475054293            -95.376        0.997340022             -5.104        0.998369252             -5.151       0.0467028353            -96.831
               607      0.0471047359            -95.303        0.998078207             -5.141        0.998205878              -5.12       0.0465869816            -96.697
               608      0.0473178531            -95.419        0.998102244             -5.172        0.997987339             -5.139       0.0466793749            -96.806
               609      0.0470768332            -95.214        0.997372159             -5.167         0.99852534             -5.133       0.0463561373            -96.742
               610      0.0466722634            -95.463        0.998179997             -5.144        0.998294923             -5.217       0.0462869818            -96.502
               611      0.0468472255             -95.36        0.998237487             -5.236        0.998007661             -5.193       0.0462736625            -96.864
               612       0.046377542            -95.536        0.998292313             -5.245        0.998062474             -5.247       0.0461060298            -96.767
