!{251R15S1R1}
!Johanson Technology Inc.
!www.johansontechnology.com
!Test Board Conditions:
!Substrate Type  RO4350B
!Substrate Thickness        20 mil
!Substrate Dk      3.66
!TL Type: GCPW 
!TL Trace Width  34 mil
!TL Gap  10 mil
!Electrode orientation      Horizontal
!DUT TOPOLOGY	SERIES
!Mounting Pad LxW         26x52 mil
! Created Thu Mar 12 16:31:56 2020
# mhz S ma R 50
! 2 Port Network Data from SP1.SP block
! freq  magS11  angS11  magS21  angS21  magS12  angS12  magS22  angS22  
!     
               500       0.954988193            -24.128        0.294813931             65.987        0.295629659              66.04        0.953120921            -24.181
               501       0.954865751            -24.212        0.295455661             65.849        0.296307276             65.953        0.953327929            -24.238
               502        0.95462667            -24.281         0.29606261              65.77        0.296779271             65.911        0.953418476            -24.319
               503       0.954514212            -24.284         0.29630051             65.761        0.297257211             65.891        0.952867247            -24.358
               504       0.954440867            -24.319        0.296926546             65.714          0.2977824             65.889        0.951807289            -24.375
               505       0.954282746            -24.386        0.297664519             65.639         0.29831636             65.775        0.952197576            -24.459
               506       0.953907294            -24.435        0.298267662             65.674         0.29898966             65.744        0.952480667            -24.463
               507       0.953978385            -24.471        0.298874274             65.552        0.299253015             65.711        0.951784296            -24.527
               508       0.953574296            -24.524        0.299229589             65.553        0.299953916              65.69        0.952367433            -24.543
               509       0.953525526            -24.532        0.299662448              65.52        0.300491591             65.625        0.951661113            -24.619
               510       0.953194127            -24.586         0.30045633             65.459        0.301079619             65.594        0.952316607            -24.648
               511        0.95324586            -24.622        0.300611041             65.439        0.301546941             65.533        0.950834492            -24.698
               512       0.953110171            -24.684         0.30122645             65.367        0.302025147             65.499        0.950261434            -24.749
               513       0.952864794            -24.704        0.301634686             65.311        0.302643451             65.464        0.951001673            -24.798
               514       0.952651015            -24.838        0.302296998             65.237        0.303133431             65.348         0.95111676            -24.868
               515       0.952389408            -24.806        0.302980415             65.263        0.303713822             65.397        0.950636656            -24.887
               516       0.952256155            -24.908        0.303426696             65.184        0.304336323             65.241        0.950722536            -24.962
               517       0.952148224             -24.92        0.304231768             65.122        0.304652371             65.246        0.950614779            -25.009
               518       0.951960108            -25.018        0.304697401             65.046        0.305294338             65.181        0.950098756            -25.069
               519       0.951723124            -25.013        0.305148066             65.051        0.305886719             65.186        0.950299764            -25.057
               520       0.951560847            -25.059        0.305658561             65.016        0.306257381             65.125        0.950247125            -25.119
               521       0.951392736            -25.094        0.306344319             64.996        0.306697214             65.067        0.950079246            -25.169
               522       0.951316017            -25.145         0.30656658             64.955        0.307556428             64.998        0.948691062            -25.207
               523       0.951176843            -25.237        0.307122241              64.82        0.307865673             65.015        0.949207735            -25.221
               524        0.95098858            -25.278        0.307556777             64.806        0.308478785             64.879        0.948582922             -25.35
               525       0.950803787             -25.29        0.308028501             64.759        0.309165413             64.898        0.948180245            -25.348
               526       0.950391393            -25.321        0.308924601             64.757        0.309636746             64.887        0.948860777            -25.409
               527       0.950418044            -25.356        0.309324752             64.704        0.310002126             64.808        0.948341318            -25.469
               528       0.950130821            -25.463        0.309908442             64.641        0.310694386             64.705        0.948819073            -25.501
               529       0.950076729            -25.475        0.310390686             64.589         0.31114203             64.724        0.947891613            -25.537
               530       0.949765807             -25.53        0.310789638             64.568         0.31182902             64.676        0.947908746            -25.577
               531       0.949765505            -25.561        0.311541848             64.516        0.312044399             64.612        0.947472016            -25.643
               532       0.949494785            -25.632        0.312099148             64.401        0.312674586             64.594        0.947638254            -25.717
               533       0.949380557            -25.646        0.312708966             64.388        0.313285528             64.531        0.947306099            -25.742
               534       0.949010289            -25.716        0.313127291             64.346        0.313849124             64.477        0.947918329            -25.787
               535       0.948847091            -25.731        0.313650678             64.373        0.314446113             64.438        0.947537115            -25.789
               536       0.948903058            -25.789        0.314030511             64.223        0.314826909               64.4        0.946284761            -25.907
               537       0.948570169            -25.862        0.314752699             64.224         0.31558726              64.32        0.947042486            -25.891
               538       0.948192609            -25.901        0.315280104             64.196        0.316079672             64.277        0.947210635            -25.972
               539       0.948363856            -25.927           0.315773             64.123        0.316428064             64.234        0.946182679            -26.012
               540        0.94821348            -25.963        0.316341468             64.102        0.316961217             64.171        0.945379379            -26.068
               541       0.947886856            -26.036        0.316888516             64.065        0.317472784             64.153        0.946033468            -26.093
               542       0.947852224            -26.075        0.317278493             63.998        0.317790297             64.149        0.945019203            -26.134
               543       0.947463627            -26.126        0.318135802             63.943        0.318575627             64.059        0.946264498            -26.188
               544       0.947359821            -26.174        0.318174201             63.937        0.319238279             64.007        0.945180954            -26.217
               545       0.947187561            -26.185         0.31899655             63.805          0.3196583             64.015        0.945553238            -26.307
               546       0.947103159            -26.235        0.319372329             63.785        0.320034859             63.962        0.944381096             -26.37
               547       0.946659631            -26.305        0.320290352             63.744        0.320880893             63.896        0.945788126             -26.35
               548       0.946681401            -26.374        0.320555952             63.704        0.321220937             63.833        0.944721599             -26.41
               549       0.946465217            -26.372        0.320814994             63.686        0.321665629             63.822        0.944179699            -26.502
               550       0.946342272            -26.466        0.321549797              63.64        0.322328153             63.729         0.94405705            -26.485
               551       0.946176217            -26.508        0.322123217             63.567        0.322642837             63.672        0.943782733            -26.605
               552       0.945909728            -26.561         0.32266339             63.557        0.323332747              63.68        0.943842854            -26.557
               553        0.94577907            -26.596         0.32313924             63.436        0.323884153             63.621        0.943495209            -26.684
               554       0.945504614            -26.632        0.323976607             63.443        0.324200479             63.565        0.943873195            -26.719
               555       0.945407081            -26.709        0.324428389             63.352        0.324951728             63.502        0.943667179            -26.737
               556       0.945299436            -26.747         0.32450351             63.327        0.325438852             63.478        0.942365544            -26.787
               557       0.944823337             -26.73        0.325424774             63.312        0.326174956             63.505        0.943410297             -26.81
               558       0.945014088            -26.864        0.325752894             63.202         0.32642866             63.323        0.941972627            -26.902
               559       0.944518355            -26.828        0.326445286              63.25        0.326971878             63.346        0.942997197            -26.951
               560       0.944309354             -26.89        0.326899527             63.233         0.32746455             63.308        0.942571473             -26.98
               561       0.944357053            -26.941        0.327141943             63.138        0.328084889             63.234        0.941426087            -27.042
               562       0.944014216            -26.991        0.328079077             63.081         0.32845701             63.222        0.942493871            -27.069
               563       0.944064913            -27.015        0.328285618             62.996        0.329193959             63.109        0.941243212            -27.162
               564       0.943825807            -27.095        0.328845458             63.003         0.32956558             63.105        0.941438269            -27.127
               565       0.943506872            -27.132        0.329568024             62.937        0.330023654             63.097        0.941662049            -27.205
               566       0.943369582            -27.196        0.329937644             62.901        0.330736304             62.992        0.941199892            -27.256
               567       0.943278169            -27.223        0.330551996             62.847        0.330932777              62.99        0.941000347            -27.287
               568       0.943118951            -27.268        0.330953114             62.789        0.331716039             62.903        0.940300077             -27.36
               569       0.942926045             -27.31        0.331686375             62.706        0.332106696             62.869        0.940649073            -27.429
               570       0.942536943            -27.362        0.332122564             62.728        0.332811544             62.822        0.940694016            -27.459
               571       0.942471684            -27.442        0.332443856             62.619        0.333248583             62.776        0.940412322            -27.506
               572       0.942326785            -27.494        0.332967263             62.617        0.333696411             62.701         0.93983483            -27.547
               573       0.942041514            -27.494        0.333902785             62.574        0.334248943             62.681        0.940307807            -27.594
               574       0.941823143            -27.529          0.3342869             62.511        0.334941806              62.63        0.940306326            -27.654
               575       0.941734181            -27.596        0.334486299             62.461        0.335334575             62.614        0.939135665            -27.702
               576       0.941506156            -27.561        0.335446422             62.482        0.335600936             62.632        0.939881635            -27.673
               577       0.940933449            -27.714        0.335899152             62.388         0.33647973             62.484        0.940283699            -27.786
               578       0.941214891            -27.722        0.336309232             62.346        0.336735411             62.466        0.938833957            -27.819
               579       0.940746004            -27.786        0.337149393             62.334        0.337460062              62.35        0.939771742            -27.869
               580       0.940775832            -27.824        0.337470762             62.217        0.337820618             62.384        0.939152572            -27.903
               581       0.940644483            -27.844        0.337851236             62.245        0.338318318             62.301        0.938264992            -27.965
               582        0.94017692            -27.867        0.338383818              62.17        0.339202923             62.285        0.939203248            -28.001
               583         0.9401849            -27.979        0.339010596             62.092        0.339440198             62.222        0.938130535            -28.069
               584       0.939961566             -27.96        0.339672272             62.094        0.339672272             62.208         0.93833971            -28.107
               585       0.939961501             -28.04         0.34018101             62.031        0.340141848             62.125        0.937259965            -28.144
               586       0.939811907            -28.071        0.340283541             62.037        0.340636313             62.081        0.936787189            -28.182
               587        0.93954545            -28.154         0.34116761              61.92        0.341285466             62.033        0.937384555            -28.224
               588       0.939111417            -28.167        0.341638747             61.963         0.34207168             61.975        0.937706919            -28.261
               589       0.939099855            -28.215        0.341949343             61.876        0.342303842             61.988        0.936832123            -28.311
               590       0.939041768            -28.255        0.342440333             61.805        0.342834809             61.905        0.936450682            -28.372
               591       0.938736529            -28.299        0.343157676             61.774        0.343513428             61.854        0.936685329            -28.411
               592       0.938455865            -28.371        0.343529354             61.695        0.344241997             61.822        0.936728757            -28.449
               593        0.93839062            -28.397        0.344495583             61.654        0.344297333              61.76        0.936663632            -28.491
               594       0.938003714            -28.459        0.344750225             61.615        0.345147362             61.666        0.936924418            -28.586
               595       0.937879547            -28.499        0.345141407             61.579        0.345618567             61.694        0.936045727            -28.596
               596       0.937856677            -28.508        0.345809146             61.577        0.345848961             61.578        0.935484239            -28.676
               597       0.937657464            -28.614        0.346333271             61.477        0.346333271             61.568        0.935500912            -28.676
               598       0.937336115            -28.617        0.346812986             61.446        0.347052638             61.532        0.935826524            -28.743
               599       0.937081127            -28.673         0.34731792             61.451         0.34751791             61.494        0.935679665            -28.743
               600       0.937027421             -28.71        0.347898295             61.392        0.347778156              61.47        0.934764693            -28.802
               601        0.93669816            -28.694         0.34825685             61.313        0.348698169             61.426        0.935404957            -28.907
               602       0.936419599            -28.814        0.348996037             61.289        0.349116596              61.36        0.935126781            -28.909
               603       0.936441125            -28.864        0.349406096             61.225        0.349325652             61.309         0.93428737            -28.977
               604       0.936239805            -28.898         0.34977366             61.192        0.350055658             61.258        0.934301619            -29.009
               605       0.936092363             -28.97        0.350202065             61.136        0.350484408             61.187        0.934046941            -29.064
               606       0.935735295            -28.998        0.350713926             61.081        0.351239225             61.212        0.934013193            -29.089
               607       0.935532604            -29.026        0.351405802             61.035        0.351608145              61.13        0.934563741            -29.137
               608       0.935534976            -29.108        0.352014075                 61         0.35197355             61.029        0.933060981            -29.213
               609        0.93523383            -29.118        0.352508999             60.996        0.352630772              61.05        0.933297727            -29.197
               610       0.935107888            -29.145        0.352948809             60.906        0.352989446             60.989        0.933386941            -29.297
               611       0.934766455            -29.225        0.353470455             60.887        0.353714708             60.962        0.933261003            -29.289
               612       0.934612137            -29.256         0.35402295             60.851        0.354308374             60.876        0.933106933            -29.353
