!{201R07S2R1}
!Johanson Technology Inc.
!www.johansontechnology.com
!Test Board Conditions:
!Substrate Type  RO4350B
!Substrate Thickness        10 mil
!Substrate Dk      3.66
!TL Type: GCPW 
!TL Trace Width  21 mil
!TL Gap  20 mil
!Electrode orientation      Horizontal
!DUT TOPOLOGY	SERIES
!Mounting Pad LxW         16x21 mil
!Agilent Technologies,N5230A,MY45001966,A.07.50.67
!Agilent N5230A: A.07.50.67
! Created Mon Mar  9 16:26:36 2020
# mhz S ma R 50
! 2 Port Network Data from SP1.SP block
! freq  magS11  angS11  magS21  angS21  magS12  angS12  magS22  angS22  
!     
               500       0.853887801            -34.324        0.513571375             55.115        0.515051681             55.163        0.854773027            -34.703
               501       0.854062764            -34.365        0.514564461             55.111        0.515631912             55.135        0.854161097            -34.731
               502       0.852805515            -34.403         0.51516933             55.021        0.516238036             55.152         0.85388621            -34.794
               503        0.85329657            -34.462        0.515822165             54.977        0.517189858             55.041        0.853100114            -34.869
               504       0.852903703            -34.539        0.516654243             54.914        0.517785638             55.009        0.852707337            -34.897
               505       0.852118511            -34.584        0.517487662             54.819         0.51850148             54.961        0.852216621            -34.992
               506       0.851824251             -34.68        0.518083785             54.787        0.519457475             54.853        0.851726187            -35.024
               507       0.851781969            -34.707        0.518774287             54.737        0.520329492             54.835        0.850899841            -35.077
               508       0.850844116            -34.756         0.51963692             54.673        0.520415233             54.737        0.850550296            -35.182
               509       0.850256577            -34.799        0.520235519             54.624        0.521614914             54.736        0.850354472             -35.19
               510       0.849965687            -34.855        0.521196384             54.596        0.522458012             54.657        0.850161421            -35.256
               511       0.849358741            -34.922        0.522145044              54.49        0.522686352             54.624        0.850043519            -35.317
               512       0.849249209            -34.968        0.523100519             54.465        0.523582535             54.541        0.849249209            -35.399
               513       0.848565597            -35.066        0.523763729             54.402        0.524246356              54.44        0.849054211            -35.462
               514       0.848496392            -35.112        0.523781313             54.383        0.524988754             54.398         0.84732496            -35.478
               515       0.847422518            -35.132        0.524565833             54.293          0.5261384             54.406         0.84781286            -35.547
               516       0.847227414            -35.209        0.525593517             54.234        0.526380752             54.325        0.847129879            -35.559
               517       0.846743521            -35.254        0.526261843             54.163        0.527657217             54.275        0.846938514            -35.669
               518       0.845960334            -35.334        0.526926451             54.124         0.52789798             54.197        0.845862945            -35.677
               519         0.8456682            -35.387        0.527472716             54.048          0.5288713             54.173        0.845765567            -35.748
               520       0.845376167            -35.396        0.528445252             54.019        0.529236758             54.106        0.844695149            -35.829
               521       0.844792404            -35.537        0.529480536             53.951        0.530456774             53.975        0.844695149            -35.891
               522       0.843917514            -35.546        0.530029449             53.911        0.531128982             53.961        0.844695149            -35.934
               523       0.843812033            -35.585        0.530879206             53.872        0.531735572             53.953         0.84439512            -35.939
               524       0.843197706            -35.641        0.531593199             53.811        0.532818648             53.937        0.844266226            -36.025
               525       0.842946477            -35.697        0.532292075             53.745        0.533396301             53.822        0.843237671            -36.116
               526       0.842364391            -35.753        0.532966608             53.686        0.534133725             53.781        0.842946477            -36.146
               527       0.841492016            -35.814        0.533826341             53.656        0.534502819             53.671        0.842558375            -36.217
               528       0.841685799            -35.875        0.534502819             53.554        0.535488317             53.635        0.841492016            -36.267
               529       0.840814127            -35.916        0.534933751              53.55        0.536043458             53.597        0.841588902            -36.311
               530       0.840330255            -35.968        0.535611632             53.483        0.536722745             53.534        0.840910935            -36.376
               531       0.839749976            -35.984        0.536290372             53.456        0.537712336               53.5        0.840814127            -36.446
               532       0.839749976            -36.106        0.537341026             53.301        0.538517722             53.422        0.839846661            -36.551
               533       0.838976894            -36.126        0.538145856             53.292        0.538765776             53.373        0.839170097            -36.549
               534       0.839421685            -36.166        0.538803222             53.245        0.539610242             53.344        0.838842034             -36.61
               535       0.838543319            -36.275        0.539355986             53.227        0.540723822             53.252        0.838736423            -36.633
               536       0.837818604            -36.291        0.539883432             53.139        0.541190295             53.197        0.837722153            -36.723
               537        0.83724006            -36.376        0.541190295              53.04        0.541626619             53.133        0.837625712            -36.776
               538       0.836854585            -36.399        0.541501919             53.049        0.542500322              53.11        0.837529282            -36.814
               539       0.835822474            -36.468        0.542143237             52.943         0.54345557             53.071        0.837267135            -36.861
               540       0.836152635            -36.512        0.543107203             52.944        0.544296526             52.962        0.836248906             -36.95
               541       0.835122145             -36.57        0.543563142             52.888        0.544816184             52.924        0.836084168            -36.994
               542       0.834979108            -36.589        0.544534762             52.828        0.545475952             52.875        0.835652293            -37.068
               543       0.834833754            -36.681         0.54519266             52.765        0.546197867              52.81        0.834737645            -37.099
               544       0.834545462             -36.71        0.546260754             52.726        0.546449459             52.814        0.834065197            -37.141
               545       0.833847275            -36.808        0.546747132             52.641        0.547566051             52.723        0.834135325              -37.2
               546       0.833622709            -36.824        0.547733794             52.591        0.548112286             52.704        0.833334835            -37.245
               547       0.833149064              -36.9        0.548053191             52.575        0.549000463             52.596        0.832765473            -37.277
               548       0.832387047            -36.932        0.549066963             52.478        0.549636181             52.572        0.832578734            -37.373
               549       0.831939368            -36.992        0.549720175             52.413        0.550353428             52.523        0.832322578            -37.451
               550       0.831351028            -37.081        0.550217549              52.36         0.55110511             52.414        0.831733968            -37.492
               551       0.830595943            -37.146        0.551048476             52.302        0.551746778             52.414        0.831648494            -37.508
               552       0.830378171            -37.206        0.551792666             52.196        0.552428307             52.329        0.830856313            -37.621
               553       0.830129719            -37.267        0.552517403             52.188        0.553281262             52.261        0.830416485            -37.675
               554       0.829509816             -37.24        0.552931752             52.157        0.554142589              52.25        0.829796368            -37.714
               555       0.829044299            -37.332        0.553640354             52.096        0.554788867             52.168        0.829521673            -37.783
               556       0.828326243            -37.416        0.554372171             52.015        0.555330365             52.059        0.829089511            -37.857
               557       0.828406426            -37.453        0.554936715             51.947        0.556087918             52.055        0.828120354            -37.891
               558       0.827632339            -37.503        0.555632259             51.884        0.556913123             52.058        0.827918243             -37.91
               559       0.827339771            -37.562        0.556459936             51.872        0.557357567             51.964        0.827435027            -37.955
               560       0.826841356            -37.607         0.55721422             51.797        0.557984571             51.886        0.826936555            -38.054
               561        0.82626603            -37.653         0.55804587             51.799        0.558560086             51.875          0.8270274            -38.069
               562       0.826029165            -37.713        0.558978857             51.743        0.559493933             51.766        0.826124271             -38.18
               563       0.825850816            -37.747        0.559437536             51.656        0.560146469             51.742        0.825375555            -38.245
               564       0.824992499            -37.854         0.55982205             51.566        0.560725104             51.676        0.825087485            -38.248
               565       0.824378595            -37.844        0.560888721             51.556        0.561405556             51.639        0.824948252            -38.344
               566       0.823800948            -37.928        0.560818443             51.455        0.562370184              51.58         0.82418041            -38.366
               567       0.823189837            -38.002        0.562211856               51.4        0.562600353             51.474        0.823758673            -38.469
               568       0.823318214            -38.059        0.562817669             51.387        0.563725555              51.49        0.823507812            -38.493
               569        0.82233732            -38.098        0.563183601             51.287        0.564221979             51.373        0.822810831            -38.568
               570        0.82158149            -38.159        0.564027977             51.242        0.564742727             51.349        0.822906791            -38.612
               571       0.821674861            -38.204        0.564611865             51.218        0.565327354             51.309        0.821580268            -38.624
               572       0.821058076             -38.27        0.565814245             51.144        0.566009704             51.234        0.821341708            -38.691
               573       0.820726847            -38.309         0.56610715             51.076        0.566563562             51.239        0.821293981            -38.741
               574       0.819879448            -38.344        0.566761055             51.057        0.567283302             51.157        0.820351544            -38.781
               575       0.819540751            -38.426        0.567506125             50.981        0.568290706             51.092        0.820201489            -38.861
               576        0.81914048            -38.449        0.568274787             50.946        0.568602007             51.005        0.819800895            -38.949
               577       0.818974718            -38.532        0.568814286             50.878        0.569535101             50.978        0.819069011            -38.974
               578       0.818592936            -38.591        0.569400695             50.807        0.570122253             50.915        0.818592936            -39.045
               579       0.817673562            -38.627        0.570203602             50.769        0.570860451             50.835        0.818144389            -39.099
               580       0.816925836            -38.686        0.570601135             50.677        0.571455782             50.824        0.818149429            -39.156
               581       0.816582371            -38.742        0.571347064             50.663        0.571873537             50.764        0.817052569            -39.221
               582       0.816018491            -38.784        0.572071089             50.592        0.572532309             50.697        0.816864458             -39.27
               583       0.815922348            -38.801         0.57239895             50.556        0.573520345             50.624        0.816204206            -39.328
               584       0.815642787            -38.882        0.573455867             50.517        0.573918204             50.621        0.815267256            -39.342
               585       0.815509555            -38.949        0.574088773             50.436        0.574617772             50.506        0.814664991            -39.416
               586       0.814446209            -38.988          0.5749928             50.392        0.575059002             50.472         0.81510284            -39.482
               587       0.814131816            -39.065        0.575300468             50.341        0.576361187               50.4        0.814506824            -39.561
               588       0.813444809            -39.102        0.576140085             50.308        0.576538206             50.339        0.814006911            -39.562
               589       0.813013168            -39.163         0.57663046             50.242        0.577494137             50.301        0.813668643            -39.639
               590       0.812736941            -39.209        0.577563846             50.128        0.577696851             50.272        0.812736941            -39.731
               591       0.812338203             -39.27        0.578211704             50.141        0.578677875             50.195        0.812712385            -39.764
               592       0.811708325            -39.315        0.578562126             50.087        0.579161921             50.165        0.812082216             -39.77
               593       0.810927318            -39.327          0.5794713              50.04        0.579804966             50.164        0.812235433            -39.838
               594        0.81068101            -39.386        0.580096173              49.95        0.580497027             50.121        0.810961058            -39.883
               595       0.809841447            -39.444        0.580430199             49.974        0.580764418             50.002        0.810587682            -39.936
               596       0.809375399            -39.498        0.581031931              49.91        0.581835211             49.938        0.810307764             -40.01
               597       0.808909619            -39.566        0.581902201             49.836        0.581969199              49.85        0.809561786            -40.059
               598       0.809210055            -39.581        0.582453515             49.795        0.583124475             49.826        0.808837486            -40.095
               599       0.808071891            -39.655        0.582975092             49.749        0.583243624              49.77        0.808909619            -40.176
               600       0.807606861            -39.682        0.583915495             49.704        0.584386265             49.761         0.80863028            -40.219
               601       0.807142099             -39.79         0.58458814              49.61         0.58458814              49.66        0.807699846            -40.286
               602       0.806770482            -39.801        0.584992098             49.626        0.585328944             49.635        0.807606861            -40.315
               603       0.806027761            -39.873        0.585733414             49.563        0.585665983              49.54        0.806677605            -40.373
               604       0.806142535            -39.947        0.586626715             49.471        0.586559181             49.517        0.806978263            -40.423
               605       0.805656657            -39.952        0.586948504             49.423        0.587489353              49.46        0.805842188            -40.483
               606       0.804822298            -40.052        0.587556994             49.364        0.588233833             49.438        0.805934969            -40.529
               607       0.804359138            -40.083        0.587827636             49.362        0.588911452             49.378        0.805100321            -40.558
               608       0.803248642            -40.141        0.587963004             49.253        0.589182719             49.302        0.803988802            -40.644
               609       0.803248642            -40.154         0.58945411             49.224        0.590065197             49.269        0.804266538            -40.719
               610       0.802786388            -40.239        0.589861431             49.172        0.590608917             49.226        0.803711162            -40.748
               611       0.802786388            -40.282        0.590812942             49.107        0.591221202             49.166        0.803248642            -40.799
               612         0.8023244             -40.34        0.591289273             49.069        0.591765988             49.095          0.8023244            -40.845
