!{251R15S0R1}
!Johanson Technology Inc.
!www.johansontechnology.com
!Test Board Conditions:
!Substrate Type  RO4350B
!Substrate Thickness        20 mil
!Substrate Dk      3.66
!TL Type: GCPW 
!TL Trace Width  34 mil
!TL Gap  10 mil
!Electrode orientation      Horizontal
!DUT TOPOLOGY	SERIES
!Mounting Pad LxW         26x52 mil
! Created Thu Mar 12 16:24:02 2020
# mhz S ma R 50
! 2 Port Network Data from SP1.SP block
! freq  magS11  angS11  magS21  angS21  magS12  angS12  magS22  angS22  
!     
               500       0.998772953             -9.811       0.0489579329             80.081       0.0491725888             80.229        0.998250124             -9.861
               501       0.998777573             -9.809        0.049175228              80.18       0.0492942634             80.285        0.998095004             -9.834
               502       0.998769394             -9.868       0.0492422655             80.043       0.0493785151             80.183        0.998379317             -9.852
               503       0.998541909             -9.827       0.0493054637                 80        0.049527345             80.236         0.99872437             -9.915
               504        0.99876169             -9.862       0.0493773218             80.097       0.0495766903              80.16        0.997918515             -9.925
               505       0.998763031             -9.888       0.0495037967             79.993       0.0496464853             80.292        0.997509886             -9.929
               506       0.998752052             -9.891       0.0495978327             80.028       0.0497407924             80.093        0.998315352             -9.939
               507       0.998759771             -9.887       0.0496875795             80.105       0.0497562729              80.11        0.997531551             -9.961
               508        0.99875454              -9.92       0.0497756215             79.899       0.0498272239             80.123        0.997854089             -9.953
               509       0.998749177             -9.983       0.0498686412             79.953       0.0499663395             80.012        0.997672231            -10.012
               510       0.998745097             -9.988         0.04994719             79.983       0.0500508042             80.051        0.997640934             -9.995
               511       0.998738655            -10.015       0.0501290713             79.917       0.0501868178             80.013        0.997401367             -10.02
               512       0.998729786            -10.011        0.050217519             79.843       0.0503448733              80.01          0.9974025            -10.082
               513       0.998725598            -10.042       0.0502251429             79.886       0.0504105205             79.989        0.997216903            -10.071
               514       0.998717603            -10.025       0.0503684446             79.938       0.0504555029             79.988        0.998376936            -10.137
               515       0.998722363            -10.088       0.0504132591             79.851       0.0504829558             80.079        0.996348278            -10.108
               516       0.998715748            -10.071       0.0505502023             79.875        0.050643405             79.948        0.997201098            -10.113
               517       0.998689288            -10.082       0.0505445741             79.732       0.0508597875             79.984        0.997619298            -10.181
               518       0.998702867            -10.152       0.0508207648             79.813       0.0508851661             79.819        0.997749104            -10.163
               519       0.998681046            -10.144       0.0508020699             79.825       0.0510777088             79.817        0.997700426            -10.207
               520       0.998680228            -10.178       0.0509719973             79.765       0.0511483528             79.953        0.997915393            -10.227
               521       0.998682539            -10.209       0.0510125997             79.802       0.0512126745              79.84        0.997369141            -10.227
               522       0.998682317            -10.204       0.0511547257             79.759       0.0512844568             79.839        0.997165192            -10.248
               523       0.998678111            -10.237       0.0513211325             79.701       0.0513802521             79.802        0.997194056            -10.262
               524       0.998673125             -10.21       0.0514485765             79.682       0.0514189688             79.897           0.996864            -10.304
               525       0.998665985            -10.273       0.0513669829             79.659       0.0515269051             79.915        0.997352333            -10.294
               526       0.998660159            -10.304       0.0514834598             79.669       0.0516972837             79.792        0.996131158            -10.345
               527       0.998639233            -10.338        0.051629566             79.619       0.0518439967             79.718        0.998068201            -10.369
               528       0.998644619            -10.349        0.051781618             79.602        0.051918916             79.739        0.998074515            -10.355
               529        0.99863872            -10.353       0.0517974525             79.666       0.0519766639             79.717        0.997807355            -10.378
               530       0.998641581            -10.397       0.0520062926             79.515       0.0520841877             79.701        0.997491136            -10.403
               531       0.998643068            -10.401       0.0519426068             79.522       0.0520443683             79.661        0.997589321            -10.447
               532       0.998626991             -10.42       0.0521498784             79.555        0.052312238             79.586        0.997577971            -10.457
               533       0.998627004            -10.438        0.052241057              79.56       0.0523434032             79.636        0.997354394             -10.44
               534       0.998613444            -10.432       0.0523898082              79.47        0.052516625             79.645        0.997987228            -10.534
               535       0.998617533            -10.461       0.0524993392              79.46        0.052535617             79.591        0.997816054            -10.532
               536       0.998607713            -10.533       0.0526133998             79.426       0.0526922042             79.593        0.998028782            -10.503
               537       0.998597375            -10.481       0.0525975506             79.387        0.052785607             79.657         0.99773704            -10.559
               538       0.998595292            -10.531       0.0527763698             79.473       0.0528858531             79.575        0.997054239            -10.595
               539       0.998579187            -10.567       0.0527912153             79.431        0.053016574             79.522        0.997703303            -10.619
               540       0.998590256            -10.602       0.0530319167              79.37       0.0530502364             79.435        0.997840263            -10.632
               541       0.998583946            -10.582       0.0530828069             79.412       0.0531011443             79.499         0.99732804            -10.655
               542       0.998574319            -10.595       0.0532109292             79.375       0.0532048034             79.483        0.998166046             -10.67
               543       0.998487477            -10.649       0.0532144738             79.406       0.0533371458             79.473        0.998482878            -10.624
               544       0.998563859            -10.665        0.053303545             79.299       0.0534448784             79.461        0.997476203            -10.724
               545       0.998567694            -10.656        0.053384547             79.321       0.0534645064             79.402        0.997180579            -10.703
               546       0.998548338            -10.711       0.0534800732             79.244       0.0536218746             79.284        0.998222818            -10.726
               547       0.998542727            -10.707       0.0536422151              79.15       0.0537720635             79.329        0.998210222            -10.785
               548       0.998545759            -10.759       0.0537907713              79.22       0.0537969645             79.366         0.99743217            -10.806
               549       0.998542173            -10.869       0.0537775871             79.192       0.0539015572             79.305        0.996784583            -10.788
               550       0.998534543            -10.814       0.0538662563             79.244       0.0540401808             79.272        0.996861201            -10.799
               551       0.998522515            -10.798       0.0539591826             79.046       0.0541832888              79.25        0.997530796            -10.868
               552       0.998490634             -10.83       0.0540658201             79.006        0.054390468              79.31        0.997772099            -10.924
               553        0.99852334            -10.879       0.0542323247             79.058       0.0543010492             79.178        0.996420998            -10.899
               554       0.998515082            -10.905       0.0543212468             79.156       0.0544088729             79.169        0.996862546             -10.91
               555       0.998511597            -10.876       0.0545073619             79.077       0.0544446441             79.144        0.997421036            -10.964
               556        0.99850292            -10.865        0.054443914             79.047       0.0546448627             79.217        0.996721529             -10.93
               557       0.998504365            -10.937       0.0546276248             78.947       0.0546464958             79.156        0.998344542            -10.947
               558       0.998491394            -10.915       0.0546399038                 79       0.0547973966             79.185        0.997592731            -10.987
               559       0.998486797            -11.003       0.0548291441             78.931       0.0549492117             79.069        0.997581684            -10.997
               560       0.998476933            -10.991       0.0548677481             78.946       0.0550195629             79.134        0.997587356            -11.061
               561       0.998480688            -10.981         0.05500279             78.994       0.0550407977             79.079          0.9967465            -11.067
               562       0.998446174            -11.019       0.0550717411              78.88       0.0551669288             79.278        0.997956434            -11.074
               563       0.998473593             -11.06       0.0551435388             78.877       0.0551879972              79.06        0.997079032            -11.088
               564       0.998455504            -11.098       0.0552153609             78.828       0.0554255377             79.092        0.997008969            -11.129
               565       0.998456877             -11.08        0.055379485             78.727       0.0554943683             78.999        0.997240511            -11.135
               566       0.998010048            -11.093       0.0554417415             78.779        0.055639967              78.92        0.998431499            -11.155
               567       0.998447578            -11.116       0.0555681858             78.831       0.0556642315             78.878        0.997695166            -11.176
               568       0.998418292            -11.109       0.0556463751             78.861       0.0558003444             78.949        0.998166704            -11.161
               569       0.998439407            -11.177       0.0557373368             78.716       0.0558272472             78.909        0.997067622            -11.194
               570       0.998430484            -11.201       0.0558855375             78.761       0.0559821318             78.815        0.997311512            -11.211
               571       0.998412118            -11.185       0.0560134785             78.777       0.0561684635             78.941        0.997444279            -11.249
               572       0.998421773            -11.212       0.0560098028             78.628       0.0561389187             78.864        0.996500551            -11.263
               573       0.998408753            -11.258       0.0561103503             78.755       0.0563109663             78.784        0.997051474            -11.267
               574       0.998405706            -11.264       0.0563302695             78.686       0.0564081464             78.822         0.99754232            -11.283
               575       0.998394386            -11.301       0.0563888555              78.65        0.056570925             78.754        0.997266959             -11.32
               576       0.998374934            -11.296       0.0565082195             78.708       0.0566189256             78.828        0.997922981            -11.346
               577       0.998372313            -11.329        0.056499965              78.66       0.0567346237             78.729        0.997710353            -11.356
               578       0.998382593            -11.311         0.05669979             78.731       0.0567193768              78.72        0.997800691            -11.363
               579       0.998372401            -11.333       0.0568325597             78.613       0.0569373457             78.652        0.997966854            -11.378
               580       0.998362475            -11.387       0.0568167776             78.675       0.0570133551              78.71        0.997198115            -11.403
               581       0.998368698            -11.395       0.0569541475             78.521       0.0570066284              78.77        0.997765208            -11.413
               582       0.998355866            -11.437       0.0570267109             78.483       0.0572371926              78.59        0.997076141            -11.466
               583       0.998359995             -11.39       0.0571655935              78.51       0.0572248571             78.661        0.997090818            -11.477
               584       0.998356241            -11.469       0.0572631042             78.375        0.057276291              78.61        0.996838693            -11.509
               585       0.998343335             -11.43       0.0573553023             78.451       0.0574941388             78.678        0.996957909            -11.511
               586       0.998329972            -11.493       0.0574090103             78.626       0.0576142695             78.555        0.996621059            -11.534
               587       0.998336837            -11.461       0.0576203638             78.498       0.0576070978             78.507        0.997682596             -11.57
               588       0.998327974            -11.508       0.0576542054             78.457       0.0577472079             78.501        0.997658462             -11.59
               589       0.998325966            -11.528        0.057682997             78.428        0.057789351              78.52        0.997235699            -11.602
               590       0.998320556             -11.55       0.0579006666             78.461       0.0578940009             78.414        0.997538494            -11.606
               591       0.998312812            -11.579       0.0579282361             78.391       0.0580350422             78.418        0.997306052            -11.637
               592       0.998295861            -11.591       0.0580934101             78.353       0.0582005207             78.496        0.997869091            -11.645
               593       0.998297336            -11.632       0.0581662562             78.421       0.0582533777             78.399        0.997404015            -11.653
               594       0.998297844            -11.642       0.0582876483             78.317       0.0582675199             78.391         0.99730164            -11.699
               595       0.998291613            -11.659       0.0584099282             78.241       0.0583360034             78.356        0.996865744            -11.727
               596        0.99828534            -11.626       0.0584474063             78.283       0.0585147351             78.381        0.997275715            -11.737
               597       0.998277947            -11.665       0.0585727584             78.312       0.0586199815             78.355        0.997345602            -11.739
               598       0.998278269            -11.674       0.0586237523             78.259       0.0585967612             78.332        0.996491532            -11.749
               599       0.998249343            -11.755       0.0588545689             78.085       0.0587868491             78.327        0.998197282            -11.811
               600       0.998259494            -11.736       0.0588392731             78.262       0.0589341873             78.182        0.997593588            -11.796
               601       0.998256681            -11.738       0.0589421102             78.138       0.0590032155              78.27        0.997122188            -11.833
               602       0.998251851            -11.772       0.0589692731             78.171       0.0590372031             78.344        0.996611225            -11.845
               603       0.998194197            -11.786       0.0591354071             78.166       0.0592376185             78.195        0.998194771            -11.843
               604       0.998237205            -11.847       0.0592267023             78.079       0.0593290716             78.136        0.997011464            -11.917
               605       0.998234717            -11.884       0.0592715343             78.091       0.0593739811             78.112        0.996878937            -11.917
               606       0.998228845            -11.849       0.0593394566             78.072       0.0594557094             78.114        0.997111132            -11.917
               607       0.998216955            -11.869       0.0594775447             78.039        0.059628383             78.214        0.997018076            -11.957
               608       0.998215316            -11.918       0.0595979092             77.918       0.0596940471             78.134        0.995820412            -11.991
               609        0.99820952            -11.879       0.0597448614              78.09       0.0597586197             78.134        0.997012395            -11.982
               610        0.99820821            -11.918       0.0597203559             78.031       0.0598029197             78.124        0.995915261            -12.002
               611       0.998201964             -11.95        0.059814926             78.052        0.059918312             78.078        0.996344597            -11.966
               612       0.998194478            -12.014       0.0600031103             77.912       0.0600307491             78.038        0.996479602            -11.999
