!{251R15S131}
!Johanson Technology Inc.
!www.johansontechnology.com
!Test Board Conditions:
!Substrate Type  RO4350B
!Substrate Thickness        20 mil
!Substrate Dk      3.66
!TL Type: GCPW 
!TL Trace Width  34 mil
!TL Gap  10 mil
!Electrode orientation      Horizontal
!DUT TOPOLOGY	SERIES
!Mounting Pad LxW         26x52 mil
! Created Thu Mar 12 16:50:22 2020
# mhz S ma R 50
! 2 Port Network Data from SP1.SP block
! freq  magS11  angS11  magS21  angS21  magS12  angS12  magS22  angS22  
!     
               500     0.00614398292           -108.085         0.99884937              -6.07        0.999418191             -6.073      0.00517428088            -92.895
               501     0.00603262976           -111.138        0.999310204              -6.08        0.998664983             -6.062      0.00498547648            -97.445
               502     0.00573419923           -108.958        0.999052999             -6.138        0.999455191             -6.147      0.00490764091            -95.627
               503     0.00553678238           -112.959        0.999327283             -6.161        0.998884455             -6.207      0.00474195528            -96.322
               504     0.00544847893           -110.609        0.999129601             -6.138        0.999474748             -6.157      0.00486155581            -94.917
               505     0.00548087714            -109.52        0.999149596             -6.185        0.999398555             -6.164      0.00460415639            -95.344
               506     0.00529209423             -111.4        0.999170766             -6.205        0.999188481             -6.217      0.00433588314            -96.651
               507     0.00539103241           -113.434         0.99946443             -6.257        0.998649279             -6.217      0.00451462771            -95.637
               508     0.00516923263           -113.011        0.999372919             -6.209         0.99896294             -6.255      0.00456011796            -96.812
               509     0.00509968346           -114.838        0.999139021             -6.242        0.999090939             -6.261      0.00431065455            -96.785
               510     0.00503934098           -111.273        0.998871209             -6.254        0.999510465             -6.294       0.0041756467            -96.046
               511     0.00500883791           -111.783        0.999158132             -6.305        0.999377063             -6.272      0.00407696495            -94.508
               512     0.00473042324           -111.928         0.99931303             -6.313        0.998997037             -6.299      0.00403320224            -96.235
               513     0.00469170957           -112.898        0.999354266             -6.329        0.999306749             -6.361      0.00380873819             -93.09
               514     0.00456082146           -114.702         0.99931699              -6.37        0.999037226             -6.349      0.00383922063            -97.704
               515     0.00469937776           -115.803         0.99926001             -6.383        0.999174306             -6.377      0.00382287729            -94.197
               516     0.00484827504           -116.485        0.999272762             -6.331         0.99892688             -6.397      0.00370072871            -94.126
               517     0.00441781501            -113.64        0.998996821             -6.418        0.999561975               -6.4      0.00359631336            -93.819
               518     0.00421512264           -116.044        0.998879074             -6.411        0.999629156             -6.389      0.00361002504            -93.209
               519     0.00453418816           -113.208        0.999412533             -6.462        0.999232127             -6.397      0.00357354733            -92.666
               520     0.00424411693           -116.777        0.999165525             -6.457        0.999241565             -6.451      0.00339850052            -96.279
               521     0.00405680011           -118.123        0.999535951              -6.44        0.998774876             -6.486      0.00310479985            -93.426
               522     0.00409234855           -118.528         0.99926072              -6.54        0.999198368             -6.488      0.00330576986            -94.949
               523     0.00411482024           -115.811        0.999183647             -6.509        0.999346205             -6.523      0.00309885223            -93.795
               524     0.00392946016           -120.124        0.999141091             -6.515        0.999387102              -6.53      0.00310658249             -92.33
               525     0.00400036851           -116.856        0.998619403             -6.544        0.999229852             -6.497      0.00306443208            -94.088
               526     0.00374915987           -119.258        0.999238859             -6.538         0.99916497             -6.522      0.00278569753            -96.194
               527     0.00384473115           -120.433        0.999516404             -6.602        0.998394951              -6.58      0.00261586891            -95.348
               528     0.00354421279           -121.276        0.998971247             -6.595        0.999346253             -6.602      0.00250362793            -96.213
               529     0.00355590623           -116.653        0.999244808             -6.597        0.999495057             -6.619      0.00269712019            -92.732
               530     0.00344429844           -119.665        0.999732073             -6.634        0.998464953             -6.626      0.00247742648            -89.729
               531     0.00343756744           -125.506        0.999280891             -6.648        0.999171247             -6.597      0.00253922525             -92.02
               532     0.00340178804           -123.933        0.999557081             -6.655        0.998589166             -6.683      0.00228274421            -92.182
               533     0.00347237343           -120.834        0.999345185             -6.714        0.998999163             -6.708      0.00228231941            -94.762
               534     0.00331537123           -124.665         0.99924208             -6.681        0.998874474             -6.691      0.00212340172            -99.285
               535     0.00300077844           -127.654        0.999710564             -6.721        0.998088798             -6.739      0.00226978087            -94.218
               536      0.0031384212           -123.136         0.99936878             -6.735        0.999073819             -6.738      0.00209682038            -95.274
               537      0.0029900524           -123.855        0.999545457             -6.746        0.998725755             -6.801      0.00186951433            -94.538
               538     0.00257196483           -126.919        0.999521235             -6.827         0.99899905             -6.762      0.00165658996            -95.562
               539     0.00284533908           -130.263        0.998568309             -6.755        0.999491555             -6.802      0.00175462385            -97.175
               540      0.0027456805            -130.39        0.999089052             -6.809        0.999225365             -6.832      0.00166073371            -96.669
               541      0.0026839683           -128.195        0.999186901             -6.845        0.999371435             -6.826      0.00157136611            -90.443
               542     0.00282209231           -129.913        0.999067232             -6.868        0.999350802             -6.813      0.00160498588            -89.811
               543     0.00258834429           -130.842         0.99931168             -6.884        0.999177391             -6.888      0.00139162443            -90.454
               544     0.00254171574           -129.578        0.999076235             -6.918        0.999496617             -6.907      0.00137207224             -85.53
               545     0.00252087852           -130.914        0.999421454             -6.907        0.998994433             -6.928      0.00121465214            -88.581
               546     0.00249315751           -132.672        0.999594315             -6.896        0.998826526             -6.908      0.00138515928            -86.363
               547     0.00221715151           -132.899        0.999247616             -6.924        0.999450457             -6.916      0.00122544936            -89.428
               548     0.00226808918           -137.968        0.999584441             -6.954        0.998527724             -6.976      0.00115281635            -95.319
               549     0.00207195301           -142.338         0.99895391             -6.993        0.999613128             -6.943     0.000962010697            -76.642
               550     0.00227997279           -140.943        0.999489936             -7.005        0.998927487             -7.006      0.00111052838            -85.836
               551     0.00224386795           -141.902        0.999424517             -6.972        0.998920546              -7.03     0.000732735606            -71.543
               552     0.00207258382           -151.798        0.999370912             -7.035        0.999136568             -7.017     0.000870586853            -78.972
               553     0.00210852549           -150.514        0.999182907             -7.008        0.999227001                 -7     0.000601213683            -68.756
               554     0.00197006122           -144.847        0.998609336             -7.059        0.999463232             -7.062      0.00043871221            -99.734
               555     0.00190065993           -150.623        0.998589899             -7.078        0.999634344             -7.058     0.000528389792            -67.052
               556     0.00181237885            -143.68        0.999445197             -7.076        0.999103741             -7.081     0.000459355568            -74.891
               557     0.00179632721           -150.558        0.998470982             -7.127        0.999664311             -7.073     0.000368965235            -39.236
               558     0.00179460023           -161.058        0.999515788             -7.125        0.998899552             -7.078     0.000360967182            -14.759
               559     0.00168150924           -164.174        0.999316663             -7.146        0.999376698             -7.154     0.000406395845             -11.74
               560     0.00164293756           -163.477        0.999160041             -7.147         0.99940142             -7.127     0.000345796869             13.297
               561     0.00169125132           -160.786        0.998746912             -7.226        0.999492408             -7.153      0.00017881673             20.119
               562      0.0016532072           -165.694        0.999477075             -7.225        0.999202443             -7.161     0.000428378127             -1.194
               563     0.00130677254           -168.541        0.999400241             -7.255        0.999180501             -7.224     0.000235993478             22.958
               564     0.00150468102           -167.779        0.999559698             -7.216        0.998852457             -7.193     0.000216069985             36.082
               565      0.0015496199           -163.844        0.999049907             -7.215        0.999279053             -7.246     0.000433885547             65.426
               566      0.0016432927           -174.821        0.998799061             -7.271        0.999405443             -7.243     0.000454951316             67.964
               567     0.00148027169           -179.279        0.999276639             -7.277        0.999208534             -7.315     0.000768407216             61.987
               568     0.00160386009           -172.048        0.998784702             -7.268        0.999471426             -7.315     0.000749836336             53.626
               569     0.00155571063            172.726        0.999036992             -7.322        0.999263834             -7.304      0.00084212938             75.999
               570     0.00157137709            169.423        0.999442162             -7.316         0.99915017             -7.346     0.000697236986             56.759
               571     0.00171216535             167.78        0.999322268             -7.332        0.999165787              -7.36     0.000861084367             58.709
               572     0.00152348408            165.714          0.9993996             -7.422        0.999062617             -7.422       0.0010369025             68.007
               573     0.00153852288            167.797        0.999285097             -7.369        0.999120938             -7.399      0.00101112293             70.901
               574     0.00157768053            161.537        0.999390383             -7.436        0.999227587             -7.404      0.00128623128             59.616
               575     0.00173370634            169.401        0.999265946             -7.416        0.998891776             -7.412      0.00113848035             70.192
               576     0.00158005359            157.833        0.999267162             -7.425        0.999230924             -7.401      0.00116405048             71.433
               577     0.00155585262            153.713        0.999635006             -7.499        0.998470197             -7.491      0.00150407141             69.533
               578     0.00170117895            149.816         0.99873438             -7.467        0.999495286             -7.486      0.00156404772             68.113
               579     0.00178404463            151.481        0.999279927             -7.483        0.999109328             -7.457      0.00147691572             71.333
               580     0.00180714642            137.891        0.999516954              -7.53        0.999050041             -7.521      0.00143943925             74.565
               581      0.0018474735            139.417        0.999374699              -7.57         0.99915512             -7.554      0.00166390382             73.858
               582     0.00184720227             141.95        0.999195234             -7.545        0.999374132             -7.543      0.00172311576             69.487
               583     0.00188371308             141.76        0.999040868             -7.544        0.999364008             -7.568      0.00197317114             70.671
               584     0.00186315935            137.995         0.99926609             -7.585        0.999364688             -7.595      0.00186273039             69.566
               585     0.00197777544             136.83        0.998788033             -7.611        0.999589718             -7.612      0.00196167465             69.706
               586     0.00195272198            143.363        0.998867804              -7.64        0.999417996             -7.602      0.00178665383             72.449
               587     0.00208317954            134.314        0.999467959             -7.663        0.999031659             -7.619      0.00216858626             69.625
               588     0.00208455412            128.409        0.999278685             -7.707        0.999329537             -7.627      0.00221571131             73.668
               589     0.00213419197            130.678        0.998887966              -7.66        0.999439216              -7.73      0.00233148959             74.872
               590     0.00234590942            128.993         0.99913055             -7.723        0.999510909             -7.629      0.00247378094              66.72
               591     0.00227226404            131.597        0.999187163             -7.683        0.999244982             -7.673      0.00223902424             73.508
               592     0.00257121461            123.713         0.99922254             -7.738        0.999349736              -7.73      0.00254617545             72.894
               593     0.00225052394             121.14        0.999232122             -7.723        0.999493644             -7.731      0.00262623531             71.521
               594     0.00248499319            122.889        0.999055816             -7.745        0.999515889             -7.738      0.00248270548             73.022
               595     0.00265290067              118.2        0.999526675             -7.784        0.999260197             -7.793      0.00268269308             71.648
               596     0.00272803539            123.309        0.999127816             -7.801        0.999130692             -7.794      0.00278355624             75.828
               597     0.00287961976             120.66        0.999638549             -7.788        0.998355341             -7.819      0.00312093803             72.892
               598     0.00279389407             120.82          0.9990054             -7.846        0.999396526             -7.826      0.00282787322             75.295
               599     0.00296509945            123.358        0.998979817             -7.853        0.999209291             -7.831      0.00305695653             75.418
               600     0.00287938674            117.433        0.998956323             -7.867        0.999458579             -7.808      0.00306796217             74.003
               601     0.00278279404            116.833        0.998761205             -7.883        0.999470464             -7.924       0.0032963329             76.504
               602     0.00301868328            120.737        0.999055809              -7.93        0.999208832             -7.851      0.00341285274             73.659
               603     0.00314311345            117.653         0.99817826             -7.912        0.999683806             -7.901      0.00339750463             72.693
               604     0.00294311079            115.667        0.999359191              -7.95        0.999154828             -7.917      0.00345665958             73.208
               605      0.0031863104            114.849        0.998799073             -7.957        0.999521363             -7.941      0.00341615904             75.264
               606     0.00311428205            115.532        0.998790823             -7.967        0.999397925             -8.001      0.00366570864             75.901
               607     0.00336624285            112.982         0.99934592             -7.966        0.999318538             -7.965      0.00360077052             72.617
               608     0.00332944644             115.92        0.999375119             -8.007        0.998854275             -7.974       0.0035275407             76.249
               609     0.00325532361            114.188        0.998940262             -8.025        0.999356906             -7.987      0.00381587525             75.001
               610     0.00362178374             115.25        0.999091847             -8.002        0.999263133             -8.051      0.00390456372             73.194
               611     0.00322857673            112.745        0.999241154             -8.066        0.999228845             -8.003      0.00379412044             74.372
               612     0.00361534924            111.275        0.999404628             -8.051         0.99933709             -8.068       0.0038185656             71.571
