!{201R07S2R0}
!Johanson Technology Inc.
!www.johansontechnology.com
!Test Board Conditions:
!Substrate Type  RO4350B
!Substrate Thickness        10 mil
!Substrate Dk      3.66
!TL Type: GCPW 
!TL Trace Width  21 mil
!TL Gap  20 mil
!Electrode orientation      Horizontal
!DUT TOPOLOGY	SERIES
!Mounting Pad LxW         16x21 mil
!Agilent Technologies,N5230A,MY45001966,A.07.50.67
!Agilent N5230A: A.07.50.67
! Created Mon Mar  9 16:26:06 2020
# mhz S ma R 50
! 2 Port Network Data from SP1.SP block
! freq  magS11  angS11  magS21  angS21  magS12  angS12  magS22  angS22  
!     
               500       0.862374353            -32.813        0.499972172             56.703        0.501644243               56.8        0.862275074            -32.977
               501       0.862187324            -32.809        0.500958366             56.689        0.501882016             56.784        0.861889587            -33.005
               502       0.861297406            -32.863        0.501363991             56.661        0.503098635             56.673        0.861396572            -33.064
               503       0.861311632            -32.941        0.502181041             56.608        0.503628516             56.616        0.860617776            -33.094
               504       0.860377587            -33.003        0.503198211             56.494        0.504474349             56.593        0.860873003             -33.21
               505       0.860147547            -33.058        0.504049229             56.427        0.505153021             56.504        0.859652548            -33.242
               506       0.860016471            -33.144        0.504727269             56.398        0.506065544             56.445        0.859224731              -33.3
               507       0.859064499            -33.124        0.505505368             56.347        0.506437402             56.441        0.859262328             -33.33
               508       0.858687914            -33.171        0.506623523             56.314         0.50720713             56.385        0.858885657            -33.408
               509       0.858025115            -33.295         0.50722424              56.23        0.507516306             56.289        0.858025115            -33.432
               510       0.858004288            -33.299        0.507796214              56.19        0.508966805             56.254        0.857609253            -33.524
               511       0.857198644            -33.362        0.508547444             56.128        0.509485086             56.207         0.85759349            -33.557
               512        0.85658865            -33.435        0.509122529             56.037        0.510296178             56.129        0.857081884            -33.626
               513        0.85633645            -33.482        0.509969767             56.014        0.511027687              56.09        0.856829539            -33.689
               514       0.856201747            -33.576        0.510770857             55.925        0.511830438             56.023        0.856103179             -33.76
               515       0.855657006            -33.627        0.511740408              55.88        0.512388897             55.974        0.856051142            -33.833
               516       0.854946294            -33.626        0.512140161             55.842        0.513557214             55.938        0.855438582            -33.885
               517       0.854147947            -33.747        0.513373092             55.765        0.514142022             55.855        0.855131888            -33.915
               518       0.854354726            -33.796        0.513793051             55.727        0.515096058             55.787        0.853863062             -33.95
               519       0.854401393             -33.82        0.514472242             55.694        0.515480152             55.751        0.853320046            -34.015
               520       0.853103277             -33.84        0.515052631             55.655        0.516418284             55.699        0.853692783            -34.086
               521       0.852697588            -33.967        0.515875657             55.537        0.517362605             55.638        0.852795764            -34.112
               522       0.852085301            -34.001        0.517110163              55.51        0.517348356              55.59        0.852870462            -34.159
               523        0.85197515            -34.049        0.517698525              55.46         0.51865304             55.531        0.852073243            -34.251
               524       0.851301254            -34.111        0.518660618             55.413        0.519198313             55.482        0.851889515            -34.289
               525       0.850690436            -34.164        0.519124529             55.354          0.5200218             55.425        0.851670394            -34.361
               526       0.850661827            -34.252        0.519944447             55.279        0.520903103             55.356        0.850759768            -34.419
               527       0.850013516            -34.253        0.520386272             55.274        0.521826141             55.296        0.850600887            -34.505
               528       0.849447964            -34.364        0.521538987             55.178        0.522380287              55.24        0.850132814            -34.533
               529        0.84964731             -34.35        0.521721443              55.14        0.522924135             55.196        0.848767393             -34.56
               530       0.849167975            -34.413        0.522689297              55.08        0.523833908             55.142        0.848386223            -34.642
               531        0.84784364            -34.523        0.523740027             55.012        0.524403723             55.056        0.848820318            -34.693
               532       0.847681115            -34.535        0.524303199             54.984        0.525269892             55.028        0.848071577            -34.731
               533       0.847129879            -34.611        0.525230576             54.858        0.525714554             54.978        0.847617667            -34.818
               534       0.846252569            -34.658          0.5261384             54.837        0.526320153             54.969        0.847520087            -34.854
               535       0.846411399            -34.689        0.526418937              54.85        0.527328815             54.881        0.846898773            -34.876
               536        0.84607886            -34.752        0.527060955             54.807        0.528215139             54.813        0.846371136            -34.939
               537       0.845443531            -34.799        0.527696976             54.705         0.52897434              54.75        0.845832962            -35.028
               538        0.84555921            -34.879        0.528742262             54.655        0.529595181             54.736        0.845169905            -35.057
               539       0.844647122            -34.897        0.529023917             54.584          0.5301824             54.657        0.845036186            -35.141
               540       0.844337319            -34.974        0.529804918             54.554        0.531087384             54.598        0.844531757            -35.183
               541       0.844370994             -34.99        0.530619622             54.494          0.5317816             54.589        0.843399436            -35.227
               542       0.843613656            -35.076        0.531732984             54.438        0.532161683              54.52        0.843322332            -35.255
               543       0.842717291            -35.093        0.531963586             54.394        0.533251278             54.486         0.84329962            -35.327
               544       0.842527882            -35.207        0.533070049             54.315        0.533684122             54.368        0.842430888            -35.383
               545       0.842144421            -35.209        0.533748388             54.238        0.534547836             54.318        0.841466006            -35.476
               546       0.841219282            -35.322        0.534329582              54.17        0.535376395             54.241        0.841509879            -35.511
               547        0.84109194            -35.349        0.535172108             54.125        0.535788603             54.205        0.840995111            -35.574
               548       0.840459862            -35.389        0.535509251             54.101        0.536805525             54.175        0.840750196            -35.602
               549       0.840198753            -35.445        0.536947757             54.031        0.537442532             54.131         0.84029549             -35.71
               550       0.839562278             -35.56        0.537468377             53.933        0.538025571             54.052        0.839948999            -35.745
               551       0.839146602            -35.581        0.538192746             53.936        0.538688668             54.022        0.839726464             -35.78
               552       0.838253287            -35.569         0.53842506             53.885         0.54022573             54.029        0.839025702            -35.824
               553       0.838245564            -35.717        0.539599159             53.784        0.540220753             53.953        0.838438599            -35.832
               554        0.83829285            -35.699        0.539878164             53.782        0.541060416             53.891        0.837713978            -35.934
               555       0.837850111            -35.861        0.540650155             53.691        0.541896482             53.753        0.837175155            -36.011
               556        0.83728377            -35.841        0.541280863             53.599        0.542466187             53.723        0.836705595            -36.122
               557       0.836443354            -35.889        0.542296167             53.606        0.543233488             53.705        0.836828639            -36.125
               558        0.83600595             -35.96        0.542449569             53.501        0.544075749             53.654        0.835717254            -36.131
               559       0.835470391            -35.974        0.543789808             53.452           0.544667             53.591        0.835278039             -36.24
               560       0.834917551            -36.064        0.544494617             53.409        0.545561344             53.559        0.835205971            -36.275
               561       0.834944552            -36.071        0.545453378             53.398        0.545893138             53.505        0.834367992            -36.329
               562       0.834025385            -36.145        0.546046049             53.338        0.546297571             53.414        0.834409556            -36.379
               563       0.833393205            -36.221        0.546260697             53.288        0.547456927             53.351        0.833969091            -36.415
               564       0.833225046            -36.226        0.546905532             53.248        0.548103173             53.354        0.833416925            -36.458
               565       0.833129913            -36.317        0.547725207             53.163        0.548798263             53.256        0.832650463            -36.564
               566       0.832469704            -36.369        0.548995061             53.114        0.549184709             53.201        0.832373867            -36.618
               567       0.832083254            -36.469         0.54937233             53.056        0.550068508             53.134        0.831700154            -36.626
               568       0.831246767            -36.467        0.550021884             53.011        0.550782292             53.131        0.831725409            -36.688
               569       0.831122595            -36.545        0.550636618             52.937        0.551461362             53.049        0.830931244            -36.759
               570        0.83058138            -36.585          0.5519277             52.872          0.5519277             52.976        0.830390154            -36.859
               571       0.829564197            -36.604        0.552141003              52.84        0.552713408             52.955        0.829850768            -36.899
               572       0.829928528            -36.636        0.552701564             52.819          0.5535294             52.895        0.829164487            -36.925
               573       0.829182256             -36.75        0.553541263             52.713        0.554115119             52.821        0.829086799             -37.01
               574       0.828414102            -36.824        0.554303324             52.698        0.555069652             52.749        0.828891112            -37.033
               575       0.828313669            -36.855        0.554938465             52.618        0.555449817              52.71        0.828122965            -37.096
               576       0.827505284            -36.895         0.55554696             52.577        0.556379059             52.708        0.828077102            -37.126
               577       0.827179952            -36.916        0.556480563             52.574        0.556865099             52.621        0.827179952            -37.179
               578        0.82678176            -36.952        0.556917528             52.515         0.55775168             52.608        0.827067369            -37.241
               579       0.826228174            -37.016        0.557378227             52.443        0.558534495             52.546        0.826418442            -37.287
               580       0.826090458            -37.117        0.558377109             52.369        0.559020334             52.442        0.825615058            -37.356
               581       0.825277491            -37.128         0.55892045              52.37        0.559628727             52.403         0.82537251            -37.376
               582       0.825122843            -37.211        0.559588281             52.269        0.560297404             52.348        0.824742947            -37.441
               583       0.824138115            -37.278        0.560660552             52.251        0.561047976             52.278        0.824612664            -37.489
               584       0.824081029            -37.287        0.560686264             52.216        0.561849393             52.268        0.824460619            -37.558
               585       0.823084052            -37.371        0.561622097             52.136        0.562657597             52.152        0.824032208            -37.651
               586       0.822991215            -37.385        0.562464606             52.075        0.562918082             52.183        0.823559913            -37.671
               587       0.822605447            -37.475        0.563172683             52.065        0.563821433             52.098        0.822889614            -37.681
               588       0.821485685            -37.512        0.564092077             51.932         0.56389728              52.03        0.822147991            -37.799
               589       0.821495583            -37.539        0.564878743             51.931        0.564488674             52.051        0.822252557            -37.789
               590       0.820940013            -37.677        0.565277142             51.851        0.565732885             51.885        0.821696475              -37.9
               591       0.820949181            -37.702        0.565934635             51.796        0.566390909             51.904        0.821138233            -37.942
               592       0.820169664             -37.71        0.566439723             51.815        0.567157529             51.814        0.820736413            -37.981
               593       0.819938521            -37.793        0.567520156             51.726        0.567650847             51.778        0.820127341             -38.04
               594        0.81980742            -37.823        0.567756147             51.689        0.568410177             51.722        0.819429972            -38.095
               595       0.818747525            -37.866        0.568067574             51.623         0.56904944             51.732        0.818182149            -38.116
               596       0.818370564            -37.948        0.568983929             51.548        0.569770553             51.642        0.818559023            -38.167
               597       0.818276351            -37.982        0.570164272             51.523        0.570295573             51.592        0.818182149            -38.251
               598       0.817052569            -38.047        0.570886798             51.465        0.570755362              51.48        0.817805449            -38.329
               599       0.817161752            -38.102        0.570963086             51.394        0.571818275             51.449        0.817255837            -38.366
               600       0.816437898            -38.106        0.571969876             51.407        0.572233338             51.484        0.817378399            -38.357
               601       0.816645173            -38.193        0.572840083             51.269        0.573037969             51.441         0.81626918             -38.47
               602       0.815361123            -38.264        0.573191841             51.228        0.573720014             51.312        0.816018491            -38.547
               603        0.81504955            -38.256        0.574029236             51.229        0.574161426             51.311        0.815800584            -38.538
               604       0.814646977            -38.339        0.574605066              51.14         0.57513454             51.257        0.815116061            -38.598
               605       0.813987795            -38.388        0.575198696             51.126        0.575795005             51.173          0.8150193            -38.671
               606        0.81345917            -38.439         0.57588499             51.075        0.576614766             51.142        0.814302484            -38.682
               607       0.813087929            -38.515        0.576550713             51.001        0.577214874             51.048        0.813930858            -38.789
               608       0.813050076            -38.563        0.577453868             50.926        0.577520354             51.008        0.812956476            -38.828
               609        0.81249686             -38.59        0.577592694             50.889        0.578457813             50.961        0.812590407            -38.878
               610       0.812065807            -38.691        0.578417234             50.846          0.5794837             50.854         0.81197232            -38.959
               611       0.811343351            -38.674        0.579234847             50.842        0.579568377              50.87         0.81199748            -38.952
               612       0.810801632            -38.746        0.579915363             50.738        0.580382908             50.823         0.81164219            -39.053
