!{251R15S1R2}
!Johanson Technology Inc.
!www.johansontechnology.com
!Test Board Conditions:
!Substrate Type  RO4350B
!Substrate Thickness        20 mil
!Substrate Dk      3.66
!TL Type: GCPW 
!TL Trace Width  34 mil
!TL Gap  10 mil
!Electrode orientation      Horizontal
!DUT TOPOLOGY	SERIES
!Mounting Pad LxW         26x52 mil
! Created Thu Mar 12 16:34:35 2020
# mhz S ma R 50
! 2 Port Network Data from SP1.SP block
! freq  magS11  angS11  magS21  angS21  magS12  angS12  magS22  angS22  
!     
               500       0.942836011            -25.202         0.33112057             64.875        0.331998531             64.943        0.941209196            -25.331
               501       0.942717198            -25.296        0.331765659             64.757        0.332607034             64.847        0.941090588            -25.403
               502       0.942461369            -25.364         0.33213417             64.675        0.333283304             64.813        0.940726889            -25.464
               503       0.942205435            -25.367        0.332809416             64.659        0.333730274             64.805         0.94079631            -25.508
               504       0.942229738            -25.406        0.333239755             64.619        0.334277239             64.779        0.939197238             -25.52
               505       0.941867675            -25.493        0.334033398             64.595        0.334957643             64.675        0.939593258            -25.593
               506       0.941557236            -25.514        0.334770149             64.557        0.335619144             64.676        0.939716225            -25.616
               507       0.941615189            -25.559        0.335523896             64.427         0.33594908             64.615        0.938908899            -25.695
               508       0.941082587            -25.641        0.335952392             64.424        0.336843164             64.574        0.939566963            -25.714
               509       0.940957488            -25.639         0.33644959             64.408        0.337458213             64.516        0.939009536            -25.778
               510       0.940599187             -25.69        0.337329715             64.368        0.337873864              64.49        0.939516905            -25.808
               511       0.940603799            -25.731        0.337642206             64.316        0.338615418             64.397        0.938332435            -25.884
               512       0.940384409            -25.824        0.338341617             64.249         0.33916062             64.346        0.937789617            -25.937
               513       0.940118078            -25.816        0.338830428             64.206        0.339767946             64.372        0.937955867            -25.964
               514       0.939758178            -25.957        0.339637874             64.125        0.340342444             64.209        0.938568801            -26.056
               515       0.939626343            -25.942        0.340020564             64.124        0.341000632             64.257        0.937357339            -26.065
               516       0.939415352            -26.036         0.34068864             64.042        0.341749315             64.119        0.937362668            -26.144
               517       0.939271775            -26.047        0.341461129             63.983         0.34197257             64.109        0.937327312            -26.215
               518       0.938992095            -26.138        0.342106981             63.907        0.342737746             64.052        0.936940336            -26.268
               519       0.938715191            -26.135        0.342676124             63.908        0.343228898             64.058        0.937311285            -26.257
               520       0.938532603              -26.2        0.343162137             63.867        0.343953208             63.964        0.937021086            -26.304
               521        0.93829877             -26.23        0.343748766             63.842        0.344342912             63.936        0.936464131            -26.388
               522       0.938110164            -26.259        0.344234062             63.789        0.345266022             63.898         0.93562936             -26.43
               523       0.938039933            -26.416        0.344763537             63.666        0.345677671             63.824        0.935451611            -26.428
               524       0.937673895            -26.395        0.345622355             63.679        0.346299469             63.744        0.935625017             -26.55
               525       0.937469639            -26.431        0.346104473             63.599        0.346902326             63.796         0.93509818            -26.556
               526       0.937066247            -26.475        0.346832906             63.631        0.347712493             63.709        0.935018697            -26.596
               527       0.937101693            -26.518         0.34716563              63.54        0.348005993             63.626        0.934623556            -26.683
               528       0.936548522            -26.606         0.34796077             63.505        0.348843217             63.556        0.935255526             -26.72
               529       0.936573132            -26.621        0.348611488             63.453        0.349173837             63.571        0.934526659            -26.732
               530       0.936193361            -26.701         0.34903225             63.411        0.350118901             63.479        0.934362838            -26.792
               531       0.936213492            -26.723        0.349643047             63.326        0.350449057             63.436        0.933092923            -26.897
               532       0.935741344            -26.805         0.35047401             63.238        0.351079781             63.407         0.93412677            -26.947
               533       0.935780464            -26.823         0.35089241             63.219        0.351498903             63.365        0.933090943            -26.967
               534       0.935130486            -26.883         0.35182137             63.177        0.352267206             63.304        0.934377163            -27.006
               535       0.935094955            -26.894        0.351929534             63.184        0.353106501             63.268        0.933051712             -27.04
               536       0.935101507            -26.978        0.352662074             63.049        0.353475044             63.191        0.932306596            -27.132
               537       0.934673722            -27.037        0.353394701             63.043         0.35433172             63.135        0.932738779            -27.141
               538       0.934089859            -27.082        0.354028852             63.018        0.354804122              63.09        0.933337375            -27.213
               539       0.934345211            -27.125         0.35453357             62.944        0.355269041              63.03        0.931767083            -27.277
               540       0.934122651            -27.152        0.355429854             62.908        0.355798328             62.963        0.931866937            -27.328
               541       0.933869276             -27.22         0.35570182              62.85        0.356398681             62.953        0.931614174            -27.355
               542       0.933752665             -27.26        0.356272133             62.808        0.356887925             62.937        0.930747448             -27.37
               543        0.93334358            -27.321        0.357183628             62.705        0.357800996             62.841         0.93162588            -27.468
               544       0.933092328            -27.344        0.357210831             62.713        0.358487997             62.836        0.930839103            -27.481
               545       0.932945726            -27.387        0.358349151             62.635        0.358844571             62.787         0.93101436            -27.533
               546       0.932734981            -27.451        0.358804817              62.57        0.359300867              62.72        0.930268391            -27.647
               547       0.932069113             -27.53         0.35966495             62.563        0.360286606             62.647        0.931425485            -27.615
               548       0.932206114            -27.587        0.360132194             62.481        0.360630079             62.609        0.930276279            -27.686
               549       0.931914205            -27.582        0.360351166             62.475        0.361181861             62.597        0.929877912            -27.761
               550       0.931693925            -27.667        0.361096487              62.42        0.361928901             62.529        0.929658113            -27.768
               551       0.931601505            -27.692        0.361809679             62.349        0.362309883             62.445        0.929351879            -27.873
               552       0.931235104            -27.766        0.362417649             62.298        0.362960479             62.469        0.929200295            -27.865
               553       0.931047655            -27.826        0.362762103             62.195        0.363682087             62.406        0.928478626            -27.974
               554       0.930856262            -27.849        0.363523612             62.209        0.364026185             62.325        0.928608436            -28.009
               555       0.930593047             -27.92        0.364342474             62.114        0.364720188             62.281        0.928987357            -28.026
               556       0.930466121            -27.958        0.364376672             62.105         0.36534281             62.261        0.927471482            -28.064
               557       0.929994329            -27.964        0.365241653             62.097        0.366083622             62.256        0.927855401            -28.103
               558         0.9300768            -28.095        0.365905394             61.968        0.366537836             62.076         0.92686997            -28.194
               559       0.929492829            -28.063        0.366518621             62.038        0.367109855             62.102        0.927568611            -28.232
               560       0.929314682            -28.122        0.366912746             62.014        0.367673897             62.054        0.926857137            -28.269
               561       0.929198593            -28.146        0.367458708             61.917        0.368305788             62.007        0.926634667            -28.338
               562       0.928867515            -28.241        0.368344148             61.819        0.368810923             61.954        0.927051316            -28.387
               563       0.928832037            -28.254        0.368796836             61.751        0.369519351             61.874        0.926162487            -28.472
               564        0.92854764            -28.327        0.369406209             61.753        0.369916915             61.877        0.925985509            -28.439
               565       0.928192583            -28.362        0.369988388               61.7        0.370499899             61.841        0.926164422            -28.514
               566       0.927945627            -28.479         0.37044397             61.654        0.371340681             61.711        0.925704829            -28.563
               567       0.927856745            -28.486         0.37117689             61.566        0.371647255             61.698        0.925616162            -28.625
               568       0.927661148             -28.51        0.371697267             61.521        0.372425464             61.653        0.924888476            -28.674
               569       0.927412327            -28.571        0.372582853             61.439        0.372797391             61.599        0.924959813            -28.751
               570       0.926956379            -28.619        0.372828666             61.468        0.373688125             61.533        0.924930919            -28.789
               571           0.92673            -28.697        0.373467851             61.371        0.374156438             61.523        0.924811502             -28.82
               572       0.926629205            -28.747        0.373857402             61.348        0.374676094             61.446        0.923753259            -28.885
               573       0.926316594            -28.759        0.374765362             61.288        0.375413118               61.4        0.924398951            -28.923
               574       0.925968583            -28.773        0.375358497             61.269        0.376007279             61.371        0.924264456            -28.984
               575         0.9259023            -28.869        0.375634232             61.194        0.376500158             61.309         0.92302861            -29.048
               576       0.925665911            -28.862        0.376490715             61.224        0.376881023             61.307        0.923536938            -28.999
               577       0.925022821            -28.965        0.376966231             61.132        0.377922237             61.198        0.923958462             -29.11
               578       0.925243126            -28.993        0.377620765              61.07        0.378142827             61.166        0.922477681            -29.162
               579       0.924870584            -29.047        0.378077617             61.001         0.37890555             61.097        0.922849682            -29.244
               580       0.924693515            -29.108        0.378876625             60.917        0.379313074             61.086        0.922672999            -29.266
               581       0.924528596            -29.138        0.379201764             60.954        0.379900923             60.998        0.921659171            -29.311
               582       0.923930418            -29.152         0.38009247             60.865        0.380793271              60.98        0.922867316            -29.372
               583        0.92397655            -29.252        0.380505509             60.795        0.381075431             60.924        0.921320955            -29.443
               584       0.923716255            -29.259        0.381363027             60.759        0.381406935             60.897        0.921697874             -29.48
               585       0.923653005            -29.344         0.38190808             60.731        0.381864114             60.791        0.920468323            -29.519
               586       0.923380817            -29.381        0.382191345             60.721        0.382499479             60.757        0.920408981            -29.554
               587       0.922980378            -29.437        0.383170855             60.623        0.383170855             60.745        0.920857582            -29.593
               588       0.922683129            -29.473        0.383532861             60.632        0.384063097             60.655         0.92045504            -29.649
               589       0.922493907            -29.515        0.384116981              60.55         0.38433816             60.666          0.9200544            -29.701
               590       0.922462654            -29.542        0.384457903             60.475        0.385033744             60.602        0.919493773            -29.745
               591       0.922089856            -29.621        0.385188439             60.455        0.385632159             60.524        0.919545544            -29.794
               592       0.921694673            -29.682        0.385733251             60.386        0.386488946             60.489         0.91968071            -29.836
               593       0.921539304             -29.72        0.386735342             60.348        0.386512784             60.431        0.919631551            -29.881
               594       0.921151793            -29.759        0.386973479              60.28        0.387553088             60.353        0.919668267            -29.992
               595       0.921006203            -29.816        0.387447225             60.256        0.387938208             60.342        0.918887948            -30.004
               596       0.920912096            -29.821        0.388211304             60.249        0.388211304             60.266        0.918265309            -30.067
               597       0.920684543            -29.933        0.388741452             60.126        0.389054866             60.224        0.917932723            -30.093
               598       0.920200449            -29.931        0.389343063             60.123        0.389701826             60.207         0.91861269            -30.135
               599       0.919895472            -29.988        0.390111256             60.114        0.390156172             60.151        0.918519713            -30.146
               600       0.919898843            -30.039        0.390427206             60.037        0.390517115             60.118        0.917043786             -30.24
               601       0.919573376            -30.018        0.390873645              59.94        0.391504167             60.084         0.91777535            -30.329
               602       0.919023038             -30.16        0.391946146              59.93        0.391855908             59.989        0.917754238            -30.349
               603       0.919176963            -30.182        0.392282678             59.837        0.392237517             59.956         0.91695734             -30.41
               604       0.918909844            -30.222        0.392620439             59.817         0.39307272             59.912        0.916585334            -30.439
               605       0.918653478             -30.32        0.393325156             59.775        0.393506331             59.818        0.916329617            -30.487
               606       0.918207744            -30.334        0.393677824             59.742        0.394312869             59.862        0.915990462             -30.52
               607       0.917885302            -30.379        0.394673908             59.669        0.394901166             59.759        0.916934716            -30.557
               608        0.91785747            -30.437        0.395298573             59.652        0.395162065             59.697        0.915219462            -30.635
               609       0.917647505             -30.47        0.395526775              59.63        0.395891236             59.679        0.915220813            -30.629
               610       0.917454523            -30.513        0.396355187             59.533        0.396309558             59.595        0.915344436            -30.724
               611       0.916974784            -30.569        0.396878336             59.498        0.397106863             59.609        0.915287209            -30.732
               612        0.91682645            -30.627        0.397362733             59.487        0.397683099             59.493        0.914928453            -30.784
