!{201R07S2R4}
!Johanson Technology Inc.
!www.johansontechnology.com
!Test Board Conditions:
!Substrate Type  RO4350B
!Substrate Thickness        10 mil
!Substrate Dk      3.66
!TL Type: GCPW 
!TL Trace Width  21 mil
!TL Gap  20 mil
!Electrode orientation      Horizontal
!DUT TOPOLOGY	SERIES
!Mounting Pad LxW         16x21 mil
!Agilent Technologies,N5230A,MY45001966,A.07.50.67
!Agilent N5230A: A.07.50.67
! Created Mon Mar  9 16:27:30 2020
# mhz S ma R 50
! 2 Port Network Data from SP1.SP block
! freq  magS11  angS11  magS21  angS21  magS12  angS12  magS22  angS22  
!     
               500       0.815267256            -37.273        0.573125854             52.209        0.573653965             52.249        0.814516713            -37.397
               501       0.814453946            -37.321        0.574006132             52.161        0.574601204             52.226        0.814078962            -37.421
               502       0.814235437            -37.376        0.574182564             52.109        0.575439937             52.119        0.812924102            -37.516
               503       0.813579506            -37.438        0.575241222              52.02        0.576169149             52.115        0.812830516            -37.555
               504       0.813204925            -37.504        0.575837574             51.996        0.577165017             52.051        0.812175716            -37.598
               505       0.812476049            -37.601        0.576514941             51.896        0.578376405             51.966        0.811447763            -37.687
               506       0.811708325            -37.623        0.577763364             51.856         0.57869536             51.948        0.811241202            -37.733
               507       0.811764191            -37.656        0.578135835             51.817        0.579468576             51.897        0.810270243            -37.781
               508       0.810642783            -37.694        0.579001276             51.744        0.580402829             51.826        0.810176274            -37.879
               509       0.809934689            -37.791        0.579895849             51.715        0.580965041             51.721        0.809654996            -37.909
               510        0.80972467            -37.887        0.581081931             51.598         0.58188528              51.69        0.808792976            -37.989
               511       0.808723383            -37.906        0.581634287             51.544        0.582036205             51.667        0.808257978            -38.032
               512       0.807699846             -37.98        0.581835211             51.505        0.582975092              51.53        0.807420924            -38.119
               513        0.80723503            -38.021        0.582975092             51.438        0.583915495             51.506         0.80723503            -38.187
               514       0.807583593            -38.094        0.583697035             51.374        0.584975244               51.5        0.806840123            -38.206
               515       0.806939476            -38.135        0.584306829              51.36        0.585991022             51.384        0.805918197            -38.271
               516       0.806212653            -38.185        0.585598033             51.263        0.586272616             51.361        0.805563184            -38.322
               517       0.805563908            -38.281        0.586273143             51.185        0.587151264             51.249        0.804914962            -38.404
               518       0.804822298            -38.357        0.587016083             51.115        0.587895316             51.159        0.803803698            -38.463
               519        0.80408137            -38.358        0.587759964             51.067        0.588233833             51.184        0.804173949            -38.516
               520       0.803803698            -38.479        0.588708085              51.01        0.589250555             51.041        0.803341125             -38.62
               521       0.804092306            -38.464        0.589122902             50.983        0.590548956             51.096        0.802242945            -38.657
               522       0.802630263            -38.569        0.589950442             50.925        0.591242345             50.947        0.802168365            -38.686
               523       0.801969252            -38.621        0.590959498             50.856        0.591912781             50.903        0.801692309             -38.75
               524       0.802033844            -38.721        0.591551683             50.788        0.592847093             50.815        0.800834353            -38.858
               525       0.801364765            -38.765         0.59228433             50.718         0.59351301             50.815        0.800258403             -38.86
               526       0.800386952            -38.787        0.592788814             50.665        0.593950155             50.759        0.799650108            -38.921
               527       0.800500607            -38.914        0.593966109             50.571        0.595061244             50.686        0.798935402            -39.017
               528       0.799834255            -38.897        0.594565903             50.574        0.595456445             50.628        0.798178453            -39.077
               529       0.798982182            -38.966        0.595233128             50.512        0.596399258              50.57        0.798338538            -39.107
               530       0.797852405            -39.042        0.596241991             50.424        0.597547672             50.513        0.798036139            -39.194
               531       0.797719117            -39.135        0.596966554              50.37        0.597929527             50.414        0.797260045            -39.245
               532       0.797133732            -39.117         0.59776597             50.331        0.598385674             50.384        0.796766723             -39.31
               533       0.796796003            -39.163        0.598338774             50.292         0.59944197             50.371         0.79597082            -39.337
               534       0.796067694            -39.256        0.599100939             50.205        0.599929199             50.274        0.794877127            -39.429
               535       0.795322801            -39.348        0.600127369             50.151        0.601026241             50.211        0.795139693            -39.468
               536        0.79522648            -39.318        0.600607614             50.136        0.601368718             50.194        0.794494387            -39.521
               537       0.794632156            -39.416        0.601472998             50.047        0.602790134             50.137        0.793900609            -39.633
               538       0.793962517            -39.503        0.601796974             49.971         0.60311482             50.016        0.792775098            -39.672
               539       0.793445582            -39.548        0.602514005             49.899        0.604250678             50.013        0.792258936            -39.701
               540       0.792592576            -39.632        0.603392628             49.872        0.604853224             49.906        0.791771746            -39.751
               541       0.792518848            -39.639        0.604101063             49.821        0.605563373             49.874        0.791060318            -39.835
               542       0.792001849            -39.748        0.605307696             49.754        0.606004983             49.795        0.790726321            -39.894
               543       0.790937491            -39.763        0.606166822             49.748        0.606865099             49.764        0.790573335            -39.913
               544       0.790056169             -39.79        0.606258678             49.642        0.607446408             49.692        0.789874273            -39.969
               545        0.78995411             -39.88        0.607228103             49.585        0.608417732             49.678        0.789317738            -40.034
               546       0.789499218            -39.996        0.608067378             49.488        0.608978141             49.584        0.788590797            -40.098
               547       0.788575384            -39.993        0.609036353             49.476        0.609597554             49.503        0.788121574            -40.169
               548       0.788197598            -40.066        0.609726551             49.374        0.610428929             49.472        0.787290674            -40.233
               549       0.787497731            -40.093        0.610378618             49.329        0.611292843             49.426        0.787044542            -40.317
               550       0.786916678            -40.164         0.61112317             49.305        0.612038511             49.351        0.786463822            -40.345
               551       0.786256683            -40.251        0.611877312             49.218        0.612370625             49.309        0.786166167             -40.37
               552       0.785810239            -40.284        0.612869041             49.158        0.613363154             49.273        0.785267608            -40.455
               553       0.785235635            -40.353        0.613126377             49.117        0.614115417             49.161        0.784512739            -40.533
               554       0.785467882            -40.373        0.613519586             49.086        0.615004695             49.176        0.783480933            -40.551
               555       0.784243734            -40.443        0.614895136             48.948        0.615178371             49.079         0.78334136            -40.658
               556       0.783519844            -40.542        0.614964435             48.914        0.616027358             48.975        0.782438118            -40.696
               557       0.783074655            -40.566        0.616244658             48.848        0.616812502             49.011         0.78262401            -40.744
               558       0.782224117            -40.605        0.616639302             48.801        0.617634009             48.913        0.782044024             -40.81
               559       0.782078776            -40.657        0.617661455             48.788        0.618088268             48.876        0.781268834             -40.83
               560         0.7817326            -40.726        0.618241598             48.673        0.619025049             48.845        0.780563471            -40.931
               561       0.781252159            -40.795        0.618644606             48.677        0.620213522             48.753         0.77972459            -40.969
               562       0.780548691             -40.82        0.619441075             48.602         0.62072609             48.723        0.779291609            -41.037
               563       0.779871911            -40.888        0.620045098             48.491        0.621331367             48.616         0.77816784            -41.107
               564       0.779750927            -41.009        0.620877469             48.489        0.622308739              48.55         0.77750985             -41.14
               565       0.778693478             -41.03        0.621965847             48.469        0.622754017             48.557         0.77779749            -41.128
               566       0.778050769            -41.042        0.622813383             48.395        0.623172007             48.478        0.777334488            -41.254
               567       0.777325811            -41.121        0.623236799             48.305         0.62402658             48.424        0.776967922            -41.314
               568       0.776790287            -41.171        0.623740274              48.23        0.624602599              48.35        0.776075167            -41.365
               569       0.776251844            -41.219        0.624385264             48.225        0.625680536             48.308        0.775537219            -41.401
               570       0.775621787            -41.334        0.625316661             48.086        0.626397477             48.192        0.774550966             -41.52
               571       0.775086192            -41.354        0.626181165             48.111        0.626830327             48.165        0.774283492            -41.538
               572       0.774983762            -41.378         0.62718058             48.081        0.627325011             48.132        0.773646567              -41.6
               573       0.773837907            -41.463        0.627552407             47.993         0.62791376             48.067        0.773392578            -41.649
               574       0.773689424            -41.559        0.628371762             47.898        0.628878374             48.011        0.772888171            -41.732
               575       0.773391701            -41.523        0.629070773             47.907        0.629215638             47.986        0.771790641            -41.747
               576        0.77246976            -41.638        0.629624308             47.796        0.630204481             47.905        0.771580933            -41.824
               577       0.771702665            -41.681        0.630013709              47.74        0.631538745              47.86        0.771169776            -41.933
               578       0.771449508            -41.744        0.631040898             47.713        0.631549661             47.738        0.770295759            -41.968
               579       0.770725111            -41.785        0.631538031             47.643        0.632629601             47.772        0.769749665             -41.97
               580       0.769981836            -41.872        0.632893274             47.611        0.632820413             47.657        0.769804561            -42.066
               581       0.769478551            -41.887        0.633135286             47.567        0.633645739             47.601        0.768681659             -42.09
               582       0.768953362            -41.948        0.633650818             47.508        0.634307724              47.56        0.767891747            -42.162
               583       0.768245456            -42.029        0.634599901             47.416        0.635111534             47.538        0.767714954            -42.222
               584       0.767361489            -42.108        0.634599901             47.339        0.635916363             47.406        0.767184818            -42.307
               585       0.766919888            -42.127         0.63562358             47.333        0.636209281              47.37        0.765949258            -42.345
               586       0.766465306            -42.189        0.636637918             47.267        0.636931168             47.343        0.766377069            -42.368
               587        0.76603071            -42.252        0.637009898             47.199        0.637670287              47.29        0.765678021            -42.411
               588       0.765757727            -42.322        0.637663249             47.143        0.638397809             47.179        0.764700524            -42.508
               589       0.765067934            -42.351        0.638336973             47.099        0.638925174             47.174        0.763659924            -42.559
               590       0.764363605            -42.385        0.638998737             47.065        0.640103202              47.12        0.763659924              -42.6
               591       0.763943088            -42.476        0.639898373             46.969        0.640414278             47.064        0.763327671            -42.669
               592       0.763725433            -42.558        0.640231817             46.882        0.641338414             46.994        0.762144383            -42.738
               593       0.762956891            -42.573        0.641431081             46.881        0.641874319             46.989        0.761815843            -42.754
               594        0.76207901            -42.631        0.642096053             46.795        0.642243918             46.882        0.761465094            -42.859
               595       0.761377432            -42.679        0.642317863             46.775        0.642761714             46.816        0.760501369            -42.877
               596       0.760764082            -42.719        0.642909732             46.737        0.643946816             46.753        0.760063715            -42.968
               597       0.759801244             -42.73        0.643650336             46.684        0.644020957             46.762        0.760063715            -42.976
               598       0.760063715            -42.877        0.644614396             46.575        0.645134103             46.634        0.759101763            -43.092
               599       0.759276573            -42.874        0.645059833             46.595        0.645505579             46.592        0.758315617            -43.092
               600       0.758664915             -42.96        0.645802914             46.469        0.646397994             46.546        0.757879221            -43.198
               601       0.758228318            -42.981        0.646472418             46.495         0.64669574             46.536        0.757443076            -43.178
               602       0.757355877             -43.08        0.646993623             46.415        0.647515248             46.431        0.756920034            -43.277
               603       0.757007182            -43.102        0.647738931             46.343        0.648261157             46.386        0.756397352            -43.336
               604       0.756472629            -43.129        0.648698985             46.287        0.648997791             46.385        0.756211398             -43.39
               605       0.755353072            -43.263        0.649007925             46.236        0.649381632             46.227        0.754831473             -43.46
               606       0.754744575            -43.278        0.649306873             46.212        0.649905182             46.246        0.754397082            -43.471
               607       0.754570809            -43.304        0.650429155             46.136        0.650728758             46.185        0.753962941            -43.547
               608       0.754136568            -43.364        0.651253395             46.084        0.651478368             46.146        0.753442302            -43.606
               609       0.753095409            -43.422        0.651553377             45.998        0.651628394             46.094         0.75248873            -43.672
               610       0.752402102            -43.447        0.652303937             46.003        0.652829844             46.028         0.75248873            -43.699
               611       0.751969109            -43.517        0.652980181             45.915        0.653130553             45.957        0.751363337            -43.759
               612       0.751449846            -43.561          0.6534314             45.841         0.65388293             45.963         0.75119035            -43.808
