!{201R07S3R3}
!Johanson Technology Inc.
!www.johansontechnology.com
!Test Board Conditions:
!Substrate Type  RO4350B
!Substrate Thickness        10 mil
!Substrate Dk      3.66
!TL Type: GCPW 
!TL Trace Width  21 mil
!TL Gap  20 mil
!Electrode orientation      Horizontal
!DUT TOPOLOGY	SERIES
!Mounting Pad LxW         16x21 mil
!Agilent Technologies,N5230A,MY45001966,A.07.50.67
!Agilent N5230A: A.07.50.67
! Created Mon Mar  9 16:28:59 2020
# mhz S ma R 50
! 2 Port Network Data from SP1.SP block
! freq  magS11  angS11  magS21  angS21  magS12  angS12  magS22  angS22  
!     
               500       0.728869874            -47.439        0.679047258             42.067        0.679281833             42.112        0.729793515            -47.682
               501       0.728198869            -47.512         0.67982949             42.022        0.680220944             42.074        0.729037722            -47.702
               502       0.727612246            -47.559        0.679594726             41.965        0.681082937             41.971        0.727696021            -47.801
               503       0.727109803            -47.626        0.680455925             41.868        0.681789016             41.941         0.72719352            -47.864
               504       0.726607707             -47.69        0.680690987             41.856        0.682417256             41.884        0.726356789            -47.884
               505       0.725437497            -47.795        0.681710526             41.735        0.683518069             41.792        0.725938785            -48.002
               506       0.725186983            -47.833        0.682652995             41.708         0.68399039             41.756        0.725270478            -48.026
               507       0.725353983            -47.865         0.68320337             41.658        0.685014871             41.723         0.72443596            -48.088
               508       0.723602402            -47.907        0.683911647              41.58        0.685409311             41.628        0.724269172            -48.199
               509       0.722686596                -48        0.684620659              41.53        0.685803978             41.535        0.723685715            -48.257
               510       0.722769804            -48.119        0.685803978             41.419        0.686752106              41.48         0.72285302            -48.334
               511       0.721688857            -48.141        0.686198872              41.37        0.686910255             41.457        0.721938163            -48.351
               512       0.720277751            -48.213        0.686435918             41.328        0.687622375              41.32        0.721273539            -48.432
               513       0.720360681            -48.259        0.687464062             41.249         0.68889019             41.293        0.720775473             -48.53
               514       0.719614656            -48.328        0.688176756             41.186        0.689128165             41.284        0.720526569            -48.523
               515       0.719448978            -48.397        0.688652296             41.167        0.690478245             41.163        0.719531812            -48.612
               516       0.718538429            -48.428         0.68968376             41.052        0.690796296             41.143        0.718869404            -48.667
               517       0.717794291            -48.522        0.690160342             41.003        0.691353236             41.028        0.718124924            -48.742
               518       0.716803307            -48.609        0.690796296             40.901        0.691830971             40.929        0.716803307            -48.818
               519       0.716308327            -48.636        0.691353236             40.841        0.692468464             40.938        0.717133483            -48.874
               520       0.715319394            -48.714        0.692309036              40.78        0.692787431             40.829        0.716060966            -48.965
               521       0.715896106            -48.758        0.693266157             40.753        0.694384471             40.818        0.715484121            -49.038
               522       0.714496326            -48.818        0.693585492             40.724        0.694944305             40.726        0.714990053            -49.042
               523       0.713920742            -48.902        0.694384471             40.639        0.695824955             40.661        0.714331826            -49.103
               524       0.713756375            -48.975        0.695424521             40.602        0.696385949             40.598         0.71424959            -49.206
               525        0.71301719             -49.04        0.695584667             40.487        0.696947396             40.571        0.712770965            -49.235
               526       0.711623039            -49.076        0.695664754              40.45         0.69702764             40.497        0.712114781            -49.291
               527       0.711950829            -49.178        0.697348707             40.348        0.698152022             40.442        0.711950829            -49.391
               528       0.711131637            -49.198        0.697348707             40.347        0.698714893              40.36        0.710476962            -49.463
               529        0.71039517            -49.247        0.698393197             40.292         0.69968087             40.312        0.710722394            -49.486
               530        0.70884291            -49.348        0.699036737             40.157        0.700164359             40.221        0.710313387            -49.603
               531        0.70884291            -49.371        0.699358729              40.16        0.700648183             40.197          0.7094144            -49.614
               532       0.708190342            -49.419        0.700486871             40.068        0.701213066             40.108        0.709006146            -49.711
               533       0.707701311            -49.489        0.700809532             40.035        0.702020832             40.075        0.708108814            -49.737
               534       0.707212617            -49.546        0.701374545             39.982        0.702586822              40.02        0.706968396            -49.803
               535       0.705992358            -49.637        0.702020832             39.901        0.703396171             39.943          0.7066429            -49.861
               536       0.705748559            -49.648         0.70299138             39.886        0.703720172             39.903         0.70656155            -49.927
               537        0.70509884            -49.722        0.703639158             39.802        0.704855349             39.844        0.705586073             -50.03
               538       0.704611943            -49.829         0.70396327             39.708        0.705180022              39.73        0.704855349            -50.084
               539        0.70419026            -49.847        0.704676865              39.65        0.706626652             39.734        0.704271337            -50.101
               540       0.702748618            -49.948        0.705261213             39.611        0.706480209             39.624        0.703639158            -50.173
               541        0.70299138            -49.924        0.705829816             39.575        0.707701311             39.599        0.702829529            -50.239
               542       0.702263344            -50.037        0.707538375             39.484        0.707864284             39.539         0.70291045            -50.313
               543       0.701213066            -50.082        0.707701311             39.475        0.708598127             39.467         0.70210166            -50.336
               544       0.700406229            -50.129        0.707945784             39.367        0.709087778             39.406        0.701455298            -50.401
               545       0.700244973             -50.21        0.708679712             39.304        0.710149851             39.375         0.70089022            -50.476
               546       0.699278217            -50.337         0.70949608             39.211        0.710068096              39.27        0.700244973            -50.518
               547       0.698554026            -50.366         0.70982289             39.186        0.710722394             39.176        0.699117221            -50.605
               548       0.698312796            -50.399        0.710967912             39.105        0.711623039             39.149         0.69879534            -50.661
               549       0.697589604            -50.457          0.7112954             39.045        0.712360779             39.098        0.698152022            -50.757
               550       0.696931425             -50.51         0.71218045             39.026         0.71300085             39.032        0.697814593            -50.768
               551        0.69630578            -50.579        0.712606862             38.946        0.713263499             39.014        0.697107893            -50.806
               552       0.695504589            -50.655        0.713427753             38.852        0.713920742              38.93        0.696065326            -50.908
               553       0.694944305            -50.688        0.713592045             38.838        0.714660864             38.857        0.695424521            -50.968
               554       0.695024318            -50.733         0.71400294             38.778        0.715484121             38.842        0.694384471            -50.998
               555       0.694148817            -50.773        0.715488385             38.662        0.715735549             38.792        0.694548517            -51.109
               556       0.693026753            -50.883        0.714990053             38.638        0.716060966             38.659        0.693186347             -51.13
               557       0.692309036            -50.929         0.71614341             38.523        0.716720786             38.683        0.693345977            -51.202
               558       0.691830971            -50.982        0.716555774             38.526        0.717876935             38.569        0.692707676            -51.232
               559       0.691592062            -51.014        0.717381215             38.484        0.718124924             38.571        0.691671689            -51.288
               560       0.690796296            -51.085        0.717794291             38.383        0.718703897             38.513        0.690955376            -51.377
               561       0.690398756            -51.172        0.718207606              38.34        0.719946127               38.4        0.690398756            -51.448
               562       0.689604362            -51.206        0.719034949               38.3        0.720194831             38.377        0.689842584            -51.518
               563       0.688731585            -51.239        0.719614656             38.188        0.720360681               38.3        0.688969505            -51.578
               564       0.688810883            -51.388        0.720609528             38.175        0.721605775               38.2         0.68825599            -51.603
               565       0.687780724            -51.417        0.721439638             38.143        0.722021284             38.214        0.688414485            -51.609
               566       0.686831176            -51.418        0.721605775             38.092        0.722187555             38.125        0.687305786            -51.715
               567       0.686431723            -51.506        0.722515796             37.993        0.723098309             38.075        0.687459861            -51.788
               568       0.685725027            -51.564         0.72285302             37.937        0.723519099             37.997        0.686514951            -51.826
               569       0.685014871            -51.592        0.722936247             37.883        0.724352561             37.966        0.685725027            -51.908
               570        0.68399039            -51.716        0.723519099             37.791        0.724602787             37.839        0.684226673            -51.977
               571       0.683832914            -51.765         0.72443596             37.784        0.725353983             37.805        0.684305452            -52.008
               572       0.683596767            -51.746         0.72577165              37.74        0.725604554             37.793        0.683754189            -52.081
               573       0.682260142            -51.852        0.725270478             37.656        0.725938785             37.724        0.683046075            -52.132
               574       0.682024538            -51.951        0.726189558             37.553        0.726942399             37.651        0.682652995            -52.229
               575       0.681475112            -51.925        0.727026096             37.595        0.726858712             37.624        0.681632046            -52.205
               576       0.681004529            -52.009         0.72719352             37.467        0.727947401             37.571        0.681161354            -52.309
               577       0.679907763            -52.077        0.727696021             37.414        0.729037722             37.505        0.681004529            -52.423
               578       0.679672972             -52.11        0.728869874             37.385        0.729037722             37.403        0.680142636            -52.445
               579       0.679047258            -52.176        0.729037722             37.277        0.730129675             37.407        0.679516489            -52.493
               580       0.678031702            -52.262        0.730129675             37.279        0.729793515             37.301        0.679360043            -52.559
               581       0.677563496            -52.268        0.730129675             37.218        0.730970752             37.248        0.678031702            -52.584
               582       0.676939724            -52.348         0.73046599             37.174        0.731054913             37.197        0.677407499             -52.65
               583       0.676472272            -52.418        0.731391654             37.087        0.732065601             37.176        0.677095613            -52.714
               584       0.675382806            -52.483        0.731223264             37.025        0.732487133             37.074        0.676472272            -52.775
               585       0.675149577            -52.523        0.731812798              36.99        0.733246502             37.017        0.675071852            -52.849
               586       0.674528028            -52.581        0.733162089             36.931        0.733753186             36.994        0.675693903            -52.877
               587       0.674217468            -52.645          0.7334998              36.87        0.734513868             36.942        0.675149577            -52.885
               588       0.673596776              -52.7        0.733922158             36.792        0.734598437             36.859        0.673984641            -53.015
               589       0.672744259            -52.734        0.734513868             36.757        0.735021428             36.821         0.67305414            -53.059
               590       0.672357107            -52.806        0.735021428             36.727        0.736376635              36.75         0.67305414            -53.097
               591       0.672244693            -52.867        0.735999268             36.636        0.736847107             36.704        0.672709224            -53.172
               592       0.671428853            -52.942        0.736207097             36.548        0.737140037             36.656        0.671428853            -53.236
               593        0.67050188            -52.985        0.737055175             36.528         0.73739468             36.613        0.670733503            -53.262
               594       0.669653279            -53.036        0.737734341             36.453        0.737649411              36.53        0.670579079            -53.365
               595       0.668959769            -53.088        0.737819281             36.437        0.738244126             36.442        0.669730381            -53.371
               596       0.668574795            -53.118        0.738244126             36.391        0.739349869             36.385         0.66903679            -53.463
               597       0.667651763            -53.147        0.738414132             36.338        0.739434994             36.371        0.668728758            -53.482
               598       0.667421204            -53.282        0.739434994             36.218        0.740031149             36.263        0.667959299            -53.597
               599       0.666653249            -53.269        0.739945954             36.251         0.74028679             36.236        0.667498048            -53.592
               600       0.665962845            -53.339        0.740542521             36.111        0.740883632             36.202        0.666730005            -53.698
               601       0.665962845            -53.378        0.740798339             36.139        0.741566325             36.171        0.665962845            -53.687
               602       0.664584182            -53.482        0.741310241             36.059        0.741907908             36.057        0.665732869            -53.797
               603       0.664660699            -53.479        0.742506056             35.987          0.7429336             36.045        0.665426359            -53.851
               604        0.66374307             -53.54        0.743275812             35.931        0.743532575             36.021        0.665196568            -53.918
               605       0.662826709             -53.64        0.743532575             35.886        0.743618182               35.9         0.66389592            -53.985
               606       0.662292749            -53.688        0.743532575             35.851        0.744303395             35.866        0.663208372            -53.981
               607       0.661835411            -53.708        0.744217709               35.8        0.744560513             35.828        0.662674105            -54.028
               608       0.661226119            -53.784        0.744817719             35.733        0.745246594             35.758        0.661987822            -54.108
               609       0.660389257            -53.827          0.7451608             35.639        0.745246594             35.716        0.660997779            -54.191
               610       0.659401605            -53.872        0.745504038             35.669        0.745933308             35.639        0.660769518            -54.169
               611       0.659098009            -53.933        0.746190989             35.565        0.746534701             35.574        0.659781297            -54.255
               612       0.658642878            -53.982        0.746448758             35.507         0.74713658             35.573        0.659629394            -54.315
