!{251R14S0R2}
!Johanson Technology Inc.
!www.johansontechnology.com
!Test Board Conditions:
!Substrate Type  RO4350B
!Substrate Thickness        20 mil
!Substrate Dk      3.66
!TL Type: GCPW 
!TL Trace Width  36 mil
!TL Gap  12 mil
!Electrode orientation      Horizontal
!DUT TOPOLOGY	SERIES
!Mounting Pad LxW         26x36 mil
! Created Mon Mar 16 16:42:33 2020
# mhz S ma R 50
! 2 Port Network Data from SP1.SP block
! freq  magS11  angS11  magS21  angS21  magS12  angS12  magS22  angS22  
!     
               500       0.997963133        -8.35168156       0.0596802714         81.4693258       0.0597148556         81.2636962         0.99764893        -8.42899269
               501       0.997978067        -8.36224208       0.0598095177         81.4457677       0.0598328625         81.2482616        0.997605083        -8.44199025
               502       0.997993001         -8.3728026        0.059938764         81.4222096       0.0599508695          81.232827        0.997561236        -8.45498781
               503       0.998007936        -8.38336312       0.0600680103         81.3986515       0.0600688764         81.2173924        0.997517388        -8.46798538
               504        0.99802287        -8.39392364       0.0601972567         81.3750934       0.0601868833         81.2019578        0.997473541        -8.48098294
               505       0.998037804        -8.40448416        0.060326503         81.3515353       0.0603048903         81.1865232        0.997429694         -8.4939805
               506       0.998051495        -8.41504468        0.060455674         81.3279773       0.0604228219         81.1710885        0.997384604        -8.50697807
               507        0.99804542         -8.4256052       0.0605836448         81.3044192       0.0605395543         81.1556539        0.997319762        -8.51997563
               508       0.998038939        -8.43616572       0.0607115855         81.2808611       0.0606562571         81.1402193        0.997254518        -8.53297319
               509       0.998032113        -8.44672624       0.0608394997          81.257303       0.0607729339         81.1247847        0.997188931        -8.54597076
               510       0.998019312        -8.46008117       0.0609630788         81.2399188       0.0608889182          81.111039        0.997217091        -8.56288149
               511       0.998002787        -8.47469156       0.0610846505         81.2253084       0.0610045317         81.0980519        0.997286328        -8.58155032
               512       0.997984661        -8.48930195       0.0612061267         81.2106981       0.0611200496         81.0850649        0.997353968        -8.60021916
               513        0.99796458        -8.50391234       0.0613274849         81.1960877       0.0612354495         81.0720779        0.997419655        -8.61888799
               514       0.997942103        -8.51852273       0.0614486973         81.1814773       0.0613507038         81.0590909        0.997482949        -8.63755682
               515       0.997916703        -8.53313312       0.0615697305         81.1668669       0.0614657792         81.0461039        0.997543322        -8.65622565
               516       0.997887769        -8.54774351       0.0616905456         81.1522565       0.0615806369         81.0331169        0.997600162        -8.67489448
               517       0.997854635         -8.5623539          0.0618111         81.1376461       0.0616952344         81.0201299        0.997652802        -8.69356331
               518       0.997816642        -8.57696429       0.0619313514         81.1230357       0.0618095295         81.0071429        0.997700583        -8.71223214
               519       0.997773233        -8.59157468       0.0620512632         81.1084253       0.0619234859         80.9941558        0.997742946        -8.73090097
               520       0.997724065        -8.60618506       0.0621708123         81.0938149       0.0620370804         80.9811688        0.997779547        -8.74956981
               521       0.997669088        -8.62079545       0.0622899931         81.0792045       0.0621503079         80.9681818        0.997810335        -8.76823864
               522       0.997653636         -8.6357108       0.0624087265         81.0633875        0.062267395         80.9587977        0.997812314        -8.78510967
               523       0.997708444        -8.65114541        0.062526893         81.0455158       0.0623912479         80.9555483        0.997768207        -8.79891958
               524        0.99775556        -8.66658002       0.0626445771         81.0276442       0.0625146196         80.9522989        0.997716408        -8.81272949
               525        0.99779459        -8.68201462       0.0627617514         81.0097725       0.0626374824         80.9490496        0.997656527         -8.8265394
               526       0.997825755        -8.69744923       0.0628784271         80.9919009       0.0627598473         80.9458002        0.997588783        -8.84034931
               527       0.997849811        -8.71288383       0.0629946491         80.9740292       0.0628817591         80.9425508        0.997513938        -8.85415922
               528       0.997867818        -8.72831844       0.0631104821         80.9561576       0.0630032823         80.9393014        0.997433052        -8.86796913
               529       0.997880894        -8.74375305       0.0632259947         80.9382859       0.0631244852          80.936052        0.997347244        -8.88177904
               530       0.997890051        -8.75918765       0.0633412496         80.9204143       0.0632454302         80.9328026        0.997257528        -8.89558895
               531        0.99789613        -8.77462226       0.0634562988         80.9025426       0.0633661695         80.9295532        0.997164744        -8.90939886
               532       0.997899799        -8.79005686       0.0635711839          80.884671       0.0634867442         80.9263038        0.997069561        -8.92320877
               533        0.99790157        -8.80549147       0.0636859368         80.8667994       0.0636071863         80.9230544        0.996972493        -8.93701868
               534       0.997900915        -8.82082859       0.0638008262          80.848684       0.0637270498          80.918684        0.996884251        -8.95102356
               535       0.997884436        -8.83463851       0.0639194588         80.8267506       0.0638394577         80.8967506        0.996956328        -8.96808286
               536       0.997866341        -8.84844842       0.0640380028         80.8048172       0.0639517764         80.8748172        0.997026803        -8.98514216
               537       0.997846287        -8.86225833       0.0641564354         80.7828838       0.0640639832         80.8528838         0.99709533        -9.00220146
               538       0.997823854        -8.87606824       0.0642747291         80.7609504       0.0641760504         80.8309504         0.99716149        -9.01926076
               539       0.997798539        -8.88987815       0.0643928504         80.7390171        0.064287945         80.8090171         0.99722478        -9.03632006
               540       0.997769762        -8.90368806       0.0645107609         80.7170837       0.0643996283         80.7870837        0.997284619        -9.05337937
               541       0.997736884        -8.91749797       0.0646284178         80.6951503        0.064511058         80.7651503        0.997340368        -9.07043867
               542        0.99769926        -8.93130788       0.0647457779         80.6732169       0.0646221909         80.7432169        0.997391381        -9.08749797
               543       0.997656318        -8.94511779       0.0648628023         80.6512835       0.0647329882         80.7212835        0.997437084        -9.10455727
               544       0.997607653         -8.9589277       0.0649794626         80.6293501       0.0648434218         80.6993501        0.997477072        -9.12161657
               545       0.997535075        -8.97273761       0.0650945699         80.6074167       0.0649523053         80.6774167        0.997493153        -9.13867587
               546       0.997455743        -8.98654752       0.0652092373         80.5854833       0.0650607499         80.6554833        0.997502481        -9.15573517
               547       0.997422619        -9.00523152       0.0653304865         80.5672055        0.065189585         80.6378148        0.997504114          -9.174013
               548       0.997404897        -9.02554021       0.0654539297         80.5501462        0.065325217         80.6215678        0.997503181        -9.19269699
               549       0.997387174         -9.0458489       0.0655773729         80.5330869       0.0654608489         80.6053209        0.997502248        -9.21138099
               550       0.997369452         -9.0661576       0.0657008162         80.5160276       0.0655964808         80.5890739        0.997501315        -9.23006499
               551        0.99735173        -9.08646629       0.0658242594         80.4989683       0.0657321127          80.572827        0.997500382        -9.24874898
               552       0.997334008        -9.10677498       0.0659477026          80.481909       0.0658677447           80.55658        0.997499449        -9.26743298
               553       0.997316285        -9.12708367       0.0660711458         80.4648497       0.0660033766         80.5403331        0.997498516        -9.28611698
               554       0.997298563        -9.14739236        0.066194589         80.4477904       0.0661390085         80.5240861        0.997497583        -9.30480097
               555       0.997280841        -9.16770106       0.0663180322         80.4307311       0.0662746404         80.5078392         0.99749665        -9.32348497
               556       0.997263119        -9.18800975       0.0664414755         80.4136718       0.0664102724         80.4915922        0.997495717        -9.34216897
               557       0.997245396        -9.20831844       0.0665649187         80.3966125       0.0665459043         80.4753452        0.997494785        -9.36085297
               558       0.997227674        -9.22862713       0.0666883619         80.3795532       0.0666815362         80.4590983        0.997493852        -9.37953696
               559       0.997186601        -9.24678571       0.0668130252         80.3653571       0.0668018156         80.4442857        0.997446603        -9.39678571
               560       0.997115808        -9.26220779       0.0669392412         80.3548052       0.0669025554         80.4312987        0.997340408        -9.41220779
               561       0.997045015        -9.27762987       0.0670654573         80.3442532       0.0670032952         80.4183117        0.997234213        -9.42762987
               562       0.996974223        -9.29305195       0.0671916733         80.3337013        0.067104035         80.4053247        0.997128018        -9.44305195
               563        0.99690343        -9.30847403       0.0673178893         80.3231494       0.0672047748         80.3923377        0.997021823        -9.45847403
               564       0.996832637         -9.3238961       0.0674441054         80.3125974       0.0673055146         80.3793506        0.996915627         -9.4738961
               565       0.996761845        -9.33931818       0.0675703214         80.3020455       0.0674062544         80.3663636        0.996809432        -9.48931818
               566       0.996691052        -9.35474026       0.0676965375         80.2914935       0.0675069942         80.3533766        0.996703237        -9.50474026
               567       0.996620259        -9.37016234       0.0678227535         80.2809416       0.0676077341         80.3403896        0.996597042        -9.52016234
               568       0.996549466        -9.38558442       0.0679489696         80.2703896       0.0677084739         80.3274026        0.996490847        -9.53558442
               569       0.996478674        -9.40100649       0.0680751856         80.2598377       0.0678092137         80.3144156        0.996384651        -9.55100649
               570       0.996407881        -9.41642857       0.0682014017         80.2492857       0.0679099535         80.3014286        0.996278456        -9.56642857
               571        0.99634536        -9.43194963        0.068327199         80.2365881       0.0680132641         80.2880504        0.996179528        -9.58224208
               572       0.996343496        -9.44819659        0.068449926          80.208156       0.0681354271         80.2718034        0.996133888        -9.60092608
               573       0.996341632        -9.46444354       0.0685726529         80.1797238       0.0682575902         80.2555565        0.996088249        -9.61961007
               574       0.996339769         -9.4806905       0.0686953798         80.1512916       0.0683797532         80.2393095        0.996042609        -9.63829407
               575       0.996337905        -9.49693745       0.0688181068         80.1228595       0.0685019163         80.2230626         0.99599697        -9.65697807
               576       0.996336042         -9.5131844       0.0689408337         80.0944273       0.0686240794         80.2068156         0.99595133        -9.67566206
               577       0.996334178        -9.52943136       0.0690635607         80.0659951       0.0687462424         80.1905686         0.99590569        -9.69434606
               578       0.996332314        -9.54567831       0.0691862876          80.037563       0.0688684055         80.1743217        0.995860051        -9.71303006
               579       0.996330451        -9.56192526       0.0693090145         80.0091308       0.0689905685         80.1580747        0.995814411        -9.73171405
               580       0.996328587        -9.57817222       0.0694317415         79.9806986       0.0691127316         80.1418278        0.995768772        -9.75039805
               581       0.996326723        -9.59441917       0.0695544684         79.9522665       0.0692348947         80.1255808        0.995723132        -9.76908205
               582        0.99632486        -9.61066613       0.0696771954         79.9238343       0.0693570577         80.1093339        0.995677493        -9.78776604
               583       0.996322996        -9.62691308       0.0697999223         79.8954021       0.0694792208         80.0930869        0.995631853        -9.80645004
               584       0.996324906        -9.64184403       0.0699086563          79.889342       0.0695981937          80.075524        0.995629216        -9.81987002
               585       0.996327702        -9.65646629       0.0700141081         79.8885297       0.0697164183         80.0576523        0.995636665        -9.83205524
               586       0.996330497        -9.67108855       0.0701195598         79.8877173       0.0698346429         80.0397807        0.995644115        -9.84424045
               587       0.996333293         -9.6857108       0.0702250115          79.886905       0.0699528676          80.021909        0.995651565        -9.85642567
               588       0.996336088        -9.70033306       0.0703304633         79.8860926       0.0700710922         80.0040374        0.995659014        -9.86861089
               589       0.996338884        -9.71495532        0.070435915         79.8852803       0.0701893168         79.9861657        0.995666464         -9.8807961
               590       0.996341679        -9.72957758       0.0705413668         79.8844679       0.0703075414         79.9682941        0.995673913        -9.89298132
               591       0.996344475        -9.74419984       0.0706468185         79.8836556        0.070425766         79.9504224        0.995681363        -9.90516653
               592        0.99634727         -9.7588221       0.0707522703         79.8828432       0.0705439906         79.9325508        0.995688813        -9.91735175
               593       0.996350066        -9.77344435        0.070857722         79.8820309       0.0706622153         79.9146791        0.995696262        -9.92953696
               594       0.996352861        -9.78806661       0.0709631738         79.8812185       0.0707804399         79.8968075        0.995703712        -9.94172218
               595       0.996355657        -9.80268887       0.0710686255         79.8804062       0.0708986645         79.8789358        0.995711161        -9.95390739
               596       0.996331902        -9.82137287        0.071185238         79.8674086       0.0710181269          79.858221        0.995650682        -9.97177904
               597       0.996281599         -9.8441186       0.0713130112         79.8422258       0.0711388271         79.8346629        0.995522272        -9.99533712
               598       0.996231295        -9.86686434       0.0714407845         79.8170431       0.0712595272         79.8111048        0.995393863        -10.0188952
               599       0.996180991        -9.88961007       0.0715685577         79.7918603       0.0713802274         79.7875467        0.995265453        -10.0424533
               600       0.996130687        -9.91235581       0.0716963309         79.7666775       0.0715009276         79.7639886        0.995137044        -10.0660114
               601       0.996080383        -9.93510154       0.0718241042         79.7414947       0.0716216278         79.7404305        0.995008635        -10.0895695
               602       0.996030079        -9.95784728       0.0719518774         79.7163119        0.071742328         79.7168725        0.994880225        -10.1131275
               603       0.995979775        -9.98059301       0.0720796506         79.6911292       0.0718630281         79.6933144        0.994751816        -10.1366856
               604       0.995929471        -10.0033387       0.0722074239         79.6659464       0.0719837283         79.6697563        0.994623406        -10.1602437
               605       0.995879168        -10.0260845       0.0723351971         79.6407636       0.0721044285         79.6461982        0.994494997        -10.1838018
               606       0.995828864        -10.0488302       0.0724629704         79.6155808       0.0722251287         79.6226401        0.994366588        -10.2073599
               607        0.99577856         -10.071576       0.0725907436         79.5903981       0.0723458289          79.599082        0.994238178         -10.230918
               608        0.99572827        -10.0926218       0.0727163981         79.5676867       0.0724669902         79.5762987        0.994142465        -10.2532386
               609       0.995678038        -10.1064205       0.0728330202         79.5555114       0.0725901178         79.5568182         0.99418614        -10.2702841
               610       0.995627806        -10.1202192       0.0729496423          79.543336       0.0727132454         79.5373377        0.994229815        -10.2873295
               611       0.995577574        -10.1340179       0.0730662644         79.5311607       0.0728363729         79.5178571        0.994273491         -10.304375
               612       0.995527342        -10.1478166       0.0731828865         79.5189854       0.0729595005         79.4983766        0.994317166        -10.3214205
