!{201R07S1R7}
!Johanson Technology Inc.
!www.johansontechnology.com
!Test Board Conditions:
!Substrate Type  RO4350B
!Substrate Thickness        10 mil
!Substrate Dk      3.66
!TL Type: GCPW 
!TL Trace Width  21 mil
!TL Gap  20 mil
!Electrode orientation      Horizontal
!DUT TOPOLOGY	SERIES
!Mounting Pad LxW         16x21 mil
!Agilent Technologies,N5230A,MY45001966,A.07.50.67
!Agilent N5230A: A.07.50.67
! Created Mon Mar  9 16:24:40 2020
# mhz S ma R 50
! 2 Port Network Data from SP1.SP block
! freq  magS11  angS11  magS21  angS21  magS12  angS12  magS22  angS22  
!     
               500       0.895099422            -28.788        0.438905756              60.69        0.440373601             60.783        0.894893342            -28.938
               501       0.895004409            -28.784         0.43976957             60.684        0.440783343             60.779        0.894489351            -28.958
               502       0.894135688            -28.832        0.440254121             60.626        0.441777334             60.671        0.894238635            -29.038
               503       0.894090382            -28.926        0.441094277             60.547        0.442314751             60.608         0.89357585            -29.076
               504        0.89331412            -28.963        0.441930727              60.49        0.443102498             60.589        0.893828501            -29.152
               505       0.893202644            -29.024        0.442588372             60.424        0.443659719             60.516        0.892483098            -29.206
               506       0.893321912            -29.102        0.443361509             60.383        0.444434728             60.461        0.892499511            -29.259
               507       0.892603083            -29.073        0.444077104             60.327        0.444947102             60.472        0.892397577            -29.293
               508        0.89224881            -29.112        0.445180341             60.321        0.445693169             60.429         0.89224881            -29.352
               509       0.891866805            -29.265        0.445604943             60.215        0.446066902             60.283        0.891250938            -29.392
               510        0.89123539            -29.253        0.446418746             60.199        0.447035923             60.274        0.891543265            -29.437
               511       0.891027711            -29.298        0.446983211             60.131        0.447807343             60.238        0.891130301            -29.506
               512       0.890477885             -29.38        0.447479494             60.056        0.448665978             60.168        0.890682949            -29.538
               513       0.890184075            -29.407        0.448259829             60.056        0.449293174             60.133        0.890594114            -29.587
               514       0.889836858             -29.49        0.449169637             59.971        0.449894196             60.063        0.890246737            -29.662
               515       0.889673964            -29.514        0.449863628             59.937        0.450537434             60.044          0.8899813            -29.722
               516       0.889065717            -29.556        0.450488661             59.904        0.451631124             59.971        0.889577652            -29.782
               517       0.888651183            -29.648         0.45126466             59.823        0.452200797             59.911        0.889060516            -29.793
               518         0.8886894            -29.695        0.451855944             59.752        0.453001875             59.855        0.888075727            -29.875
               519       0.888884416            -29.717        0.452579931             59.729        0.453362184             59.814        0.887350691            -29.912
               520       0.887462478            -29.766        0.453262719             59.714        0.454203002             59.753        0.888177976            -29.953
               521       0.887308276            -29.854         0.45396726             59.594        0.455066151              59.71        0.887308276             -29.99
               522       0.886848068            -29.888        0.454882495             59.589        0.455511372             59.668         0.88725657             -30.02
               523       0.886729871            -29.931        0.455555546             59.536        0.456342943               59.6        0.886729871            -30.116
               524       0.886238974            -29.959        0.456352932             59.484        0.456983843             59.584        0.886443062             -30.15
               525        0.88578827            -30.047        0.456804028             59.443        0.457909786             59.517        0.886400362            -30.213
               526        0.88562527            -30.091        0.457614735              59.38        0.458616843             59.471        0.885523315            -30.254
               527       0.885144027            -30.113        0.457998381             59.362        0.459477176             59.402        0.885551745            -30.346
               528       0.884402578            -30.218        0.459039439             59.271          0.4598858             59.352        0.885013713             -30.38
               529       0.885103118            -30.194         0.45950884             59.249        0.460568117             59.329        0.883881147            -30.409
               530       0.884566238            -30.265        0.460288749             59.179        0.461402942             59.267        0.883650158            -30.474
               531       0.883588388            -30.375        0.460945946             59.136         0.46211493             59.188        0.883690121            -30.506
               532       0.883313556            -30.354        0.461705338             59.105        0.462663134             59.184         0.88372043            -30.559
               533       0.882571705            -30.434        0.462594005             58.977        0.463020266             59.125        0.883181575            -30.659
               534       0.882063802            -30.466        0.463500279             58.987        0.463660394             59.113        0.882978238            -30.657
               535       0.882249921            -30.518        0.463971846             58.978         0.46461329             59.025        0.882656306            -30.688
               536       0.882254902            -30.558        0.464348535             58.924        0.465633352              58.98        0.882051778            -30.779
               537       0.881223551            -30.569        0.465249693             58.835        0.466214842              58.95        0.882035562            -30.853
               538       0.881434021            -30.653        0.466218829             58.774        0.466755892             58.912        0.881231087            -30.879
               539       0.880770611            -30.709        0.466511995             58.738        0.467318329             58.802        0.881074871            -30.929
               540       0.880375904            -30.778        0.467216474             58.734        0.468024025             58.754        0.880984256            -30.949
               541       0.880604838            -30.771        0.468037948             58.659        0.468954888             58.762         0.87989544            -31.037
               542       0.880088403            -30.879        0.469003732              58.59         0.46927379             58.705        0.879885778             -31.06
               543       0.879191199            -30.903         0.46928139             58.556        0.470200766             58.646        0.879798733            -31.101
               544       0.879128148            -30.966        0.470275318              58.48        0.470654468             58.593        0.879128148             -31.16
               545       0.879131869            -31.013        0.470764845             58.428         0.47185007             58.505        0.878019222            -31.256
               546       0.878434197             -31.08          0.4713128             58.353        0.472508074             58.457        0.878029756            -31.298
               547       0.878004257            -31.123        0.472439957             58.345        0.472820852             58.413        0.878004257             -31.33
               548       0.877466431            -31.145        0.472694458             58.302        0.473729588             58.395         0.87776955            -31.364
               549       0.877609928            -31.207        0.473861612             58.222         0.47440748             58.351        0.877003906            -31.467
               550       0.877089615            -31.319        0.474453843             58.162        0.475109778             58.273        0.876988642            -31.511
               551       0.876674255            -31.331         0.47504883             58.126        0.475760359             58.275         0.87687614            -31.553
               552       0.875585045            -31.335        0.475497607             58.095        0.476977986             58.244         0.87639186            -31.558
               553       0.875849603             -31.47        0.476518249             57.996        0.477122105             58.178        0.875748773             -31.59
               554       0.875877051            -31.429        0.476807576              57.98        0.477631705             58.149        0.875272226            -31.683
               555       0.875373674            -31.576        0.477467133             57.904        0.478622909             58.006        0.874769196            -31.751
               556       0.875149556            -31.569        0.478225001             57.837        0.479217067             57.992        0.874343884             -31.85
               557       0.874330065            -31.602        0.479264667             57.858        0.479816758             57.978          0.8746321             -31.84
               558       0.873896211            -31.671        0.479192328             57.753         0.48068421             57.904         0.87359443            -31.847
               559       0.873639528            -31.698         0.48059835             57.704        0.481151978             57.861        0.873337835            -31.954
               560       0.873303178            -31.777        0.481022112             57.667        0.482186493             57.831        0.873102116            -31.983
               561       0.873087199            -31.786        0.482178255             57.654        0.482344822             57.781        0.872584754            -32.023
               562       0.872343724            -31.857        0.482711495             57.572        0.482822656             57.697        0.872544612            -32.089
               563       0.871790273            -31.952        0.482960952              57.54        0.483962843             57.625        0.872493136            -32.136
               564       0.871546052            -31.957        0.483660188             57.535        0.484551944             57.601        0.871947506            -32.145
               565       0.871455115            -32.025        0.484501386              57.44        0.485171212             57.543        0.871455115            -32.252
               566       0.871214946            -32.097        0.485372668             57.356        0.485708068             57.459        0.870813829            -32.335
               567       0.870839523            -32.144        0.485834254              57.33        0.486393913             57.438        0.870338372            -32.314
               568       0.869863007            -32.165         0.48668825             57.279        0.487080633             57.408        0.870564316            -32.389
               569       0.870059009             -32.22        0.487078218              57.21        0.487863928             57.358        0.869758553             -32.46
               570       0.869453135            -32.257        0.488366851             57.141        0.488085806              57.28        0.869353041            -32.544
               571       0.868460359            -32.282        0.488539856              57.13        0.488933731             57.263        0.868960429            -32.568
               572       0.869002231            -32.336        0.489238799             57.103        0.489858774             57.192         0.86830218              -32.6
               573       0.868160456            -32.394        0.489778819                 57         0.49023013             57.155        0.868060511            -32.683
               574       0.867754543            -32.489         0.49067835             56.973        0.491300149             57.072        0.868154251            -32.722
               575       0.867572907            -32.554        0.491366995             56.897        0.491706536                 57         0.86747303            -32.772
               576       0.866778755            -32.555        0.491822347              56.86        0.492672428             57.019        0.867377712            -32.791
               577       0.866662489             -32.59         0.49266306             56.853        0.493003497             56.944        0.866762273            -32.839
               578       0.866267762            -32.627        0.493289819             56.815        0.493858067              56.93        0.866766569            -32.894
               579       0.865888919            -32.676         0.49358526             56.771        0.494495316             56.863        0.866287767            -32.923
               580       0.865864315            -32.767        0.494595136             56.679        0.495107883             56.791        0.865366026            -32.989
               581        0.86526672            -32.786        0.495108064             56.689        0.495621343             56.742        0.865167108                -33
               582       0.865059801            -32.853        0.495788137             56.603        0.496244985             56.692        0.864761072            -33.068
               583       0.864424165             -32.93         0.49662308             56.566        0.497080697             56.603        0.864523691            -33.127
               584       0.863920816            -32.942        0.496848449             56.533        0.497764521              56.61        0.864816443            -33.195
               585        0.86330121            -33.015        0.497808548             56.462        0.498611567             56.508        0.864295694            -33.284
               586       0.862980143             -33.02        0.498598311             56.395        0.498655717             56.524        0.863874795             -33.29
               587       0.862861062            -33.124        0.499161259             56.374        0.499621215             56.432        0.863258516            -33.312
               588       0.861985579            -33.137        0.499919411              56.26        0.499804314             56.376        0.862581223            -33.425
               589        0.86215193            -33.165        0.500764813             56.251        0.500476632             56.409        0.862648367             -33.43
               590       0.861443542            -33.265        0.501160484              56.21        0.501449058              56.27        0.862336601            -33.491
               591       0.861701257            -33.319        0.501714585             56.157        0.502234713             56.258        0.861701257            -33.542
               592        0.86082571            -33.328        0.502360205             56.141        0.502938902             56.181        0.861420553            -33.589
               593       0.860655228            -33.389        0.503360591             56.067        0.503302643             56.168        0.860952539            -33.627
               594       0.860673745            -33.428        0.503719258             56.032        0.504009306             56.101        0.860376531            -33.699
               595       0.859706084            -33.459         0.50379053             55.953        0.504719402             56.104        0.859112425            -33.734
               596       0.859310266             -33.55        0.504545108             55.874         0.50541718             56.022        0.859310266            -33.766
               597       0.859186754            -33.588        0.505868425              55.85        0.505810188             55.976        0.859483557             -33.84
               598       0.858321517            -33.631        0.506465655             55.816        0.506349051             55.866         0.85891463            -33.918
               599       0.858353277            -33.698        0.506717694             55.755        0.507359819              55.84        0.858649793            -33.938
               600       0.857702108            -33.708        0.507617373             55.759        0.507851194             55.866        0.858690143            -33.929
               601       0.857748943            -33.789        0.508463979             55.661        0.508405443             55.808         0.85804525             -34.02
               602       0.856939181            -33.843        0.508861976             55.629        0.509213607               55.7        0.857630071            -34.086
               603       0.856248848            -33.845        0.509272236             55.614        0.509506818             55.695        0.856741886            -34.081
               604       0.856221361            -33.905        0.510136101             55.512         0.51060617             55.664        0.856911672            -34.165
               605       0.855777211            -33.938        0.510517598             55.477         0.51151776             55.594        0.856565774            -34.246
               606       0.855194358            -34.001         0.51128709             55.451        0.511993947             55.547        0.856179504            -34.229
               607       0.854732067            -34.061        0.512070783             55.369        0.512424632             55.453        0.855913739            -34.346
               608       0.855066713            -34.114        0.512743307             55.344        0.512979488             55.434        0.854771434            -34.374
               609       0.854446844            -34.124         0.51284373             55.257        0.513730145             55.388        0.854742011             -34.43
               610       0.854174437            -34.219        0.513980414             55.247        0.514572497             55.311        0.854272783            -34.468
               611        0.85381992            -34.203         0.51441815             55.249        0.515010737             55.303         0.85411487            -34.493
               612       0.853102795            -34.278        0.515170949             55.177        0.515705027             55.241        0.853888894             -34.55
