!{251R15S4R7}
!Johanson Technology Inc.
!www.johansontechnology.com
!Test Board Conditions:
!Substrate Type  RO4350B
!Substrate Thickness        20 mil
!Substrate Dk      3.66
!TL Type: GCPW 
!TL Trace Width  34 mil
!TL Gap  10 mil
!Electrode orientation      Horizontal
!DUT TOPOLOGY	SERIES
!Mounting Pad LxW         26x52 mil
! Created Thu Mar 12 16:42:04 2020
# mhz S ma R 50
! 2 Port Network Data from SP1.SP block
! freq  magS11  angS11  magS21  angS21  magS12  angS12  magS22  angS22  
!     
               500       0.582907979            -60.577        0.807885847             29.266        0.809002754             29.249        0.581433432             -60.37
               501       0.582237267            -60.631        0.808257978             29.181        0.809654996             29.189        0.580831284            -60.401
               502       0.581232647            -60.656         0.80863028             29.103        0.809748216             29.171        0.579762338            -60.533
               503       0.581165734            -60.796        0.810027942             29.014        0.811428019             29.072        0.579762338            -60.595
               504        0.57982909            -60.853        0.810307764             28.983        0.811895249             28.984        0.579295293            -60.638
               505       0.579228603            -60.876        0.810774349             28.901        0.812175716             28.946        0.577696851            -60.699
               506       0.578229174            -60.997        0.811895249             28.816        0.812924102             28.865        0.577497356             -60.77
               507       0.578029495            -61.152        0.812549823             28.744        0.814047974             28.762        0.576500914            -60.867
               508       0.577032135            -61.111        0.813111306             28.719        0.814422944             28.739        0.575970181            -60.901
               509       0.575439937            -61.149        0.813204925             28.635        0.814235437             28.684        0.575174998            -60.973
               510       0.574843996             -61.21        0.813392194             28.572        0.814891898             28.638        0.573720014             -61.02
               511       0.574314789            -61.312        0.814235437             28.486        0.815736697             28.526        0.573191841            -61.129
               512       0.573918204            -61.415        0.815361123             28.408        0.816488364             28.439        0.572466398            -61.229
               513       0.572730089            -61.466        0.815642787             28.331        0.817146641             28.395         0.57200523             -61.31
               514       0.571741873            -61.519        0.816112444             28.336        0.816676389             28.312        0.571281289            -61.303
               515        0.57108401            -61.607        0.817146641             28.204        0.817993778             28.242        0.570033002            -61.428
               516       0.570361234            -61.615        0.817146641             28.172        0.818182149             28.221         0.56904944            -61.439
               517       0.569639373            -61.759        0.817523038             28.074        0.818841792             28.096        0.568329239            -61.581
               518        0.56865649              -61.8        0.818370564             28.031        0.819690685             28.078         0.56780603            -61.626
               519        0.56780603            -61.879        0.818841792             27.939        0.820540459             27.986        0.567479268            -61.653
               520       0.566956841            -61.989         0.81959632              27.88        0.820540459             27.871        0.566630568            -61.756
               521       0.566826309            -62.007        0.820257103             27.802         0.82186408             27.866        0.565522645            -61.794
               522       0.565587757            -62.036        0.820729417             27.745        0.821391114             27.778        0.564481873            -61.906
               523       0.564611865            -62.187        0.821202003              27.69         0.82233732              27.72         0.56389728            -61.936
               524        0.56389728            -62.211        0.821391114             27.577        0.822716107              27.64        0.562924305            -62.036
               525       0.563053938            -62.262        0.822053343             27.555        0.822905566             27.577        0.562017709            -62.094
               526       0.562729911            -62.415        0.823095069             27.448        0.824043238             27.469        0.561371034            -62.188
               527       0.562082417            -62.433        0.823189837               27.4        0.824612664             27.464        0.560596007            -62.215
               528       0.561177177            -62.503        0.824327902             27.337         0.82537251             27.358        0.560337902            -62.302
               529       0.559886505            -62.549        0.824233003             27.251        0.825087485             27.311         0.55892045            -62.417
               530       0.559242283            -62.636        0.825562581             27.203        0.826418442             27.261         0.55892045            -62.427
               531       0.558341617            -62.677        0.825657633             27.169        0.826323302             27.166        0.557699172            -62.486
               532       0.558341617            -62.715         0.82603795             27.125        0.826513592             27.134        0.556865099            -62.558
               533       0.557185749             -62.84         0.82546754             27.011        0.827846849             27.047        0.555584345              -62.6
               534       0.556800992            -62.878        0.827084725             26.941        0.828609675             27.015        0.555520385             -62.69
               535       0.555712288            -62.967        0.827846849             26.874        0.828895916             26.928        0.554753435            -62.806
               536       0.554625713            -63.011        0.828705078             26.791        0.828895916             26.881        0.554178918            -62.852
               537       0.554242723            -63.019        0.828895916             26.778        0.829564197             26.817        0.553286406            -62.894
               538       0.553668735            -63.184        0.828991352             26.677        0.830806719             26.716        0.552331739            -62.947
               539       0.553031667            -63.194         0.83061544             26.634        0.831285107             26.674        0.551632697             -63.04
               540       0.552331739            -63.291        0.830711074             26.565        0.831093719             26.583        0.550554098            -63.061
               541       0.551124858            -63.331        0.831668016             26.464        0.832051102             26.523        0.550300617            -63.219
               542       0.550617487            -63.396         0.83147654             26.415        0.832051102             26.453        0.549351102            -63.253
               543       0.549857306             -63.46        0.831859537             26.332        0.832434364             26.409        0.548340091            -63.309
               544       0.549034961            -63.555        0.831859537             26.304        0.833009588             26.353        0.547456983            -63.337
               545       0.548024532            -63.612        0.832530207             26.185        0.834065197             26.272        0.547267931            -63.469
               546       0.547583055            -63.628        0.833393291              26.21        0.834833754             26.213        0.546701166            -63.484
               547       0.547015963            -63.695        0.833585209             26.108        0.835410636             26.196        0.545129896            -63.546
               548       0.546197867            -63.806        0.834449387             26.053        0.836276706              26.08        0.544941647             -63.63
               549       0.545506588            -63.909        0.834929873             25.992        0.835795445             25.974        0.543750914            -63.674
               550        0.54469075            -63.921        0.835891675             25.893        0.836372992             25.964        0.542937701            -63.795
               551       0.543688316             -63.99        0.835506821             25.898        0.836372992             25.883        0.542500322            -63.785
               552       0.543250331            -64.103        0.836950937              25.75        0.837625712             25.835        0.541876104            -63.893
               553       0.542437868            -64.111         0.83724006             25.743        0.837625712             25.762        0.541127992            -63.946
               554       0.542063294            -64.204        0.837818604             25.653        0.838590619             25.723         0.54069207            -64.036
               555        0.54069207            -64.256        0.838011542             25.573        0.838880308             25.639        0.540007759             -64.08
               556       0.540443129            -64.318         0.83830103             25.562        0.839459987             25.541        0.539013944            -64.169
               557       0.539634864            -64.404        0.838590619             25.448        0.840136784             25.537        0.537898087            -64.222
               558       0.538703752             -64.47        0.839653302             25.435         0.84052377             25.422        0.537588537            -64.289
               559       0.538021957            -64.507        0.839556638             25.383        0.840814127             25.346        0.536846344             -64.32
               560       0.536722745             -64.62         0.83907349             25.263         0.84071733             25.296        0.535488317            -64.377
               561       0.536660956            -64.662         0.84052377             25.204        0.842170452             25.279        0.535303398            -64.468
               562         0.5356733             -64.71        0.840427007              25.14        0.841976558             25.233        0.534502819            -64.493
               563       0.535180154            -64.777        0.841492016             25.113        0.842461378             25.137        0.533764886            -64.557
               564       0.534441286            -64.874        0.842461378             25.004        0.843528965             25.052        0.533334895            -64.686
               565       0.534256728            -64.925        0.842849435             24.975        0.844014679             25.012        0.532230796            -64.694
               566       0.533334895            -64.979        0.843334758              24.89        0.844306242             24.936        0.531740819            -64.772
               567       0.531802041            -65.017        0.842946477             24.852        0.843723217             24.907        0.530823327             -64.82
               568       0.531618395            -65.084        0.843723217             24.773        0.845084235              24.83        0.530395707            -64.954
               569       0.530640019             -65.16        0.844014679             24.725        0.845278845             24.743        0.529541498             -64.96
               570       0.529785417            -65.172        0.844889669             24.649        0.845960334             24.721        0.528932192            -65.029
               571       0.529297692            -65.269          0.8456682             24.587        0.846155146             24.613         0.52820195            -65.105
               572        0.52820195            -65.303          0.8454735             24.568        0.846447448             24.598        0.527715682            -65.101
               573       0.527533447            -65.372        0.845376167             24.507        0.846837341             24.524        0.526683848            -65.206
               574       0.526926451            -65.484        0.846350003             24.373        0.847422518             24.442        0.525775082            -65.319
               575        0.52595671            -65.506        0.846447448              24.39         0.84732496             24.411        0.524988754            -65.296
               576        0.52553301            -65.582        0.847617667             24.279        0.848105735             24.294        0.524505444            -65.404
               577       0.524867884            -65.634        0.847715258             24.246        0.848789503             24.271        0.523841619            -65.459
               578       0.524203601            -65.724        0.848105735             24.178        0.848887229             24.173        0.522396189            -65.543
               579       0.523721014            -65.756        0.849082715             24.078        0.849669443             24.163        0.522275917            -65.615
               580        0.52281736             -65.79        0.849571627             24.036        0.849865109             24.097         0.52167497             -65.69
               581       0.521855182            -65.924        0.849278246              23.94        0.850452378             24.047        0.520535077            -65.675
               582       0.521314734            -65.916        0.850158693             23.917        0.851334043             23.967        0.520535077            -65.806
               583       0.520714894            -65.979        0.850844116             23.856        0.851530092             23.929        0.519696749            -65.859
               584       0.519995997            -66.003        0.851040053             23.846        0.851432062             23.866        0.518979257            -65.877
               585       0.519158537            -66.124        0.850844116             23.707        0.852412874             23.758        0.517964506            -66.018
               586        0.51850148            -66.141        0.851334043             23.695        0.853100114             23.709        0.517428088             -66.04
               587       0.517130318            -66.245        0.851726187             23.649        0.852216621             23.644        0.516416369            -66.094
               588       0.517189858            -66.266        0.852118511             23.566        0.853689618             23.657        0.516119182            -66.111
               589       0.516832719            -66.308        0.853394815             23.493         0.85388621             23.568        0.515287966            -66.204
               590       0.516119182            -66.425        0.853493072             23.421         0.85427953             23.528         0.51475432            -66.245
               591       0.515228645            -66.441        0.853591339             23.419        0.854181183             23.453        0.513688685            -66.295
               592       0.514517321            -66.518        0.854771434             23.343        0.854673031             23.372        0.512920433             -66.39
               593       0.513570418            -66.566        0.855362093             23.245        0.855362093             23.336        0.512743307            -66.472
               594       0.513215778            -66.626        0.855263622             23.267        0.855953161             23.298         0.51227127            -66.454
               595       0.512448233            -66.756        0.855756093             23.122        0.856347433             23.181         0.51156403            -66.588
               596         0.5113285            -66.769        0.855165162             23.112        0.856347433             23.188        0.510211214            -66.575
               597       0.511034241            -66.832        0.856939181             23.056        0.857136521              23.11           0.510505            -66.641
               598       0.510387465            -66.861        0.856051712             22.987        0.857235208              23.02        0.508920564            -66.746
               599       0.509858895            -66.907        0.857136521             22.935         0.85782757             22.965        0.508510588            -66.753
               600       0.509037761            -66.973        0.857728815             22.861         0.85782757             22.912        0.507750079            -66.851
               601       0.507983961            -67.106        0.858222705             22.775        0.858123904             22.853        0.506990708            -66.918
               602       0.507457879            -67.134        0.858815749             22.755        0.858815749             22.841        0.506640612            -66.927
               603        0.50722424            -67.193        0.859211339             22.691        0.859607112             22.756        0.505708205            -67.026
               604       0.505999398            -67.197        0.859112425             22.679        0.859706084             22.686        0.505300816            -67.056
               605       0.505475371            -67.251        0.860201113              22.58        0.860300153             22.633         0.50518448            -67.142
               606       0.504951888             -67.34        0.860201113             22.534        0.860993752             22.607        0.504428946            -67.149
               607       0.504196701            -67.345        0.860102084             22.484        0.860894632             22.503        0.503037081            -67.226
               608       0.503152923            -67.443        0.860894632             22.353        0.860795524              22.48        0.502284759            -67.335
               609       0.503094999            -67.473        0.861390346             22.397        0.862283349              22.44        0.502053501            -67.303
               610       0.502284759            -67.534        0.862184081             22.314        0.861985579              22.38        0.501244938            -67.432
               611       0.501244938            -67.579        0.862680537             22.273        0.862581223             22.284        0.500668191            -67.498
               612       0.500725836             -67.67        0.862283349             22.184        0.863276661             22.199         0.49997697            -67.577
