!{251R15S1R3}
!Johanson Technology Inc.
!www.johansontechnology.com
!Test Board Conditions:
!Substrate Type  RO4350B
!Substrate Thickness        20 mil
!Substrate Dk      3.66
!TL Type: GCPW 
!TL Trace Width  34 mil
!TL Gap  10 mil
!Electrode orientation      Horizontal
!DUT TOPOLOGY	SERIES
!Mounting Pad LxW         26x52 mil
! Created Thu Mar 12 16:34:56 2020
# mhz S ma R 50
! 2 Port Network Data from SP1.SP block
! freq  magS11  angS11  magS21  angS21  magS12  angS12  magS22  angS22  
!     
               500       0.938168794            -26.696        0.343899055             63.448        0.344731511             63.535        0.936334408            -26.717
               501       0.937988722            -26.781         0.34458599             63.324        0.345499654             63.435         0.93647808            -26.783
               502       0.937677108            -26.844        0.345225855             63.244        0.346021683             63.401        0.936598189            -26.845
               503       0.937583841            -26.866        0.345668746             63.269        0.346425708             63.367        0.935858337            -26.865
               504        0.93745491            -26.888        0.345979517             63.225        0.347096623             63.389        0.934330203            -26.898
               505       0.937237696            -26.965        0.346776571             63.152        0.347776112             63.247        0.934759199            -26.979
               506       0.936807708            -27.013        0.347616558             63.142        0.348458013              63.24        0.934975983             -26.99
               507       0.936904156            -27.066        0.348173061             63.005        0.348774854             63.176        0.933888797            -27.082
               508       0.936321998            -27.124        0.348758842             62.995        0.349683569             63.149        0.934706422            -27.112
               509       0.936280893            -27.132         0.34934631             62.956        0.350272596             63.086        0.933912441            -27.174
               510       0.935933688            -27.188        0.350102393             62.904        0.350667147             63.059        0.934533943            -27.212
               511       0.935882454            -27.242        0.350204164             62.879        0.351415817             62.955        0.933192641            -27.276
               512       0.935651598            -27.331        0.351046109             62.809        0.352057956             62.878        0.932962448            -27.325
               513       0.935327269            -27.321        0.351571447             62.772        0.352747217             62.911        0.932961229            -27.357
               514       0.934949406            -27.465        0.352564118             62.686        0.353254831             62.769        0.933551132            -27.448
               515       0.934722437            -27.445        0.353006472             62.701        0.353820236             62.811         0.93289479            -27.454
               516       0.934486501            -27.554        0.353690205              62.61        0.354505545             62.668        0.932874093            -27.551
               517       0.934285408            -27.552        0.354551695             62.542        0.354878399             62.666        0.933102957            -27.595
               518       0.934113505            -27.668        0.354935673              62.43        0.355794845             62.582        0.931965103             -27.69
               519       0.933749488            -27.656        0.355369685             62.495        0.356311941             62.604        0.932245674            -27.639
               520       0.933638575            -27.709        0.356064591             62.414        0.356926495             62.516        0.932027629            -27.711
               521       0.933414734            -27.729        0.356717694             62.384        0.357169736             62.488        0.931696904              -27.8
               522       0.933277129              -27.8        0.357034861             62.348        0.358228903             62.399        0.930059264            -27.837
               523       0.933040375            -27.925         0.35776713             62.257        0.358550587             62.392        0.930787275            -27.807
               524       0.932723566            -27.912        0.358552661             62.209        0.359255106             62.304        0.930685504             -27.96
               525        0.93254045            -27.961        0.358895224             62.171        0.360012582             62.304        0.929753193            -27.951
               526       0.932094845            -27.998        0.359840554             62.133        0.360462513             62.254         0.93016524            -28.057
               527       0.932151912            -28.045        0.360111255             62.073        0.360982954             62.158        0.929472821            -28.105
               528       0.931628084            -28.141        0.360946281             62.028        0.361861661             62.079        0.930234778            -28.125
               529       0.931498349            -28.161        0.361561425             61.999        0.362228059             62.089        0.929462964            -28.164
               530       0.931230411            -28.257        0.361873808             61.938        0.363000439             61.989         0.92908864            -28.232
               531       0.931120996             -28.25        0.362832449              61.86          0.3633759             61.989        0.928658675            -28.303
               532       0.930851729            -28.337        0.363354472              61.75        0.364150164             61.925        0.928603914            -28.372
               533       0.930787111            -28.371        0.363705912             61.741         0.36462829             61.877        0.927471046            -28.389
               534       0.930101745            -28.405        0.364611581             61.704        0.365241787             61.845        0.929138506            -28.446
               535       0.930054455            -28.438         0.36480298             61.715        0.366149443             61.792        0.927701753            -28.458
               536       0.930114462             -28.51        0.365499172             61.537        0.366468286             61.704        0.926694098            -28.601
               537       0.929599849            -28.579        0.366392052             61.542        0.367278955             61.658        0.927675409            -28.593
               538       0.929104812            -28.647        0.367125634             61.525        0.367717847             61.599        0.928035756            -28.644
               539       0.929196267            -28.656        0.367669374             61.465        0.368347271             61.552        0.926952449            -28.704
               540        0.92902337            -28.727        0.368405953             61.411        0.368745424             61.476         0.92677997            -28.752
               541       0.928746098            -28.773        0.368550498              61.36        0.369485162             61.475        0.926290057            -28.788
               542        0.92865363            -28.817        0.369150755             61.314        0.369831382             61.447        0.925451707            -28.821
               543       0.928196143            -28.882        0.370032406             61.255        0.370714659             61.354         0.92627461            -28.889
               544       0.927902208             -28.92        0.370298718             61.221        0.371537118             61.307        0.925874681            -28.933
               545       0.927691451            -28.958        0.371110767              61.13        0.372051924               61.3         0.92555782            -28.999
               546       0.927621416            -28.997        0.371681347             61.077        0.372323773             61.236        0.924529486            -29.098
               547       0.926969717            -29.083        0.372533683             61.069        0.373263519              61.19        0.925583377            -29.074
               548       0.926997911            -29.148        0.373103012             60.986        0.373790927             61.099         0.92497236            -29.136
               549       0.926785715            -29.147        0.373275367              60.95        0.374222014             61.075        0.924441282            -29.241
               550       0.926380227             -29.24        0.374101351             60.914        0.375050092             61.044        0.924249612             -29.23
               551       0.926350914            -29.283        0.374563569             60.853        0.375427027              60.93        0.923688496            -29.338
               552       0.926064728            -29.327        0.375138246             60.834         0.37604632             60.952        0.923509449            -29.302
               553       0.925767228            -29.392        0.375882237             60.728        0.376575276             60.893        0.923319064            -29.423
               554        0.92538133            -29.424        0.376765158             60.717        0.377112331             60.833        0.923571948            -29.468
               555        0.92530736            -29.502        0.377473108             60.631        0.377777438             60.757         0.92360445            -29.467
               556       0.925046045            -29.535        0.377583798             60.603         0.37841065             60.769        0.922387376            -29.533
               557       0.924645435             -29.57        0.378333876             60.597        0.379206026             60.705        0.922625025            -29.559
               558       0.924784841            -29.665        0.378826806             60.442        0.379612673              60.57        0.921596257            -29.671
               559       0.924255848            -29.633        0.379657695             60.509        0.380051287               60.6        0.922236289            -29.685
               560       0.923914448            -29.693        0.380173428             60.479        0.380742852             60.547        0.921789503            -29.745
               561       0.923866932             -29.74        0.380504172             60.394        0.381425235              60.49         0.92099956            -29.801
               562       0.923532907            -29.827        0.381243436              60.32        0.381902389             60.426        0.921514927            -29.849
               563       0.923484311            -29.864         0.38183833             60.214        0.382630444             60.343        0.920618127            -29.942
               564       0.923222037             -29.93        0.382301641             60.222        0.383050614              60.33        0.920356667            -29.921
               565       0.922789683            -29.972        0.383135797             60.159        0.383577152               60.3        0.920773327            -29.998
               566       0.922539502             -30.05        0.383473159             60.112          0.3845342             60.204        0.920099874            -30.053
               567       0.922497469            -30.074        0.384251157             60.064        0.384826688             60.157        0.919952033            -30.076
               568       0.922240951            -30.114         0.38485258             59.979         0.38560655             60.109        0.919696223            -30.145
               569       0.921962012            -30.151        0.385401168             59.918        0.386022863             60.101        0.919100552            -30.233
               570       0.921580325            -30.221        0.385907478             59.918        0.386752557             59.994        0.919460749            -30.271
               571       0.921268633            -30.301        0.386354775              59.85        0.387290001             59.975        0.919149774            -30.314
               572       0.921222941            -30.366        0.386958815             59.804        0.387761551             59.887        0.918046638            -30.372
               573       0.920859509            -30.366        0.387921077              59.76         0.38841266             59.862        0.918635823            -30.415
               574       0.920553989            -30.406         0.38837321              59.72        0.389089279             59.808        0.918436773             -30.48
               575       0.920450294            -30.467        0.388732043             59.643        0.389538458             59.782        0.917593526            -30.531
               576       0.920124542            -30.465        0.389535116              59.68        0.390028744             59.777         0.91779696            -30.506
               577       0.919418854            -30.597        0.390178563             59.574        0.390897961             59.644        0.918572428            -30.617
               578       0.919674411             -30.59         0.39082659             59.533         0.39123176              59.63         0.91724236             -30.65
               579       0.919196393            -30.661         0.39152393             59.473        0.392020079             59.534        0.917610367            -30.739
               580        0.91916617            -30.735        0.391916936             59.396        0.392458764             59.521        0.916841011            -30.746
               581       0.919003729            -30.747        0.392299065             59.383        0.393067624             59.446        0.915940523            -30.826
               582       0.918320288            -30.784        0.393182499             59.336        0.393862088             59.412        0.917369251            -30.854
               583        0.91839785            -30.875         0.39357804             59.237        0.394303706              59.37        0.915758289            -30.931
               584       0.918176495            -30.865        0.394390251             59.229        0.394571916             59.339        0.915959287            -30.968
               585       0.918050641            -30.964        0.395063255              59.18        0.395017775             59.236        0.914990612            -31.011
               586       0.917714757            -31.013        0.395328127             59.161        0.395555762             59.209        0.914866479            -31.068
               587       0.917402948             -31.06        0.396332906             59.063        0.396287279             59.181         0.91508225            -31.096
               588       0.917011048            -31.084        0.396711297             59.079        0.397168291             59.097         0.91511267            -31.153
               589       0.916896058            -31.144         0.39707277             58.995         0.39753018             59.102        0.914260813            -31.199
               590       0.916774907            -31.183        0.397706526             58.921        0.398072996             59.036        0.914034772            -31.251
               591        0.91642929            -31.233        0.398427183             58.872        0.398794317              58.97        0.914111055            -31.309
               592        0.91595349            -31.327        0.398908621             58.813        0.399644115             58.924          0.9140573            -31.352
               593       0.915915586            -31.357        0.399857687              58.76        0.399627577             58.871        0.913703839              -31.4
               594       0.915307162            -31.412        0.400236655             58.757        0.400605457             58.778        0.913938264            -31.489
               595       0.915275791            -31.462        0.400591726             58.684        0.401099366             58.779        0.913065589            -31.515
               596       0.915116085             -31.45        0.401445126             58.687        0.401260296             58.708        0.912591016            -31.595
               597       0.914994072            -31.552        0.401715214             58.578        0.402085378             58.685        0.911944231            -31.597
               598       0.914527169            -31.596        0.402250518             58.562        0.402899392             58.608        0.912423815            -31.657
               599       0.914157501            -31.627        0.403293319             58.521        0.403293319             58.583        0.912580169            -31.686
               600       0.914032444            -31.695        0.403656185             58.482        0.403563251             58.545        0.911510365             -31.75
               601       0.913681092            -31.671        0.404151912             58.402        0.404570896              58.51        0.911999579            -31.837
               602       0.913339507            -31.808        0.405025385             58.354        0.405025385              58.41        0.911658622            -31.868
               603       0.913263559            -31.861        0.405458238             58.281        0.405271561             58.363        0.911058216            -31.943
               604        0.91312127            -31.869        0.405768621             58.256        0.406236049             58.311        0.910811404             -31.96
               605       0.912708103            -31.944        0.406660421             58.195        0.406707242             58.256        0.910818632            -32.022
               606       0.912291556            -31.996        0.406989922             58.142        0.407411849             58.275        0.910507768            -32.054
               607       0.912086302            -32.043        0.407836352             58.077        0.407883308             58.156        0.911036828            -32.108
               608        0.91201898            -32.102        0.408417061             58.056        0.408229022               58.1        0.909502456            -32.177
               609       0.911645312            -32.131        0.408814135             58.053        0.408861204             58.105        0.909443876             -32.18
               610       0.911596251            -32.172         0.40945156             57.959        0.409215929             58.016        0.909290241            -32.264
               611       0.911053879            -32.236        0.409962433             57.937        0.410151271             58.004        0.909377201            -32.269
               612       0.910935337            -32.278        0.410381288             57.902        0.410901333             57.915        0.908840244            -32.323
