!{251R15S2R0}
!Johanson Technology Inc.
!www.johansontechnology.com
!Test Board Conditions:
!Substrate Type  RO4350B
!Substrate Thickness        20 mil
!Substrate Dk      3.66
!TL Type: GCPW 
!TL Trace Width  34 mil
!TL Gap  10 mil
!Electrode orientation      Horizontal
!DUT TOPOLOGY	SERIES
!Mounting Pad LxW         26x52 mil
! Created Thu Mar 12 16:37:39 2020
# mhz S ma R 50
! 2 Port Network Data from SP1.SP block
! freq  magS11  angS11  magS21  angS21  magS12  angS12  magS22  angS22  
!     
               500       0.858921916            -37.475        0.508983477             52.662        0.510626893             52.734        0.856551903            -37.562
               501       0.858524702            -37.518        0.510097031             52.615         0.51103753             52.702        0.855958671            -37.626
               502       0.857807814            -37.594        0.510669592             52.598        0.512023623             52.626        0.856031997            -37.649
               503       0.857797569             -37.65        0.511722851             52.473        0.512371319             52.609        0.854938375            -37.704
               504       0.857071075            -37.719        0.512527106             52.414        0.513353868             52.521        0.855001425            -37.794
               505       0.856661094            -37.765        0.513403758              52.38        0.513936004             52.485        0.854494051            -37.823
               506       0.856142539            -37.797        0.514098192             52.334        0.514808935             52.443        0.853976808            -37.887
               507       0.855666431            -37.844        0.514818914              52.26        0.515471305             52.359         0.85399336            -37.986
               508       0.855295909             -37.96        0.515604139             52.184        0.516198092             52.291         0.85313232            -38.021
               509       0.854826531            -37.997        0.516093029             52.122        0.517282746             52.236        0.852467819            -38.089
               510       0.854235048            -38.083        0.516984337             52.085         0.51781829             52.183        0.852074142            -38.138
               511       0.853863475            -38.171        0.517473884             51.929        0.518666784              52.09        0.851801571            -38.271
               512       0.853308557            -38.201        0.518389386             51.927        0.519704049             52.005        0.851640097            -38.287
               513       0.852997342            -38.295        0.519394897             51.848        0.520112963             51.927        0.850349926            -38.393
               514       0.852402864            -38.377         0.52004976             51.777        0.521068597             51.838        0.850442392            -38.454
               515       0.852149237            -38.401        0.520673722             51.712        0.521934085             51.775        0.849895754            -38.507
               516       0.851596721            -38.483        0.521715789             51.641        0.522316783             51.729        0.850029466             -38.56
               517       0.851152379            -38.563        0.522104357             51.623        0.523006778             51.674        0.848803805            -38.617
               518       0.850662914            -38.637        0.523127438             51.485        0.524031628             51.586         0.84821803            -38.735
               519       0.850467495            -38.649        0.523368668             51.459        0.524635555             51.605        0.847340022            -38.724
               520       0.849772774            -38.756        0.524267351             51.384        0.525354931              51.49        0.847525575            -38.831
               521       0.849067554            -38.811        0.525221197             51.384        0.526129005             51.432         0.84730983            -38.855
               522        0.84882532            -38.894        0.526039463             51.298        0.526706073             51.369        0.846288278            -38.921
               523       0.848292038            -38.928         0.52643577             51.227        0.527588586              51.34        0.845853968            -39.003
               524       0.847928517            -38.996        0.527362496             51.169        0.528091578             51.263        0.845394156            -39.066
               525       0.847188174            -39.038        0.528238298             51.142         0.52896859             51.205        0.845239695            -39.126
               526        0.84702616            -39.111         0.52874567             51.024         0.52984254             51.103        0.844494497            -39.223
               527       0.846576843             -39.23        0.529378605             50.941        0.530782243             51.013        0.843949354            -39.255
               528        0.84582145            -39.281        0.530552902             50.891        0.531164076             50.977         0.84416763            -39.334
               529       0.845461817            -39.349        0.530815992             50.859        0.532039649             50.907        0.842934828              -39.4
               530       0.845327504            -39.394        0.531526595             50.776        0.532506606             50.876        0.841637349            -39.459
               531       0.844544471            -39.398        0.532442266             50.742        0.533485381             50.838        0.842214129            -39.519
               532       0.844138139            -39.484        0.533597176             50.689        0.534150356             50.731        0.841615107            -39.571
               533       0.843491579            -39.562        0.534171547             50.571        0.534786888              50.72        0.841551602            -39.656
               534       0.842903238            -39.641        0.535152701             50.511        0.535337569             50.645        0.841255123            -39.723
               535       0.842462911             -39.71         0.53573595             50.459        0.536167876             50.561        0.840815657            -39.785
               536       0.842054311            -39.817        0.536525173             50.419        0.536834111             50.471        0.839924218            -39.825
               537       0.841718596            -39.819        0.537052722              50.34        0.537671383              50.44        0.839009584            -39.933
               538       0.841196553            -39.919        0.537709221             50.239        0.538514603             50.356        0.839165236            -39.989
               539        0.84072132            -39.988        0.538272337             50.197        0.539264785             50.275        0.838305009            -40.072
               540       0.840282098            -40.027        0.539231322             50.171        0.539728201             50.257        0.838059997            -40.073
               541       0.839708403            -40.118        0.539794555             50.067         0.54060306             50.199        0.837295003            -40.175
               542       0.839438824            -40.162        0.540616195             50.055         0.54111435             50.107        0.836448201            -40.228
               543       0.838967153            -40.234        0.541059414             49.999        0.541745057             50.093        0.835400936            -40.279
               544       0.838336485            -40.301        0.542335917             49.897        0.542585729             49.967        0.836119529            -40.369
               545       0.838070034            -40.329        0.542788094              49.84        0.543163168             50.011        0.834603713            -40.392
               546       0.837577405            -40.438        0.543469221             49.756        0.544157918             49.879        0.834593413            -40.461
               547       0.836992437            -40.486        0.544153634              49.74        0.544717758             49.794         0.83420259            -40.553
               548       0.836221991            -40.519        0.544529716             49.658        0.545659329             49.807        0.834106652            -40.621
               549        0.83596592            -40.583        0.545366645             49.618        0.546183496             49.698        0.833467314            -40.691
               550       0.835432948            -40.653        0.546338239             49.551        0.546904628             49.628        0.833415549             -40.73
               551       0.834884477            -40.727        0.546986221             49.476         0.54786857             49.575         0.83267665            -40.793
               552       0.834339978             -40.81        0.547763455             49.408        0.548647057             49.494         0.83242105            -40.849
               553        0.83412829            -40.858        0.548507854              49.32        0.549139711             49.445        0.831347989            -40.943
               554        0.83377136            -40.911        0.549031134             49.229         0.54972688               49.4        0.830418418            -41.047
               555       0.832927551            -41.035         0.54973986             49.201        0.550753452             49.301        0.830724899            -41.052
               556       0.832664754            -41.045        0.550643075              49.14        0.551150469             49.263        0.830080443            -41.132
               557       0.832219526            -41.114        0.550728944              49.14        0.552252768             49.178        0.829445588            -41.142
               558       0.831787422            -41.176        0.552029579             49.023        0.552220276              49.18        0.828919486            -41.232
               559       0.831057445            -41.251        0.552752919             48.939        0.553325958             49.093         0.82828738            -41.348
               560       0.830801701            -41.315        0.553155681             48.918        0.553984198             49.039        0.827174956            -41.369
               561       0.830155854            -41.393         0.55406362             48.862        0.554765742             48.916        0.827674614            -41.438
               562       0.829738867            -41.434        0.554359423             48.796        0.555573387             48.898         0.82735412            -41.474
               563       0.829305423            -41.509        0.555219237             48.705        0.556178895             48.811        0.826446044            -41.595
               564       0.828820557            -41.576        0.555853717             48.658        0.557006822             48.776        0.826057949            -41.598
               565       0.828218356            -41.666        0.556409904             48.582        0.557692561             48.683        0.825933063             -41.69
               566       0.827922186            -41.724        0.557428951             48.512        0.558071084             48.623        0.825257578            -41.757
               567       0.826943863            -41.726         0.55856797             48.464        0.558825259             48.634        0.825136936            -41.822
               568       0.826814739            -41.831        0.559446048             48.387        0.559252855             48.493        0.824628252            -41.889
               569       0.826255733            -41.867        0.559776272              48.33        0.560163086             48.478        0.824355397            -41.937
               570       0.825991263            -41.968        0.560435263             48.236        0.560822531             48.393        0.823427664            -42.011
               571       0.825300829            -42.004        0.560999251             48.192        0.561968899             48.312        0.823023586            -42.099
               572       0.825071409            -42.026        0.561489369             48.179        0.562006758              48.32        0.822605366            -42.112
               573       0.824573784            -42.112        0.562120628             48.111        0.563221886              48.17        0.821919952            -42.211
               574       0.824062354            -42.181        0.563196665             48.019         0.56352096             48.128        0.821599326            -42.289
               575       0.823220364            -42.235        0.563658558             47.957        0.564762829             48.085        0.821421574            -42.344
               576       0.823004401            -42.318        0.564419692             47.921        0.564809714             48.053        0.820544535            -42.368
               577       0.822602658            -42.362        0.565054201              47.83        0.565770252             47.974        0.820616242            -42.429
               578       0.822187366            -42.433        0.565940532             47.785        0.566201218             47.904        0.819541214            -42.506
               579       0.821802858            -42.491          0.5663927             47.719        0.567110446              47.83         0.81906364            -42.567
               580       0.821254118            -42.561        0.567253991              47.68        0.567842064             47.779        0.818893757            -42.569
               581       0.820847623            -42.602        0.567822431             47.616        0.568411093             47.708        0.818205783             -42.68
               582       0.820158869            -42.661        0.568719325              47.51        0.569243376             47.677        0.818084164            -42.748
               583       0.819879604            -42.735        0.569246124             47.493        0.569705067             47.555        0.817146797            -42.834
               584        0.81922301            -42.821        0.569838964             47.431        0.570429716             47.518        0.816868486             -42.87
               585       0.818716084             -42.85        0.570799156             47.321        0.571193586             47.471        0.817021194             -42.94
               586       0.818154211            -42.912        0.571656532             47.258        0.571656532             47.407        0.816366491            -43.034
               587       0.817770624            -43.019        0.572046728             47.139        0.572837586             47.323        0.815795877            -43.097
               588       0.817306564            -43.071        0.572908132             47.145        0.572974094             47.238        0.815708498            -43.133
               589       0.817007225            -43.066        0.573358027             47.076        0.573952428             47.223         0.81465907            -43.217
               590       0.816434492            -43.178        0.574012492             47.005        0.574607571             47.162        0.814369208            -43.246
               591       0.816114429            -43.209        0.574514582             46.939        0.575242621             47.083        0.813862534             -43.35
               592       0.815702719            -43.244        0.575349725             46.939          0.5757473             47.043        0.813171053             -43.36
               593       0.815264094            -43.288        0.576034262             46.857        0.576631437             46.996        0.812827364            -43.411
               594       0.814487944            -43.413        0.576546925              46.79        0.577344005             46.898        0.812614674            -43.492
               595       0.814243507            -43.467        0.577170737             46.716        0.578035224             46.858        0.811529486            -43.546
               596       0.813758183            -43.547        0.578023332             46.635        0.578689189             46.762        0.811232552            -43.626
               597       0.813289942            -43.568        0.578689232             46.592        0.579022448             46.732        0.811606284            -43.661
               598       0.812712935            -43.614        0.579344878             46.549        0.580145826             46.675        0.811030472            -43.695
               599       0.812548665             -43.66        0.579561304             46.494          0.5804962              46.61        0.809840293            -43.812
               600       0.812049492            -43.702        0.580807879              46.43         0.58087475             46.544        0.809622369            -43.879
               601       0.811577047            -43.819        0.581473271             46.379        0.581607176             46.442        0.809151337            -43.908
               602       0.811141017            -43.854        0.582098343             46.316        0.582165363             46.398        0.808437337            -43.995
               603       0.810718271            -43.934        0.582331068             46.256        0.582867662             46.368        0.807829969            -44.029
               604       0.810141085            -44.028         0.58319079             46.161        0.583593784             46.284        0.807533703            -44.104
               605       0.809555089            -44.048        0.583709024             46.112        0.584314155             46.267         0.80760018            -44.144
               606       0.809031064            -44.098        0.584406715             46.094         0.58501257             46.213        0.806984508            -44.175
               607       0.808948398            -44.154        0.584885452             46.074        0.585491803             46.082        0.805973605            -44.255
               608       0.808450465            -44.188        0.585535749             45.986        0.586142774             46.077        0.805662993            -44.312
               609       0.807684266            -44.287        0.586329334             45.876         0.58700476             45.987        0.805548369            -44.417
               610       0.807219281            -44.388         0.58700463             45.826        0.587951533             45.868         0.80499193            -44.456
               611       0.806609113            -44.395        0.587642401             45.759         0.58845482             45.877        0.805124652            -44.509
               612       0.806458356            -44.451        0.588548078             45.756        0.588683612             45.854        0.803677752            -44.498
