!{251R15S360}
!Johanson Technology Inc.
!www.johansontechnology.com
!Test Board Conditions:
!Substrate Type  RO4350B
!Substrate Thickness        20 mil
!Substrate Dk      3.66
!TL Type: GCPW 
!TL Trace Width  34 mil
!TL Gap  10 mil
!Electrode orientation      Horizontal
!DUT TOPOLOGY	SERIES
!Mounting Pad LxW         26x52 mil
! Created Thu Mar 12 17:13:19 2020
# mhz S ma R 50
! 2 Port Network Data from SP1.SP block
! freq  magS11  angS11  magS21  angS21  magS12  angS12  magS22  angS22  
!     
               500      0.0736265721            -91.916        0.995943224             -1.886        0.996975719             -1.862       0.0731028959            -92.791
               501      0.0732740168             -91.91        0.995863924             -1.915         0.99655208             -1.879       0.0726273169            -92.678
               502      0.0730129675            -91.647        0.995978584              -1.96        0.996437354             -1.947       0.0726356789            -92.791
               503      0.0730834732            -92.075        0.996710833             -1.943        0.996596089             -1.982       0.0724134399            -92.806
               504      0.0725353983            -91.917        0.996666819             -1.988        0.995978584             -1.986       0.0721605775            -92.723
               505      0.0724519369            -91.966        0.996666819             -2.034        0.996666819             -1.972       0.0720360681            -92.741
               506      0.0721605367            -92.119        0.997010551             -2.035        0.996436791             -2.035       0.0717215645            -92.876
               507        0.07185372            -92.066        0.995976881             -2.081        0.997239006             -2.062        0.071268769             -92.79
               508      0.0717928499            -92.205        0.997082729             -2.066        0.996394207             -2.113       0.0712247927            -92.838
               509      0.0716611349            -92.314        0.996744119             -2.116        0.996514636             -2.156       0.0707104631            -93.042
               510      0.0711793316            -92.211        0.996790536             -2.137        0.996905302             -2.155        0.070713756            -93.024
               511      0.0710804224            -92.323        0.996896336             -2.183        0.996666819             -2.144       0.0705504844            -93.005
               512      0.0709717495            -92.148        0.996518834              -2.17        0.997092642             -2.163       0.0700866838            -92.938
               513      0.0706149154            -92.284        0.996773407             -2.213        0.997002949             -2.175       0.0699755697            -92.982
               514      0.0704206452             -92.17        0.996207943             -2.247        0.997240712             -2.226       0.0697428997            -93.103
               515      0.0703742853            -92.262        0.996584199             -2.263        0.997043249             -2.259       0.0696248058            -93.218
               516      0.0699458967            -92.278        0.996694914             -2.274        0.997154015             -2.287       0.0694084334            -93.168
               517      0.0698396819            -92.348        0.997131078             -2.328        0.996671988             -2.255       0.0695107945            -93.229
               518      0.0694937275            -92.294         0.99711582             -2.346         0.99700103             -2.348       0.0688803915            -93.138
               519      0.0693363351            -92.313        0.996691794              -2.38        0.997380522             -2.363       0.0688590271            -93.076
               520      0.0690145271            -92.488        0.996874568             -2.343        0.997104133             -2.401       0.0687211655            -93.267
               521      0.0687870895            -92.424        0.997141827             -2.368        0.997027034             -2.401       0.0683607681            -93.206
               522      0.0687969055            -92.347         0.99659546             -2.403        0.997398944             -2.402       0.0682211293            -93.168
               523      0.0684895183            -92.488        0.996492677             -2.451        0.997296079             -2.486       0.0678772301            -93.441
               524      0.0681553575            -92.532        0.996437354             -2.473        0.997240712              -2.47       0.0676861793             -93.39
               525       0.068053427             -92.47        0.997011115             -2.482        0.996896336             -2.498       0.0672202309            -93.475
               526      0.0675729612            -92.405        0.997408238             -2.539         0.99694902             -2.542       0.0671541646            -93.445
               527      0.0676082975            -92.416        0.997011115             -2.546        0.996896336             -2.568       0.0670193174            -93.394
               528      0.0673988981            -92.494        0.996329058             -2.588        0.997476785             -2.626       0.0664818042            -93.458
               529      0.0671042459            -92.561        0.996666819               -2.6        0.997240712             -2.634       0.0665656228            -93.475
               530      0.0671205028            -92.649        0.997252655             -2.607        0.997023055             -2.614       0.0664668659             -93.47
               531      0.0667867442            -92.497        0.997103573              -2.61         0.99744802             -2.635       0.0661211308             -93.35
               532      0.0665101543            -92.806        0.997098254             -2.706        0.997213055             -2.656       0.0659459237             -93.56
               533      0.0662422559             -92.68        0.996517922             -2.725        0.997551012             -2.666       0.0656651762            -93.611
               534      0.0660465292            -92.674        0.997470361             -2.739        0.997011115              -2.73       0.0654560811            -93.465
               535       0.066120774            -92.847        0.995721601             -2.754        0.997557478             -2.731       0.0651985487             -93.72
               536      0.0656296367            -92.594        0.997125907             -2.777        0.997240712             -2.774       0.0652228842            -93.723
               537      0.0654439473            -92.857        0.996596795              -2.76        0.997629967              -2.81       0.0649934343            -93.598
               538      0.0652679542            -92.827        0.996896336             -2.799        0.997470361             -2.801       0.0648261157            -93.712
               539      0.0648709115            -92.805        0.997240712             -2.873        0.997125907             -2.875       0.0645951632            -93.606
               540      0.0649232123            -92.603        0.996437354             -2.864         0.99735553             -2.827       0.0645654229            -93.708
               541      0.0645653992            -92.818        0.997355163             -2.879        0.997469994             -2.898       0.0641283167            -93.781
               542      0.0645654229            -92.846        0.996896336             -2.933        0.997470361             -2.897       0.0641209577            -93.603
               543      0.0645056014            -92.882        0.997005212             -2.939        0.997349625             -2.942       0.0634596144            -93.968
               544      0.0643872683            -92.753        0.997125907             -2.951         0.99735553             -2.916       0.0635769955            -93.809
               545      0.0638778073            -92.813        0.996666819             -3.003        0.996896336             -3.002       0.0631902393            -93.895
               546      0.0632921721            -93.116        0.996896336             -3.007        0.996322642              -3.03       0.0630449058            -93.773
               547      0.0637235556             -92.89        0.996666819             -3.051        0.997470361             -3.031       0.0627191263            -93.868
               548      0.0633320888             -93.01        0.997410216             -3.022        0.997525053             -3.078       0.0627009054            -93.888
               549      0.0630344212            -93.115        0.997304479             -3.079        0.997419305             -3.106       0.0623128722            -94.099
               550      0.0627626169            -93.068        0.996669214             -3.118        0.997932217             -3.136       0.0624239209            -93.806
               551      0.0629816534            -93.016        0.997043387             -3.156        0.997617497             -3.103       0.0619746464            -94.008
               552       0.062609091            -93.061        0.996523164             -3.147        0.997785982             -3.164       0.0617642822            -94.166
               553      0.0622961564            -93.036        0.996692642             -3.175        0.997840787             -3.144       0.0616752974            -94.165
               554      0.0621887531            -93.191        0.997842159             -3.182         0.99726792             -3.198       0.0616966877            -93.858
               555      0.0620376808            -93.191        0.997712823             -3.215        0.996909086              -3.23       0.0610457669            -94.126
               556      0.0616560203            -93.211          0.9978735             -3.231        0.996840075             -3.236       0.0610907546            -94.142
               557      0.0616597418            -93.345        0.997244619             -3.283        0.997703973             -3.256       0.0609960486            -94.127
               558      0.0612697737            -93.257        0.997117357             -3.323        0.997921263             -3.348       0.0606870848            -94.106
               559      0.0614632269            -93.296        0.997620483             -3.362        0.997161168             -3.275        0.060431776            -94.265
               560      0.0609396562            -93.333        0.997011115             -3.317         0.99735553             -3.362       0.0603253708             -94.31
               561      0.0608037682            -93.581        0.997540403             -3.357        0.997540403             -3.401        0.060170067            -94.203
               562      0.0604251476            -93.338        0.997166591             -3.395        0.997855647             -3.354        0.059905641            -94.402
               563        0.06064138            -93.489        0.997169705               -3.4        0.997743888             -3.421       0.0598989316             -94.38
               564      0.0601935559            -93.244        0.996666819             -3.391        0.997814935             -3.491        0.059401854            -94.365
               565      0.0600067354            -93.448        0.997240712             -3.488        0.997585206             -3.452       0.0593266738            -94.385
               566       0.059886334            -93.411        0.997074772             -3.517        0.997878644             -3.503       0.0590850664            -94.556
               567      0.0597367519            -93.425        0.997221435               -3.5        0.997910529             -3.445       0.0589782124            -94.351
               568      0.0597104027            -93.353        0.996896336             -3.506        0.997814935             -3.549        0.058620565            -94.619
               569      0.0591834121            -93.287        0.997929819             -3.554        0.997470361             -3.578       0.0584722762             -94.49
               570      0.0590608917            -93.516        0.997240712             -3.535        0.997929819             -3.597       0.0583377937            -94.541
               571      0.0587692299             -93.37        0.997814935             -3.587        0.997929819             -3.613       0.0582706684            -94.377
               572      0.0588653903             -93.81        0.996919355             -3.604        0.997837974             -3.568       0.0579308669             -94.61
               573      0.0586945243            -93.603        0.996661281             -3.692        0.998039171             -3.634       0.0576763259            -94.547
               574      0.0583243624            -93.616         0.99735553             -3.668        0.997929819             -3.642        0.057723147            -94.561
               575      0.0582455871            -93.619        0.997500283             -3.698        0.997844867             -3.692       0.0574662724            -94.746
               576      0.0580488322            -93.744        0.997570247             -3.724        0.997799972             -3.707       0.0572326016            -94.669
               577      0.0577696851            -93.686        0.997814935             -3.759         0.99735553             -3.746       0.0570164272            -94.785
               578      0.0576583197            -93.913        0.997957352             -3.765        0.997268226             -3.754        0.056965509            -94.723
               579      0.0574675791            -93.971        0.997982446             -3.801        0.997063694             -3.787        0.056698674            -94.813
               580      0.0573898246            -94.184        0.996976445             -3.825        0.997895117             -3.779       0.0564527233            -94.779
               581      0.0571109493            -93.855         0.99785946             -3.807        0.997629721             -3.792       0.0565092286            -94.858
               582      0.0569111886            -93.796        0.998039329             -3.884        0.997120524             -3.843       0.0560980359            -95.037
               583      0.0567072719             -93.99         0.99767423             -3.881        0.997559375             -3.883       0.0559936469             -95.21
               584      0.0567740662            -93.649         0.99735553             -3.874        0.997470361             -3.864       0.0556608713            -95.064
               585      0.0564702335            -93.747        0.998089723             -3.914        0.997515341             -3.944       0.0556569731            -94.877
               586      0.0564732083            -93.895        0.996764268             -3.944        0.998149885             -3.902       0.0554807676            -94.912
               587      0.0561823628            -94.017        0.997585206             -3.948        0.997814935             -3.971       0.0554370357            -95.077
               588      0.0559483958            -93.867        0.997212328             -3.981        0.997983104             -3.992       0.0549272225            -95.303
               589      0.0558001506            -94.136         0.99709232              -3.96        0.997951812             -4.012       0.0549079679            -95.309
               590      0.0556274453            -93.999        0.997100916             -4.025        0.998134611             -4.039       0.0545995565            -95.016
               591      0.0554119491            -94.021        0.996904202             -4.009        0.998167503             -4.062       0.0546013558            -95.258
               592      0.0552406311            -93.838        0.997949654             -4.106        0.997605034             -4.049       0.0543448797            -95.437
               593      0.0550220716            -94.212        0.998014699             -4.088        0.997555202             -4.082       0.0545741447            -95.286
               594      0.0546706919            -94.118        0.997366026             -4.127         0.99805522             -4.159       0.0539889114             -95.54
               595      0.0547575936            -94.126        0.998175726             -4.149        0.997112945             -4.121       0.0540373888            -95.392
               596      0.0543696089            -94.287        0.998301006             -4.149        0.996681068              -4.16       0.0538091595            -95.282
               597      0.0541874447            -93.889        0.998041664             -4.183        0.998041664             -4.165       0.0534747388            -95.227
               598      0.0541611147             -94.33        0.997786431              -4.21        0.997671564             -4.217       0.0534795315            -95.682
               599      0.0539689856             -94.26        0.997686866             -4.213        0.998031515             -4.226        0.053265285            -95.422
               600      0.0537137932            -94.367        0.998127043             -4.235        0.997782362             -4.268        0.053007317            -95.164
               601      0.0536881444            -94.053        0.997765295             -4.271        0.998109971             -4.276       0.0530430385            -95.612
               602      0.0535582307             -94.34        0.997186112              -4.27        0.998104978             -4.256       0.0527443836             -95.72
               603      0.0532147133            -94.486        0.998002723             -4.274        0.997772951             -4.283       0.0526176837            -95.444
               604       0.053265705            -94.214        0.997924487             -4.345        0.997924487             -4.318       0.0522814566             -95.47
               605      0.0531105211            -94.353        0.997770278             -4.358         0.99800005             -4.333       0.0522252543            -95.564
               606      0.0525930561             -94.36        0.997995098             -4.398        0.998110003             -4.449        0.051931206            -95.523
               607      0.0524811909            -94.247        0.998125571              -4.41        0.997823394             -4.389       0.0517134702            -95.703
               608      0.0524886223            -94.622        0.997734923             -4.438        0.997964687             -4.414       0.0517505743            -95.745
               609      0.0523888958            -94.597        0.998134909             -4.452        0.997560502             -4.409       0.0515868779            -95.649
               610      0.0520229842             -94.83        0.997804047             -4.474         0.99791893             -4.445       0.0511911942            -95.614
               611      0.0517886562            -94.457         0.99754993             -4.473        0.998354184             -4.486       0.0511133849            -95.606
               612      0.0517882534            -94.611         0.99673857             -4.525        0.998415498             -4.534       0.0508605748            -95.668
