!{251R15S0R5}
!Johanson Technology Inc.
!www.johansontechnology.com
!Test Board Conditions:
!Substrate Type  RO4350B
!Substrate Thickness        20 mil
!Substrate Dk      3.66
!TL Type: GCPW 
!TL Trace Width  34 mil
!TL Gap  10 mil
!Electrode orientation      Horizontal
!DUT TOPOLOGY	SERIES
!Mounting Pad LxW         26x52 mil
! Created Thu Mar 12 16:28:34 2020
# mhz S ma R 50
! 2 Port Network Data from SP1.SP block
! freq  magS11  angS11  magS21  angS21  magS12  angS12  magS22  angS22  
!     
               500       0.989937417            -14.972        0.140947618             74.901        0.141305069              75.02        0.988684533            -15.245
               501       0.989880862            -14.999        0.141280729             74.915        0.141590113             75.065        0.988172874            -15.246
               502       0.989833183            -15.056        0.141583293              74.81        0.141975043             75.007         0.98858043            -15.283
               503       0.989718725            -15.042        0.141827937             74.848        0.142302256             74.962        0.989035287            -15.334
               504       0.989720003            -15.089        0.142073261             74.758        0.142646903             74.952        0.988353598            -15.369
               505       0.989727608            -15.116        0.142336304             74.792        0.142779444             74.891        0.987564989            -15.388
               506       0.989700282            -15.116        0.142594802              74.78        0.143005814             74.863        0.988220125            -15.361
               507       0.989682824            -15.151        0.143019756             74.728        0.143217482             74.804        0.987747714            -15.408
               508       0.989629876            -15.178        0.143127405             74.666        0.143539952             74.845        0.987581163            -15.439
               509       0.989579181             -15.23        0.143466515             74.597        0.143863476             74.823        0.987530573            -15.498
               510       0.989560448            -15.276        0.143629063             74.668         0.14394359             74.755        0.987057218              -15.5
               511       0.989528976            -15.291        0.143988735             74.578        0.144237609              74.74        0.986912196             -15.53
               512       0.989482064            -15.308        0.144230771             74.597        0.144596548             74.627        0.986979032            -15.579
               513       0.989446618             -15.36        0.144424997             74.501        0.144841285             74.654        0.986830056            -15.595
               514       0.989382665            -15.355         0.14481525             74.502        0.145215942             74.622        0.987675536            -15.642
               515       0.989378908             -15.42        0.144998212              74.48         0.14528228             74.566        0.986421769             -15.66
               516       0.989315586            -15.413        0.145373368             74.445        0.145674941              74.62        0.987153867             -15.67
               517       0.989238573            -15.423        0.145563015             74.431        0.146133923             74.574        0.987190671            -15.722
               518       0.989219418            -15.499        0.145996563             74.408        0.146265747             74.526        0.987398885            -15.737
               519        0.98915897            -15.516        0.146223136             74.368        0.146695264             74.451        0.987565918            -15.783
               520       0.989130545             -15.56        0.146488527             74.362        0.146758618             74.495        0.987423851            -15.794
               521       0.989119855            -15.592        0.146790828              74.28        0.147061476             74.388        0.987072198             -15.83
               522       0.989085053            -15.595        0.147022444              74.25        0.147293519             74.371        0.986810221            -15.878
               523       0.989005339            -15.636        0.147230788             74.229        0.147689165             74.451         0.98673069            -15.877
               524       0.988998047            -15.622        0.147620079              74.23        0.147773117              74.37        0.986155574            -15.944
               525       0.988947146            -15.698        0.147765511             74.174        0.148157309             74.351        0.986331905            -15.936
               526       0.988902906            -15.744        0.147963179             74.075        0.148509301             74.299        0.985833684            -15.993
               527       0.988842759            -15.769        0.148278177             74.067        0.148791197             74.269        0.986909291            -16.046
               528       0.988790867             -15.78        0.148800519             74.076        0.149092036             74.268        0.987766848            -16.009
               529       0.988752132             -15.81        0.148897509             74.071        0.149326688             74.229        0.987046091            -16.071
               530       0.988722227            -15.865        0.149201881             74.054        0.149545827             74.181        0.987129879            -16.072
               531       0.988701945              -15.9          0.1494567             74.027        0.149715025             74.126        0.986427993            -16.134
               532       0.988648419            -15.914        0.149827618             74.004        0.149982945             74.103        0.987169835            -16.165
               533       0.988614547            -15.943        0.150081443             73.965         0.15037547             74.058        0.986567936            -16.162
               534       0.988549141            -15.941         0.15034821             73.927        0.150729502             74.073        0.986275541            -16.243
               535       0.988514625            -15.976        0.150758948             73.873        0.150845757             74.099        0.986581799            -16.256
               536       0.988448477            -16.061        0.150922516             73.887        0.151340107              74.02        0.986288652            -16.234
               537       0.988390522            -16.021        0.151174511             73.823        0.151627709             74.021        0.987025953             -16.31
               538       0.988413351            -16.084        0.151491618             73.784        0.151631211             73.928        0.986026536             -16.36
               539       0.988280232            -16.132        0.151802914             73.803        0.152187894             73.947        0.986575005            -16.385
               540       0.988281646            -16.163        0.151978002             73.811        0.152205634             73.887         0.98646284            -16.407
               541       0.988261539            -16.152        0.152220062             73.781        0.152448057             73.902        0.985761595            -16.426
               542       0.988201894            -16.184        0.152491516             73.716        0.152860643             73.858        0.985929093            -16.487
               543       0.988085049            -16.254        0.152842569             73.722        0.153177271             73.876        0.987061761            -16.414
               544       0.988066672            -16.249        0.152927733             73.691         0.15345684             73.858        0.985794182            -16.542
               545       0.988076759            -16.278        0.153529093             73.637         0.15354677             73.761        0.986371884            -16.557
               546       0.988018502            -16.291        0.153590756             73.588         0.15401573             73.819        0.985973125            -16.541
               547       0.987941662            -16.318        0.153915125             73.539        0.154305462             73.738        0.986918523            -16.616
               548       0.987921923            -16.384        0.154249094             73.561        0.154444563             73.714         0.98576325             -16.65
               549       0.987894215            -16.513        0.154422451             73.454        0.154778432             73.669         0.98516833            -16.653
               550       0.987874898            -16.469        0.154686335             73.491        0.155042924             73.574        0.985149066            -16.686
               551       0.987764527            -16.466        0.155007755             73.481        0.155418755             73.609         0.98606019            -16.729
               552       0.987754153            -16.506        0.155399231             73.373        0.155506614             73.588        0.986049834            -16.806
               553       0.987725414            -16.571        0.155699145             73.337        0.155806736             73.558        0.985340261            -16.802
               554       0.987627747            -16.571        0.155755461             73.395        0.156366344             73.507        0.985356266            -16.817
               555       0.987611155            -16.595        0.156237754             73.301        0.156561865             73.472         0.98545316            -16.893
               556       0.987608747             -16.61        0.156453372             73.339        0.156687708             73.432        0.984770267            -16.851
               557       0.987451165            -16.668        0.156879294              73.27          0.1569877             73.451        0.986769293             -16.87
               558        0.98747663            -16.677        0.156973675             73.261        0.157335537               73.4        0.985432375            -16.941
               559       0.987446587            -16.758        0.157421343             73.157        0.157457595             73.402        0.985175522            -16.972
               560       0.987393964            -16.727        0.157612431             73.157        0.157884853             73.344        0.985576791            -17.024
               561       0.987343794            -16.752        0.157767811             73.145        0.158204343             73.313        0.984959562            -17.075
               562       0.987260593            -16.822        0.158081774             73.134         0.15842795             73.338        0.985443665            -17.042
               563       0.987275498            -16.841        0.158375631             73.042         0.15872245             73.239        0.985118237            -17.113
               564       0.987221952            -16.926        0.158585985             72.974        0.158914968             73.232        0.985064808            -17.155
               565       0.987142313            -16.901         0.15903026             72.993        0.159323474             73.198        0.985552509             -17.18
               566       0.986908384            -16.944        0.159322399             72.953        0.159579404             73.169        0.986681166            -17.201
               567       0.986973817            -16.988        0.159498143             73.008         0.15984742             73.145        0.985724683            -17.211
               568       0.986980755            -16.961        0.159830142             72.961        0.160106397             73.113        0.985958611             -17.23
               569        0.98697233             -17.05         0.16010503             72.883        0.160363297             73.076        0.985155933            -17.281
               570       0.986909523            -17.071        0.160500851              72.89        0.160630252             73.026        0.985206662             -17.32
               571       0.986846379            -17.078        0.160786489             72.855        0.160842032             73.007        0.985483942            -17.373
               572       0.986860336            -17.118        0.160844307              72.81        0.161122315             72.987        0.984477271            -17.387
               573       0.986815126            -17.175        0.161152036             72.801         0.16139341             72.906        0.984545514            -17.413
               574        0.98671153            -17.205        0.161580967             72.756        0.161748478             72.926         0.98500901            -17.444
               575       0.986663275            -17.252        0.161815069             72.724        0.162057436             72.856        0.984960838            -17.498
               576       0.986524146            -17.247        0.162071898              72.69        0.162239918             72.877        0.985729421             -17.53
               577       0.986551086            -17.297        0.162281711             72.652        0.162730732             72.784        0.985415931            -17.531
               578       0.986509616             -17.29        0.162555371             72.656        0.162911343             72.781        0.985261069            -17.573
               579       0.986467248            -17.317        0.163016915              72.64        0.163167129             72.728        0.985445636             -17.59
               580       0.986452026             -17.39        0.163089488             72.559        0.163465448             72.692        0.985090133            -17.622
               581       0.986369364            -17.407         0.16345175             72.576        0.163564698             72.704        0.985120995            -17.649
               582       0.986391903             -17.46        0.163738007             72.495        0.163907754              72.62        0.984123265            -17.727
               583       0.986322178            -17.426        0.163971662             72.487        0.164217259             72.636        0.984733695            -17.743
               584       0.986337056            -17.506        0.164144127             72.366        0.164389983             72.603        0.984068544            -17.778
               585       0.986248234            -17.497        0.164526644             72.378        0.164829992             72.577        0.984206522            -17.824
               586       0.986225585            -17.563        0.164826207             72.344        0.164978088             72.505         0.98418392             -17.85
               587       0.986081191            -17.547        0.165086924             72.355        0.165296126             72.549        0.984946576            -17.871
               588       0.986081958            -17.583        0.165429521             72.308        0.165601022             72.458        0.984833953            -17.921
               589       0.986076715            -17.624        0.165581077             72.295        0.165829085             72.418        0.984148655            -17.936
               590       0.986007439            -17.684        0.166046678             72.276        0.166046678             72.346        0.984759528             -17.95
               591       0.985998134            -17.707         0.16621725              72.19         0.16631296             72.331        0.984296845            -18.014
               592       0.985889012            -17.739        0.166505286              72.15        0.166773878             72.309        0.984981393            -18.028
               593         0.9858685              -17.8        0.166712817             72.197        0.166885648             72.272        0.983827574            -18.057
               594       0.985819263             -17.81        0.167088785             72.097        0.167184996              72.25        0.984458244             -18.11
               595       0.985823573            -17.848        0.167320517             72.046        0.167493979             72.167        0.983896008            -18.146
               596       0.985773174            -17.827        0.167389031             72.086        0.167678351             72.181        0.983845708             -18.16
               597       0.985721991            -17.876         0.16788212             72.046        0.168056164             72.107        0.984021178             -18.18
               598       0.985674021            -17.906        0.168009295              72.02        0.168202835             72.172        0.983407034            -18.187
               599       0.985571532            -17.974        0.168437253             71.917        0.168611872             72.094        0.984550848            -18.258
               600       0.985548397            -17.974        0.168588504             71.924        0.168957687             72.053        0.984074449             -18.28
               601       0.985509383            -18.008        0.168853771             71.841         0.16910668             72.066        0.984035493            -18.339
               602       0.985482422            -18.028        0.169199425             71.821        0.169374834             72.026        0.983782023            -18.359
               603       0.985320307            -18.056        0.169483504             71.841        0.169737356             71.966        0.984866654            -18.355
               604       0.985378107            -18.133        0.169747313              71.76        0.169962421             71.884        0.984130992            -18.433
               605       0.985361011            -18.168        0.169959472             71.735        0.170194442             71.854        0.983547579            -18.446
               606       0.985311565            -18.156        0.170107546             71.755        0.170381948             71.877         0.98361146            -18.444
               607       0.985257312            -18.186        0.170647396             71.674        0.170745657             71.823          0.9837838            -18.509
               608       0.985268373            -18.246        0.170747574             71.591        0.170845893             71.753           0.982776            -18.551
               609       0.985144153            -18.221        0.171080214             71.686        0.171375914             71.757         0.98367081            -18.543
               610       0.985140013            -18.256        0.171256853             71.629        0.171493616             71.754        0.982647964            -18.577
               611        0.98508327            -18.275        0.171523229             71.593        0.171839477             71.756        0.982930799            -18.577
               612       0.985041832            -18.367        0.171832249             71.498        0.172109433             71.724        0.982776299            -18.598
