!{251R15S820}
!Johanson Technology Inc.
!www.johansontechnology.com
!Test Board Conditions:
!Substrate Type  RO4350B
!Substrate Thickness        20 mil
!Substrate Dk      3.66
!TL Type: GCPW 
!TL Trace Width  34 mil
!TL Gap  10 mil
!Electrode orientation      Horizontal
!DUT TOPOLOGY	SERIES
!Mounting Pad LxW         26x52 mil
! Created Thu Mar 12 17:16:36 2020
# mhz S ma R 50
! 2 Port Network Data from SP1.SP block
! freq  magS11  angS11  magS21  angS21  magS12  angS12  magS22  angS22  
!     
               500      0.0156172417            -98.506        0.999129269             -5.137        0.999118571             -5.092       0.0146674404            -96.222
               501      0.0154023767            -99.137        0.999156323             -5.148        0.998883734             -5.173       0.0142277997            -96.034
               502        0.01544716            -99.126        0.998941245             -5.143        0.999079033             -5.156       0.0144360589            -96.653
               503      0.0151652871             -98.94        0.999407802             -5.177        0.998756424             -5.207       0.0143317966            -96.196
               504      0.0152708314            -99.108         0.99895778             -5.185        0.998997804             -5.224       0.0140770834            -96.708
               505      0.0148780812            -99.873        0.998889561             -5.245        0.999193441             -5.238       0.0137831006            -95.724
               506      0.0147248202            -98.398         0.99884937             -5.234         0.99873438             -5.254       0.0137816114            -96.156
               507      0.0147248202            -99.365        0.998619403             -5.298        0.999297613              -5.28        0.013550334            -96.081
               508       0.014515932            -99.173        0.999421123             -5.298        0.998889676             -5.262       0.0135689088            -95.554
               509      0.0142295712            -99.473        0.999537653             -5.293         0.99837067             -5.286       0.0134645491            -96.435
               510      0.0142889396            -98.602        0.998274551             -5.312        0.999025331             -5.308       0.0131977531            -95.802
               511      0.0140270355            -99.643        0.998495693             -5.348         0.99935651             -5.366       0.0130321448            -97.249
               512      0.0142369328            -99.965        0.998522336             -5.325         0.99922197             -5.406       0.0130336614            -97.204
               513      0.0139093646            -99.209        0.997601952             -5.381        0.999527058             -5.405       0.0126884125            -97.759
               514      0.0139190542           -100.476        0.999183151              -5.38        0.998560486             -5.395       0.0128664793            -97.484
               515      0.0137340935           -100.028        0.998504439             -5.427        0.999088247             -5.382       0.0124838919             -96.85
               516      0.0134602938            -99.996        0.999311509             -5.421        0.998755972             -5.455       0.0124467091            -96.776
               517      0.0135670493           -100.728        0.999199948             -5.476        0.998577676             -5.422       0.0124389981            -97.218
               518      0.0131649422           -100.508        0.998929197             -5.434        0.999243443             -5.526       0.0123273282            -96.762
               519      0.0130026599           -100.787         0.99891815             -5.538         0.99926679             -5.484       0.0120637465            -96.273
               520      0.0128653373           -101.219        0.999405447             -5.525        0.998208301             -5.488         0.01195009            -97.401
               521      0.0129295065           -100.916        0.998577896             -5.535        0.999249061             -5.509          0.0118531            -97.397
               522      0.0127822434           -101.535         0.99902288             -5.538        0.998647076             -5.596       0.0116656001             -98.21
               523      0.0126738592           -101.473        0.999298598             -5.561        0.998069486             -5.591       0.0117221933            -98.784
               524       0.012642168           -101.054        0.999075781             -5.596          0.9987329             -5.569       0.0116606177            -98.414
               525      0.0122343246           -101.721        0.999045805             -5.618        0.998803374              -5.64       0.0113535062            -98.252
               526      0.0123568191            -101.73        0.998801964             -5.697        0.998950198             -5.641       0.0112695529             -98.35
               527      0.0121394422           -101.696         0.99876929             -5.638         0.99893431             -5.679       0.0110369412            -98.794
               528      0.0119656555           -103.412        0.998485577             -5.724        0.998846371             -5.684       0.0108451733            -99.319
               529      0.0118708903           -102.877        0.999406892             -5.707        0.997661677             -5.702       0.0109694105            -98.563
               530      0.0118998799           -103.305        0.999014354             -5.725        0.998480709             -5.727       0.0108116649            -98.478
               531      0.0115101337           -103.175        0.999077132             -5.703        0.998643474             -5.733       0.0106581142            -98.267
               532      0.0115526381           -102.795        0.999012837             -5.768        0.998719935             -5.739       0.0106042796            -98.558
               533      0.0114164224           -104.345         0.99902022             -5.752        0.998536118             -5.781       0.0103390355             -97.76
               534      0.0115551808           -103.562        0.998241899             -5.759        0.999041467             -5.791       0.0103056822            -99.193
               535      0.0111590284           -103.071        0.998614072             -5.786        0.999127543              -5.84       0.0101059322            -98.255
               536      0.0112241388           -104.682        0.999176797             -5.854        0.998183945             -5.844       0.0101801231             -98.14
               537      0.0108530862           -104.637        0.998696787             -5.878        0.998675171             -5.888      0.00984585085             -99.96
               538      0.0110039325           -104.926        0.998359993             -5.882        0.998768173             -5.861       0.0097386312           -100.258
               539      0.0107437466           -105.164        0.998670695              -5.88        0.998469162             -5.899      0.00953576975           -100.631
               540      0.0105971889           -104.236        0.999071513             -5.935        0.998530365             -5.904      0.00951460309            -98.753
               541      0.0105871443           -105.008        0.998648453              -5.94        0.998519231             -5.898      0.00937516313           -100.928
               542       0.010009154           -105.082        0.999119408             -5.926        0.998170132             -5.933       0.0091389725           -100.465
               543      0.0103764483           -105.086        0.998605671             -5.929        0.998656949              -5.97      0.00907713361           -100.423
               544      0.0104869806           -104.695         0.99858207             -5.945         0.99871015             -5.972      0.00881658632            -99.197
               545      0.0100861476           -105.571        0.999029744             -5.981        0.998355164             -6.034      0.00885982857            -99.204
               546      0.0100275846           -105.014        0.998685021             -6.027        0.998801615              -6.02      0.00857622835            -99.042
               547     0.00959329291           -106.035        0.998826842             -6.058        0.998866286             -6.065      0.00876632777            -98.996
               548     0.00980502434           -106.238        0.998775374             -6.015        0.998642227             -6.111      0.00861090258            -99.568
               549     0.00953414806            -105.31        0.998851766             -6.042        0.998943883             -6.087       0.0084689953            -98.528
               550     0.00939731333           -105.935        0.998827078             -6.096        0.998593322              -6.13      0.00825759745           -100.728
               551     0.00932026889           -108.392        0.998976546             -6.119        0.997964728             -6.107      0.00803578746           -100.409
               552     0.00934371089           -107.068        0.998696303             -6.158        0.998617545             -6.147      0.00798397911            -100.05
               553     0.00897849561           -106.583        0.998955436             -6.219        0.998651652             -6.161      0.00792051781            -99.711
               554     0.00912675596            -106.35        0.998826919             -6.159        0.998747346             -6.201      0.00775651145            -99.056
               555     0.00887005811           -108.179        0.998962453             -6.172        0.998493094              -6.22      0.00772816641            -99.097
               556     0.00891918168           -107.597        0.998834674             -6.221        0.998332042             -6.207      0.00752792026           -101.221
               557     0.00850095594           -106.798        0.999164315             -6.253        0.998200459             -6.257      0.00748200105           -101.235
               558     0.00869193022            -105.64        0.999173901             -6.277        0.998082018             -6.213      0.00743731595           -101.851
               559     0.00839743022           -106.504        0.999009226             -6.284        0.998699204             -6.268      0.00748077175           -100.591
               560     0.00842699555           -108.581        0.998707278             -6.294        0.998654848             -6.322      0.00715851212           -100.631
               561     0.00816802763           -106.337        0.998748403              -6.31        0.999009453             -6.294      0.00700433966           -100.155
               562     0.00815168477            -108.42         0.99864131             -6.352        0.998728348             -6.339      0.00682806076           -101.269
               563     0.00797172549           -107.505         0.99878862             -6.351        0.998871646              -6.34      0.00690720483           -100.819
               564     0.00794780312           -107.531         0.99919166             -6.366        0.998497773             -6.388      0.00675844993            -99.221
               565     0.00776782953           -107.952        0.999016903             -6.407        0.998757231             -6.383      0.00674682874            -99.915
               566     0.00773564431           -109.481        0.998733327             -6.442        0.998836933             -6.382      0.00634156564            -99.141
               567     0.00752835344           -107.504         0.99905558             -6.422        0.998883295             -6.428      0.00643057785            -97.972
               568     0.00727705003            -108.73        0.999007872             -6.446        0.999114842             -6.454      0.00618593512            -96.713
               569     0.00763161009           -110.984        0.999041487             -6.431          0.9984269             -6.449      0.00629964641            -98.499
               570     0.00738403494           -107.737        0.999249508              -6.48        0.998605016              -6.48      0.00614035872            -98.547
               571     0.00735752879           -107.987        0.999206085              -6.51        0.998369535             -6.476      0.00584092958            -99.296
               572     0.00711959911           -109.488         0.99901093             -6.535        0.998654216              -6.54      0.00566572564            -99.302
               573      0.0069276642           -109.646        0.999039427             -6.554        0.998744448              -6.58      0.00570803764            -99.729
               574     0.00683594443           -109.633        0.998347934             -6.606        0.999229906             -6.523      0.00546258897            -99.832
               575     0.00662896712           -109.369        0.999197446             -6.592        0.998680949             -6.544      0.00552453673            -99.814
               576     0.00657435703           -108.665        0.998728366             -6.616        0.999283773             -6.577      0.00540011844            -98.555
               577     0.00654890592            -110.33        0.999329981             -6.629        0.998119871             -6.559       0.0052332171           -100.228
               578     0.00646665681           -110.363        0.999284873             -6.642        0.998526657             -6.657      0.00531348934            -99.135
               579     0.00626241899           -109.619        0.999312503             -6.656        0.998823545             -6.638      0.00514626471            -97.486
               580     0.00629315169           -108.962        0.999333739              -6.72        0.998693217             -6.647      0.00500862135            -97.747
               581      0.0061687902            -110.97        0.998973919             -6.709        0.999195455             -6.666       0.0050640735            -94.234
               582     0.00615095041           -111.066        0.999422047             -6.705         0.99814176               -6.7      0.00486958808            -98.951
               583     0.00590666628           -109.956        0.999267205             -6.724        0.998679154             -6.757      0.00452420666            -98.616
               584     0.00584303584            -110.24        0.999303941             -6.764        0.998535018             -6.736      0.00445388039             -99.31
               585     0.00575187868           -111.296        0.999364498             -6.795        0.998416541             -6.766      0.00447620242            -99.364
               586     0.00558511849           -110.678        0.998969184             -6.815        0.999200842             -6.736      0.00421630861            -96.512
               587     0.00538827807           -110.353        0.999292896             -6.812         0.99884937             -6.811      0.00430031234            -95.635
               588     0.00532936918           -113.822        0.998628729             -6.809        0.999370213             -6.816      0.00405766142            -96.126
               589     0.00510153312           -110.648        0.999398517             -6.839        0.999082405             -6.826      0.00404483407            -95.799
               590     0.00516449761            -111.39        0.999240161             -6.897        0.999160556             -6.859      0.00394528227            -95.043
               591     0.00497565202           -110.632         0.99884937             -6.869        0.999330978             -6.881       0.0038071501            -98.544
               592     0.00523612292           -111.957        0.998926152             -6.875        0.999092464             -6.893      0.00388606296            -99.792
               593     0.00494905471           -112.834        0.999414405              -6.86        0.998574691              -6.88      0.00380646863            -99.422
               594     0.00489972504           -113.681        0.999340249             -6.923         0.99859827             -6.873      0.00338081736            -96.311
               595     0.00453314906           -112.253        0.998933436             -6.987         0.99891906             -6.949      0.00339039267            -98.021
               596      0.0046614897           -112.662        0.999258564             -6.941        0.999071291             -6.969      0.00330312287            -94.745
               597      0.0043721998           -113.017         0.99922571             -7.063        0.998904685             -7.002      0.00313148258            -96.025
               598     0.00425209099           -111.802        0.999471245             -7.013        0.998866387             -6.947      0.00296655599            -95.646
               599     0.00436113971           -117.605        0.999385629             -7.054         0.99873438             -6.974       0.0031278794            -94.238
               600     0.00428894029           -112.866        0.998504439             -7.051        0.999177395             -7.036      0.00283237009            -93.145
               601     0.00408049827            -115.97        0.998948039             -7.121        0.999161171             -7.061      0.00258144691            -97.922
               602     0.00412772125           -114.185        0.998865379             -7.087         0.99926715             -7.097      0.00257282567            -96.358
               603     0.00408742959            -115.92        0.998792642             -7.112        0.999279399              -7.07      0.00260675541            -97.889
               604     0.00400428243           -118.894        0.998831203             -7.109        0.999178893             -7.071      0.00231113174            -93.481
               605     0.00378616904           -119.079        0.999429812             -7.151        0.998274551              -7.14      0.00246178431            -97.865
               606     0.00383736896           -118.999        0.998466638             -7.152        0.999256445             -7.138      0.00220766696           -102.361
               607     0.00371749164           -117.318        0.998942522             -7.147        0.998274551             -7.146      0.00214560612            -92.049
               608     0.00357287718           -117.705        0.998832436             -7.187        0.999265025             -7.172      0.00192494394            -94.761
               609     0.00322477932           -123.473        0.998989446             -7.189        0.999186252             -7.186      0.00176400576            -94.042
               610     0.00323992856           -122.119        0.998941449             -7.219        0.999220726             -7.202      0.00179715458            -98.413
               611     0.00315960976           -123.988        0.998766799             -7.224        0.999322147             -7.288      0.00171843634            -98.145
               612     0.00331474405           -125.316        0.998619403               -7.3        0.998897325             -7.274      0.00153355727            -96.161
