!{251R15S0R4}
!Johanson Technology Inc.
!www.johansontechnology.com
!Test Board Conditions:
!Substrate Type  RO4350B
!Substrate Thickness        20 mil
!Substrate Dk      3.66
!TL Type: GCPW 
!TL Trace Width  34 mil
!TL Gap  10 mil
!Electrode orientation      Horizontal
!DUT TOPOLOGY	SERIES
!Mounting Pad LxW         26x52 mil
! Created Thu Mar 12 16:28:11 2020
# mhz S ma R 50
! 2 Port Network Data from SP1.SP block
! freq  magS11  angS11  magS21  angS21  magS12  angS12  magS22  angS22  
!     
               500       0.994428588            -12.448        0.104887468             77.527        0.105214017             77.691        0.993513108             -12.42
               501       0.994405969            -12.441        0.105175291             77.549        0.105284326               77.8        0.993376136            -12.422
               502       0.994384303            -12.514        0.105318402             77.455        0.105670621             77.697        0.993011459            -12.453
               503        0.99433623             -12.49        0.105568236             77.465        0.105909097             77.656        0.993649604            -12.505
               504       0.994333616            -12.529        0.105738251             77.481        0.106104089             77.639         0.99273223             -12.52
               505       0.994338952            -12.554         0.10597037             77.442        0.106214657             77.561        0.992052036            -12.537
               506        0.99430558            -12.565         0.10614997             77.425        0.106431425              77.58        0.993161502            -12.536
               507       0.994301194            -12.599        0.106394202             77.447        0.106553559             77.504        0.992242811            -12.552
               508       0.994281664            -12.642        0.106588274             77.372        0.106747922             77.484         0.99199488            -12.586
               509          0.994239            -12.672        0.106817103             77.278        0.107137324             77.525        0.992180745            -12.611
               510       0.994233058            -12.671        0.106988771             77.289        0.107223061             77.445         0.99183219            -12.644
               511       0.994223362            -12.703        0.107271404             77.262        0.107246706             77.396        0.991936712             -12.63
               512       0.994179549            -12.713        0.107340799             77.258        0.107712182             77.371        0.991664634              -12.7
               513       0.994165551            -12.755        0.107475311             77.243        0.107847159             77.349        0.991422362             -12.69
               514       0.994138145             -12.74        0.107856603             77.144        0.108092793             77.363        0.992765641            -12.775
               515       0.994126147            -12.814        0.107954686             77.106        0.108216005              77.33        0.991268936            -12.761
               516       0.994104699            -12.822        0.108176301             77.157        0.108413191             77.275        0.991932516            -12.769
               517       0.994052737            -12.825        0.108370088             77.094        0.108807649             77.282         0.99233755            -12.822
               518       0.994052164             -12.89        0.108845173             77.104        0.108845173             77.221        0.992679778            -12.832
               519       0.994010552            -12.888        0.108865681             77.094        0.109217189             77.198        0.992523949            -12.851
               520       0.994008517            -12.923        0.109078738             77.063        0.109292436             77.121        0.992293407              -12.9
               521       0.993978255            -12.944        0.109289109             77.013        0.109566272             77.161        0.991806348            -12.895
               522       0.993960891            -12.944        0.109400497             77.037        0.109715831             77.148        0.991104155             -12.93
               523       0.993945685            -13.039        0.109638391             76.964        0.109827893              77.14         0.99154551            -12.951
               524       0.993919122            -12.994        0.109938814             77.014        0.110065458             77.088        0.991290733            -12.973
               525        0.99387664            -13.044        0.110022747             76.984        0.110403409             77.117        0.991704955            -12.985
               526       0.993868396             -13.08        0.110224689             76.913        0.110529672             77.074        0.990441617            -13.039
               527        0.99382662            -13.116        0.110563206             76.782        0.110894658              77.02        0.992340292            -13.091
               528       0.993822416            -13.122        0.110855894             76.807        0.110945269             77.075        0.992907493            -13.051
               529       0.993780997            -13.121        0.110927874             76.911        0.111221997             77.047        0.991837874            -13.086
               530       0.993770843            -13.191        0.111067309             76.843        0.111348982             76.972        0.992056143            -13.119
               531       0.993758406             -13.21        0.111463022             76.773        0.111514365             76.896        0.991929521             -13.14
               532       0.993728125            -13.221        0.111639423             76.798        0.111703706             76.934        0.992127715             -13.18
               533        0.99370882            -13.244        0.111804464             76.744        0.111984817             76.841        0.991880025            -13.169
               534       0.993677189            -13.262         0.11200704             76.736        0.112226474             76.853        0.991391795            -13.251
               535       0.993670107             -13.29        0.112199837             76.622        0.112290296               76.9        0.991613031            -13.252
               536       0.993630662            -13.353        0.112428129             76.732        0.112622454             76.819        0.991573667             -13.21
               537       0.993594883            -13.301        0.112657302             76.697        0.112852022             76.879        0.992223129            -13.274
               538       0.993584175            -13.385        0.112902788             76.676        0.113006823             76.741        0.991413129            -13.321
               539       0.993545736            -13.423        0.113106578             76.549        0.113328167             76.788        0.991717242            -13.384
               540       0.993530067            -13.441        0.113274203             76.583        0.113469989             76.762        0.991587434            -13.358
               541       0.993513958            -13.421        0.113481214             76.603        0.113638102             76.705        0.991000727            -13.391
               542       0.993476996            -13.439         0.11372549              76.56        0.113882716             76.718        0.992105405            -13.435
               543       0.993429566            -13.504        0.113995336             76.547        0.114179222              76.76        0.992286496            -13.376
               544       0.993423711             -13.52        0.114060303             76.464        0.114336402             76.721        0.991367145            -13.486
               545       0.993402178            -13.505        0.114399759             76.561        0.114452454             76.649        0.991459795            -13.493
               546       0.993362859             -13.57        0.114447924             76.487        0.114791021             76.686        0.991306418            -13.485
               547       0.993324034            -13.581        0.114760107              76.43        0.115011414             76.595        0.992523832             -13.56
               548       0.993319251            -13.626        0.114957908             76.457        0.115262717             76.539         0.99103468            -13.562
               549       0.993306425            -13.737        0.115022617             76.383         0.11538072             76.526        0.990223536            -13.562
               550       0.993277499            -13.691        0.115337517             76.429        0.115550172              76.51        0.990878939            -13.604
               551       0.993245845            -13.684         0.11554649             76.316        0.115866198             76.523        0.991303768            -13.659
               552        0.99321902             -13.71        0.115929784             76.318        0.115969832             76.485        0.991505272             -13.71
               553       0.993189429            -13.781        0.116046511             76.295        0.116180192             76.548        0.990448933            -13.683
               554       0.993152816            -13.769        0.116149161             76.309        0.116537602             76.457         0.99109681            -13.714
               555       0.993155193            -13.779        0.116537881             76.225        0.116564718             76.421        0.991441555             -13.77
               556       0.993111251            -13.814        0.116519309             76.337        0.116801361             76.447        0.990599038             -13.73
               557       0.993060527             -13.86        0.116943401             76.213        0.117091594             76.428        0.991917882            -13.763
               558        0.99306758            -13.863        0.117092426             76.172        0.117200322             76.385        0.991354093            -13.835
               559        0.99302639            -13.943        0.117533262              76.14        0.117452101             76.319         0.99142711            -13.848
               560       0.993016115            -13.931        0.117586184             76.117        0.117640347             76.319        0.991074487            -13.891
               561       0.992994048            -13.932        0.117664823             76.104        0.117868198             76.292        0.990938371            -13.933
               562        0.99296659            -13.998         0.11785137             76.048        0.118041477             76.291        0.991367406            -13.917
               563       0.992939313            -14.018        0.117929568             76.045        0.118351211             76.262        0.990541569            -13.938
               564       0.992923415            -14.063        0.118185923             75.933        0.118540226             76.204        0.990981969            -14.008
               565       0.992858301            -14.057          0.1185461             75.999        0.118750999             76.226        0.991601719            -14.002
               566       0.992783839            -14.081        0.118851509             75.968         0.11898842             76.168         0.99232675            -14.025
               567       0.992828306            -14.129        0.118884203              75.95        0.119268059             76.094        0.991115232            -14.044
               568       0.992760556            -14.126         0.11925992             75.978        0.119493564             76.081        0.991960808            -14.053
               569       0.992790172            -14.204        0.119387118             75.898        0.119510887             76.072        0.990848986            -14.098
               570        0.99276279            -14.215        0.119686589             75.884        0.119686589             76.044        0.990707592            -14.137
               571       0.992717051            -14.212        0.119998407              75.83        0.119956968             76.039        0.991346509            -14.183
               572       0.992705441            -14.259        0.119927948             75.851        0.120287473             75.963        0.990422282            -14.189
               573       0.992666207            -14.292        0.120282719             75.842        0.120462879             75.956        0.990953413            -14.196
               574       0.992644061            -14.311        0.120501804             75.778        0.120612841             75.959        0.991045397            -14.236
               575       0.992613632            -14.362        0.120636919              75.69        0.120901095             75.897        0.991471501            -14.278
               576       0.992505222            -14.369        0.120985354             75.714        0.121166566              75.89        0.991934055            -14.307
               577       0.992516566            -14.432        0.121126108             75.671        0.121461255             75.846         0.99148869            -14.317
               578       0.992530861            -14.396        0.121337214               75.7        0.121504963             75.811        0.991388825            -14.346
               579       0.992477706            -14.417        0.121638417             75.677        0.121806583             75.793        0.991678185            -14.355
               580       0.992488757             -14.48        0.121639772             75.584        0.122004429             75.797        0.990662208             -14.39
               581        0.99244342              -14.5        0.121970768             75.588        0.122083158             75.795        0.991301485            -14.403
               582       0.992449823            -14.536        0.122266804             75.519        0.122351292             75.685         0.99107965            -14.468
               583       0.992413749            -14.526        0.122445484             75.503        0.122558312             75.692        0.991271848              -14.5
               584       0.992417167            -14.587        0.122601072             75.432        0.122714044              75.65        0.990248671            -14.533
               585       0.992371572            -14.575        0.122750795             75.447        0.123047931             75.658        0.990317184            -14.547
               586       0.992349451            -14.632        0.123045188             75.404        0.123201114             75.594        0.990637203            -14.587
               587       0.992307636             -14.61        0.123252669             75.411        0.123366241               75.6        0.991394107             -14.59
               588       0.992268692            -14.657        0.123460857             75.415        0.123574621             75.537        0.991241072            -14.641
               589       0.992256223            -14.688        0.123601526             75.363        0.123786656             75.542        0.990886317             -14.66
               590        0.99223685            -14.713        0.123898301             75.367        0.123926833             75.466        0.991209263            -14.672
               591       0.992201952            -14.756        0.124150959             75.304        0.124193846             75.432        0.991402654            -14.707
               592       0.992145654            -14.787        0.124315544              75.26        0.124473079             75.466        0.991232275            -14.742
               593       0.992159207            -14.826        0.124532116             75.251        0.124761724              75.37        0.990447287            -14.752
               594       0.992147179            -14.854        0.124717128             75.172         0.12483205             75.367        0.990549315            -14.806
               595       0.992136905            -14.888        0.124859504             75.192        0.124902636              75.29        0.990196996            -14.838
               596       0.992099187             -14.85        0.125214635              75.15        0.125185807             75.321        0.990957647            -14.841
               597       0.992051959            -14.895         0.12541065             75.173        0.125497311             75.267        0.990682335            -14.882
               598       0.992047522            -14.916        0.125453412              75.12        0.125670249             75.302        0.989879834            -14.869
               599       0.991951422             -14.97        0.125773864             75.027         0.12591875             75.269        0.991494716            -14.933
               600       0.991993962            -14.977        0.125909653              75.05         0.12612728             75.159        0.990738474            -14.955
               601        0.99196088            -15.012        0.126123073             74.994        0.126341068             75.163        0.990705435            -14.993
               602       0.991928738            -15.055        0.126293347             74.989         0.12654077             75.183        0.990331225             -14.98
               603       0.991777702            -15.064        0.126594355             74.986        0.126813164             75.139        0.991663526            -14.974
               604       0.991876566            -15.128        0.126840408             74.928        0.127045015              75.01        0.990621227            -15.076
               605       0.991872784             -15.16         0.12691296             74.854        0.127176238             75.008        0.989819428            -15.082
               606       0.991843682            -15.152        0.127099321             74.881         0.12737765             74.983        0.990132306            -15.098
               607       0.991817452            -15.141        0.127359617             74.846        0.127550377             75.012        0.989992138            -15.143
               608       0.991805507            -15.202        0.127490116             74.789        0.127681071             74.946        0.989410501            -15.183
               609       0.991768516             -15.18        0.127749826             74.846        0.127926441             74.932        0.990513313            -15.163
               610        0.99173813            -15.208         0.12795198             74.844        0.128128874             74.936        0.989343286            -15.192
               611       0.991713202             -15.26        0.128169915             74.782        0.128376667             74.929        0.989546244            -15.166
               612       0.991646194            -15.332        0.128323663              74.78        0.128693541             74.913        0.989935159            -15.196
