!{251R15S2R7}
!Johanson Technology Inc.
!www.johansontechnology.com
!Test Board Conditions:
!Substrate Type  RO4350B
!Substrate Thickness        20 mil
!Substrate Dk      3.66
!TL Type: GCPW 
!TL Trace Width  34 mil
!TL Gap  10 mil
!Electrode orientation      Horizontal
!DUT TOPOLOGY	SERIES
!Mounting Pad LxW         26x52 mil
! Created Thu Mar 12 16:39:19 2020
# mhz S ma R 50
! 2 Port Network Data from SP1.SP block
! freq  magS11  angS11  magS21  angS21  magS12  angS12  magS22  angS22  
!     
               500        0.78625882            -45.934        0.614561756             44.404        0.616262201             44.448        0.783728302            -45.692
               501       0.785715068            -45.961        0.615623347              44.36        0.616687409             44.438        0.783005985            -45.742
               502       0.784740372            -46.046        0.616206104             44.311        0.617768836             44.342        0.783025664            -45.806
               503       0.784662763            -46.146        0.617423341             44.188        0.618063424             44.291         0.78204734            -45.838
               504       0.783827973            -46.186        0.618188268             44.137        0.618829143             44.224        0.781845172             -45.94
               505       0.783274683            -46.257        0.618819641             44.065        0.619532494             44.173        0.781113403            -46.004
               506       0.782639651            -46.265        0.619600624             44.036        0.620314377             44.145        0.780480122            -46.056
               507       0.782105889            -46.328        0.620248262             44.003         0.62096276             44.042        0.780217264             -46.12
               508       0.781650337            -46.443        0.620672522             43.889        0.621816897             43.983        0.779044955            -46.187
               509       0.780990753            -46.523        0.621435261             43.818        0.622796111             43.881         0.77820836            -46.271
               510       0.780328531            -46.594        0.622339671             43.796        0.623271812             43.832        0.777996218            -46.291
               511       0.779815567            -46.673        0.622647001             43.642        0.624369817             43.756         0.77703736             -46.42
               512       0.778998913            -46.699        0.623572353             43.611        0.625081796               43.7        0.777117791            -46.485
               513       0.778704384            -46.802        0.624701602             43.538        0.625493239             43.589        0.775572889            -46.568
               514       0.777962592            -46.892        0.625185238             43.438        0.626554299             43.504        0.775458775            -46.651
               515       0.777426096            -46.952        0.626050137             43.402        0.627348862             43.407        0.775191701            -46.686
               516       0.776969687             -47.02         0.62690838             43.302        0.627775085             43.356        0.774825804            -46.766
               517       0.776211005            -47.112        0.627378737             43.273        0.628318425             43.302        0.773712825            -46.844
               518       0.775470288            -47.183        0.628514299             43.133        0.629383224             43.224        0.773241514            -46.949
               519       0.775137366            -47.222        0.628678593              43.13        0.629910246             43.228        0.772109103             -46.94
               520       0.774340702            -47.313         0.62962518             43.015        0.630640834             43.117          0.7723819            -47.062
               521       0.773473308            -47.355         0.63044228             43.006        0.631531956             43.082        0.771694369            -47.087
               522       0.773310286            -47.434         0.63118081              42.92        0.631835156             43.014        0.770555255            -47.161
               523       0.772160989            -47.517        0.631841076             42.836        0.632787449             42.951        0.770473767            -47.269
               524       0.772087387            -47.582        0.632581458             42.792        0.633237255             42.857        0.769425291             -47.31
               525       0.771202965            -47.634         0.63316761             42.734        0.634188979             42.803        0.769074994            -47.391
               526       0.770818451            -47.719         0.63401875             42.635        0.634968384             42.671         0.76869154             -47.48
               527       0.770344127             -47.85        0.634212469             42.559        0.635894071               42.6        0.767157925            -47.514
               528       0.769432458            -47.882         0.63558041             42.479         0.63631257             42.561        0.767574437            -47.612
               529       0.768816543            -47.955         0.63573002              42.45        0.636975487             42.503        0.766342162              -47.7
               530       0.768522437            -47.987        0.636805127             42.339        0.637538698             42.466         0.76534377            -47.774
               531       0.767909945            -48.037        0.637324028             42.336        0.638499104             42.374        0.765262253            -47.789
               532       0.767275281            -48.106        0.638485747             42.246        0.639000513             42.304        0.764453735            -47.888
               533       0.766733752            -48.152        0.638696567             42.168        0.639726854             42.295        0.764090116            -47.944
               534       0.765843817            -48.261        0.639941405             42.081        0.640162471             42.206        0.763818566            -48.033
               535       0.765145564            -48.335        0.640610518             42.025        0.641053188             42.129        0.763385778            -48.085
               536       0.764815311            -48.448        0.640997851             41.972        0.641810139             42.024        0.762178289            -48.136
               537       0.764113566             -48.47        0.641516617             41.901        0.642477481             41.993        0.761040747            -48.272
               538       0.763770165            -48.585        0.642040893             41.803         0.64337279             41.878        0.761049123            -48.293
               539       0.763067114            -48.662        0.642854573             41.735        0.644039846             41.782         0.76043612            -48.397
               540       0.762266269              -48.7        0.643882619             41.709        0.644401737             41.775        0.759987943            -48.432
               541       0.761658773            -48.788        0.644555693             41.627        0.645149624             41.722         0.75929484            -48.483
               542       0.761303745            -48.843        0.645220216             41.605         0.64581476             41.605        0.758242226            -48.553
               543       0.760743989            -48.911        0.645785857             41.541        0.646232104             41.593        0.757335874            -48.604
               544       0.759978615            -48.981        0.646772241             41.439         0.64721917             41.477        0.757619897            -48.696
               545       0.759471201            -48.992        0.647532111             41.336        0.647532111             41.538        0.756417051            -48.767
               546       0.758939988            -49.114        0.647973785             41.271        0.648720222             41.382        0.756149094            -48.816
               547       0.758335101              -49.2        0.648501759             41.245        0.649099327             41.268         0.75528552            -48.926
               548       0.757318288            -49.238        0.648751604              41.17        0.650172273             41.291        0.755054751            -48.977
               549       0.757085332            -49.263        0.649523446              41.11        0.650721015             41.205        0.754301258            -49.062
               550       0.756287708            -49.359        0.650484634             41.047        0.651383932             41.141        0.754027251            -49.095
               551       0.755689811             -49.43        0.651243747             40.971        0.651993951             41.062        0.753257677            -49.191
               552       0.754935471            -49.531        0.652018369             40.901        0.652919789              40.97        0.753112457            -49.222
               553        0.75474113            -49.577        0.652676562             40.827        0.653277977             40.911        0.751706001            -49.321
               554       0.754222767            -49.644        0.653130008             40.697        0.653957671             40.854        0.750843868            -49.455
               555       0.753259305            -49.744        0.653874657             40.683        0.654854031             40.779        0.751094367             -49.44
               556       0.752868759            -49.774         0.65481599             40.658        0.655042194             40.729        0.750272928            -49.495
               557       0.752221912            -49.839        0.654931653             40.623        0.656214738             40.658         0.74971462            -49.532
               558       0.751885543            -49.939        0.656072349             40.484        0.656298988             40.597         0.74903435            -49.624
               559       0.750948747            -49.998        0.656765448             40.396        0.657219283             40.535        0.748273383            -49.751
               560       0.750423563            -50.056        0.657440512             40.366        0.657819074             40.482        0.747405797            -49.784
               561       0.749904409            -50.127        0.657818233             40.325        0.658651836             40.361        0.747404842            -49.845
               562        0.74930103            -50.152        0.658273435             40.254        0.659411215             40.364        0.746803474            -49.895
               563       0.748905813            -50.265        0.658684133             40.158        0.660126552             40.246        0.745464904            -50.006
               564       0.748242521            -50.315        0.659390043             40.103        0.660757931             40.225        0.745319329            -50.029
               565       0.747497778            -50.427        0.660024271             40.021        0.661317333             40.109        0.745006232             -50.14
               566         0.7471787            -50.473        0.661111151              39.94        0.661567989             40.055        0.744431056            -50.202
               567       0.746134868            -50.511        0.662014247             39.902        0.662319186             40.039        0.743819117            -50.258
               568       0.745740153            -50.607        0.662960308             39.802        0.662731369             39.917        0.743511221            -50.341
               569         0.7453327            -50.621         0.66313229             39.757        0.663743338             39.899          0.7429339            -50.372
               570       0.744775269            -50.741        0.663781657             39.678        0.664469799             39.801        0.741951038            -50.435
               571       0.743839892            -50.779        0.664705796             39.614        0.665318295             39.704        0.741872829            -50.547
               572       0.743459402            -50.828        0.665054533             39.604        0.665284275             39.722        0.741322631            -50.546
               573        0.74309894            -50.885        0.665191425             39.541        0.666648094             39.577         0.74011063            -50.655
               574       0.742502759            -50.961        0.666266645             39.432        0.666880582             39.534        0.739516846             -50.75
               575       0.741453316            -51.064        0.666858685             39.348        0.668088216             39.439         0.73932231            -50.822
               576       0.741272966            -51.142        0.667310812              39.32        0.668079525             39.424        0.738291999            -50.831
               577       0.740591606            -51.159         0.66831127             39.235        0.669004109             39.353        0.738633133            -50.889
               578       0.740193091            -51.246        0.668952109             39.167        0.669337299              39.27        0.737301347             -50.99
               579       0.739651975            -51.295        0.669541377             39.108        0.670158331             39.211        0.737101714            -51.024
               580       0.738987768             -51.36        0.670173499             39.055        0.670945509             39.154        0.736609389            -51.063
               581       0.738572539            -51.421        0.670800157                 39        0.671186412             39.077        0.735771829             -51.16
               582       0.737700485            -51.501        0.671552653               38.9        0.672171461             39.022        0.735410911            -51.226
               583        0.73728056            -51.546        0.672407862             38.859         0.67248528             38.911         0.73482307            -51.323
               584       0.736559859            -51.655        0.672679275             38.807        0.673066611              38.88        0.734104772            -51.357
               585       0.735952798            -51.677        0.673596715             38.703        0.673829408             38.827        0.734175623             -51.43
               586       0.735394785            -51.733        0.674249364             38.625        0.674559939             38.763        0.733027969             -51.53
               587       0.734920389            -51.843        0.674512956             38.515        0.675445474             38.698        0.732639443            -51.573
               588        0.73443087            -51.887        0.675151012             38.522        0.675695339             38.603        0.732235741            -51.634
               589       0.733962209            -51.931        0.675808576             38.454        0.676587078             38.539        0.731094807              -51.7
               590       0.733301003            -52.011        0.676444669             38.361         0.67714594             38.505        0.730772639            -51.756
               591       0.732781319            -52.059        0.676821879             38.313        0.677913667             38.413        0.730338827            -51.835
               592       0.732397986            -52.091        0.677715067             38.296        0.678027239             38.374        0.729452709            -51.874
               593       0.731590845            -52.114        0.678606886             38.214        0.678997636             38.358        0.729404204            -51.908
               594       0.731065652            -52.269        0.678666449             38.127        0.679839477             38.207        0.728628878            -52.008
               595       0.730550722            -52.299        0.679595312             38.098        0.680064922             38.198        0.727864225            -52.034
               596       0.730066729            -52.401        0.680083999              37.99        0.680945818             38.093        0.727047118            -52.121
               597       0.729568749            -52.444        0.680559691             37.931        0.681422113             38.037        0.727136964            -52.182
               598       0.728736481            -52.483        0.681428841             37.891        0.682292364             37.995        0.726642024            -52.214
               599       0.728418164            -52.533        0.681915821             37.832        0.682387035             37.913        0.725823068             -52.34
               600       0.728042671            -52.569        0.682663738             37.762        0.682978189             37.853        0.725281892            -52.393
               601       0.727253115            -52.679        0.683652789             37.708        0.683416705             37.759        0.724745604            -52.445
               602       0.726854538            -52.711         0.68390772             37.662        0.684143974             37.716        0.723931553            -52.504
               603       0.726355191            -52.799        0.684225167             37.582         0.68477681             37.667        0.723434214            -52.552
               604        0.72576225            -52.878        0.685005999             37.446        0.685321529             37.611        0.722926883            -52.658
               605       0.725026503            -52.913        0.685336531             37.451        0.686126008             37.572        0.722693057             -52.67
               606       0.724366483            -52.952        0.685896121             37.397        0.686923457             37.539        0.721868925            -52.723
               607       0.724215974             -53.04        0.686464526             37.394        0.687017974             37.364        0.721137533             -52.81
               608       0.723548331            -53.062        0.687017099             37.328        0.687808512             37.385        0.720472728            -52.835
               609        0.72265402            -53.154        0.688304205             37.215        0.688304205             37.275        0.720742983            -52.937
               610       0.722154727            -53.251        0.688224705             37.122        0.689414253             37.195        0.719581945            -53.026
               611       0.721416055            -53.274        0.689264329             37.083        0.689661216             37.188        0.719839714            -53.041
               612       0.721270363            -53.344        0.689918971             37.055         0.68976013             37.148        0.718039089            -53.066
