!{251R15S160}
!Johanson Technology Inc.
!www.johansontechnology.com
!Test Board Conditions:
!Substrate Type  RO4350B
!Substrate Thickness        20 mil
!Substrate Dk      3.66
!TL Type: GCPW 
!TL Trace Width  34 mil
!TL Gap  10 mil
!Electrode orientation      Horizontal
!DUT TOPOLOGY	SERIES
!Mounting Pad LxW         26x52 mil
! Created Thu Mar 12 16:53:11 2020
# mhz S ma R 50
! 2 Port Network Data from SP1.SP block
! freq  magS11  angS11  magS21  angS21  magS12  angS12  magS22  angS22  
!     
               500       0.189169014            -85.423        0.979489985              4.807        0.980618314              4.804        0.188625325            -84.629
               501       0.188755667            -85.517        0.979828348              4.752        0.980731219              4.722        0.188278184            -84.673
               502       0.188213166            -85.478        0.979489985              4.756        0.980618314              4.716         0.18775867             -84.75
               503       0.187953319            -85.535        0.979941161               4.67        0.980844136              4.661        0.187693832            -84.803
               504       0.187283708            -85.575        0.980053987              4.626        0.980844136              4.605        0.186917516            -84.875
               505       0.186982086            -85.595        0.980731219              4.607        0.980392545              4.588        0.186466148            -84.947
               506       0.186594999            -85.632        0.980279679               4.58        0.980618314              4.586        0.186187277            -84.859
               507       0.186208714            -85.632        0.980053987              4.496        0.981634922              4.561         0.18569491            -84.927
               508        0.18569491            -85.749        0.980618314              4.489        0.980279679              4.489        0.185225169            -84.971
               509       0.185246495            -85.733        0.980957066              4.451        0.980844136              4.473        0.184799163            -84.976
               510       0.185054649            -85.922        0.981521913              4.421        0.981521913              4.388        0.184416595            -85.035
               511       0.184671552             -85.85        0.980618314              4.376        0.981634922              4.389         0.18403482            -85.109
               512       0.184098394            -86.005        0.981860977              4.324        0.982087085              4.338        0.183823064            -85.205
               513       0.183505886            -86.011        0.980392545              4.312        0.981860977              4.314        0.182999541            -85.195
               514       0.183421398            -85.944        0.981295935               4.27        0.981860977              4.306        0.182873173            -85.216
               515       0.182599675            -86.062        0.981521913              4.225        0.981634922               4.26        0.182284609            -85.264
               516       0.182263623            -86.057        0.981295935              4.181        0.981182966              4.175        0.181886305            -85.266
               517        0.18209583            -86.175        0.981408918              4.175        0.982200159              4.087        0.181196582            -85.396
               518       0.181530666            -86.157        0.981521913              4.118        0.981974025              4.129         0.18073822            -85.429
               519        0.18102977            -86.253        0.981634922              4.052        0.982652583              4.089        0.180405594            -85.469
               520       0.180509474            -86.167        0.981747943              4.007        0.981408918              4.041        0.180094313            -85.523
               521       0.180301774             -86.32        0.981521913              4.006        0.982087085              4.015        0.179494027             -85.45
               522       0.179700796            -86.425        0.982878873              3.973        0.982087085               3.95        0.179452701            -85.531
               523       0.179143065            -86.374        0.982539457              3.929        0.981634922              3.934         0.17889574            -85.596
               524        0.17910182            -86.359        0.981974025              3.849        0.982652583              3.887        0.178361042             -85.66
               525       0.178731047            -86.375        0.982313245              3.917        0.983105215              3.911        0.178237877            -85.563
               526       0.178278922            -86.556        0.983105215              3.842        0.982313245              3.796        0.177868892            -85.752
               527       0.177623327            -86.562        0.981747943              3.782        0.982200159              3.768        0.176868299            -85.714
               528       0.177623327            -86.609        0.982200159              3.755        0.982992038              3.748        0.176725818            -85.719
               529       0.177031276             -86.64        0.982765721               3.73        0.982426345              3.681         0.17650215             -85.78
               530       0.176400576            -86.726        0.982426345              3.685        0.983218406              3.696        0.175893585            -85.824
               531       0.175974605            -86.712        0.983105215              3.636        0.983218406              3.676        0.175792361            -85.919
               532        0.17567097            -86.738        0.982426345              3.596        0.983218406              3.618        0.175327484            -85.871
               533         0.1753073             -86.83         0.98333161              3.533        0.983105215              3.609        0.174662632            -85.959
               534       0.174823576            -86.847        0.982087085              3.514         0.98333161              3.527        0.174160635            -86.034
               535       0.174662632            -86.832        0.983105215              3.509        0.982992038              3.532        0.174000301            -85.982
               536       0.174260919            -86.989        0.982313245              3.479        0.983218406              3.457        0.173460263            -86.035
               537       0.173600112            -86.934        0.983671299              3.457        0.983897824              3.462        0.173240728             -86.03
               538       0.173400362            -86.993        0.983218406              3.374        0.983897824              3.434        0.172742818            -86.188
               539       0.172862186            -87.159        0.983671299              3.363        0.983558056              3.349        0.172246339            -86.116
               540       0.172782598            -87.092        0.983558056              3.318        0.983558056                3.3        0.171988734            -86.264
               541       0.172147215            -87.085        0.982992038              3.317        0.983897824              3.271         0.17147468            -86.233
               542       0.171771062            -87.064        0.983444826               3.22        0.982878873              3.278        0.171178809            -86.282
               543       0.171178809            -87.302         0.98333161              3.189        0.983897824              3.173        0.170667175            -86.237
               544       0.170726132            -87.284        0.983218406              3.151        0.983897824              3.164        0.170411932            -86.359
               545       0.170863776            -87.425         0.98435103              3.144        0.983897824              3.192        0.170176662            -86.426
               546       0.170274651            -87.318        0.983897824              3.108        0.984124401              3.146        0.169472798            -86.439
               547        0.17009831             -87.44         0.98333161              3.121        0.983897824              3.032        0.169160905            -86.477
               548       0.169492311            -87.472        0.984237709              3.054        0.984691071              3.046        0.168888469            -86.417
               549       0.168985717            -87.406        0.984464364              2.996        0.984011106              2.984        0.168306156            -86.516
               550       0.168888469            -87.415         0.98435103              3.023        0.984464364              2.983        0.168441849            -86.543
               551        0.16853884            -87.614        0.983784555               2.96        0.983444826              2.932        0.167629326            -86.527
               552       0.167977069            -87.579        0.983897824              2.864        0.984804445              2.882        0.167378627            -86.678
               553       0.167629326            -87.591         0.98435103              2.893        0.984917831              2.916        0.167089823            -86.646
               554       0.167340091            -87.569        0.983558056              2.862        0.984804445              2.851        0.166609592             -86.71
               555       0.166974442            -87.688        0.984464364              2.821         0.98503123              2.841         0.16618813            -86.671
               556       0.166417886            -87.709        0.984917831              2.739        0.984917831              2.794        0.165824998            -86.794
               557       0.166111615            -87.737        0.984464364              2.734         0.98503123              2.763        0.165310333            -86.814
               558       0.165920482            -87.849        0.984691071              2.749        0.984917831              2.667        0.164949119            -86.858
               559        0.16548171            -87.832        0.983897824               2.61        0.984577711              2.689        0.164493977            -86.831
               560       0.165139133            -87.868        0.984804445              2.602        0.984464364              2.675        0.164134547            -86.907
               561       0.164702427            -87.897        0.984804445              2.609         0.98435103              2.606        0.163775902            -86.883
               562       0.164342542            -87.859        0.984464364              2.568        0.983897824              2.562        0.163568624            -86.973
               563       0.163738196             -87.98        0.984464364              2.552        0.984464364              2.542        0.163230007            -86.963
               564       0.163342802            -87.999         0.98503123              2.505        0.985258068              2.501         0.16304219            -87.013
               565       0.163173639            -88.049        0.984464364              2.473        0.985371507              2.428        0.162461328            -87.031
               566       0.162760869            -88.028        0.985258068              2.442        0.985598423              2.439        0.162293079            -87.097
               567       0.162461328            -88.106        0.984691071              2.377        0.985484958              2.417        0.161789376            -87.117
               568       0.161938458            -88.131        0.985258068              2.388        0.985371507              2.389        0.161640431            -87.128
               569       0.161808004            -88.132        0.984804445              2.342         0.98503123              2.334        0.161138754              -87.1
               570       0.161398688            -88.239        0.985484958              2.285        0.985258068              2.288        0.160823682            -87.189
               571       0.161064564            -88.225        0.985258068              2.258        0.986052413              2.238        0.160250724            -87.227
               572       0.160694125            -88.264        0.985598423              2.197        0.985598423              2.223        0.160029482            -87.272
               573       0.160232275            -88.349        0.985938896              2.208        0.986052413              2.198        0.159643044            -87.313
               574       0.159937388            -88.349        0.985938896              2.172        0.986165943              2.185         0.15975336            -87.259
               575       0.159698192            -88.327        0.985938896                2.1        0.985938896              2.133        0.159092608            -87.403
               576       0.159367588            -88.445        0.985258068              2.087        0.986165943              2.062        0.158544069            -87.404
               577       0.159037668            -88.362        0.984917831              2.071        0.985371507              2.075        0.158179428            -87.393
               578       0.158562323            -88.507        0.986165943              2.023        0.986279486              1.994        0.157979233            -87.458
               579        0.15814301            -88.561        0.985825392               2.01        0.986620193                  2        0.157742965             -87.47
               580       0.158052002            -88.399        0.985484958              1.957        0.986052413              1.984         0.15719908            -87.502
               581       0.157470788            -88.445        0.985598423              1.878        0.986052413              1.916         0.15685559            -87.547
               582       0.157307707            -88.568        0.985825392              1.932        0.986733789              1.871        0.156458802            -87.524
               583       0.156765322            -88.576        0.985938896              1.871        0.985484958              1.869        0.156098957            -87.532
               584       0.156476816            -88.581        0.986620193              1.826        0.985598423              1.872         0.15595525            -87.511
               585       0.156278776            -88.635        0.986847397               1.83        0.986847397              1.811        0.155650314            -87.673
               586       0.155901395            -88.638        0.986506611              1.777        0.986506611              1.779        0.155328089            -87.674
               587       0.155471218            -88.721        0.986506611              1.762        0.986052413              1.748        0.154970845             -87.69
               588       0.154863832            -88.915        0.985825392              1.684        0.986506611              1.643        0.154099064             -87.68
               589       0.154810353            -88.756        0.986733789              1.686        0.986961019              1.674        0.154347642            -87.728
               590       0.154578824            -88.832        0.986620193              1.644        0.986279486              1.634        0.153780051             -87.69
               591       0.154116806            -88.942        0.986847397              1.594        0.986620193               1.58        0.153550063             -87.85
               592       0.153850885            -88.939        0.986961019               1.58        0.986733789              1.573        0.153232187            -87.788
               593       0.153620792            -88.923        0.986733789              1.553        0.986961019               1.57        0.152791783            -87.878
               594       0.153550063            -88.902        0.986506611              1.543        0.987529323              1.524        0.152528149            -87.857
               595       0.152826969            -88.921        0.986506611              1.478        0.987415636              1.506        0.152317569             -87.86
               596       0.152844565                -89        0.986620193               1.44        0.987074653               1.46        0.151757443            -87.935
               597       0.152352646            -88.989        0.986733789              1.449        0.987301962              1.427        0.151757443            -88.009
               598       0.152229913            -89.081        0.986733789              1.412        0.987756736              1.353        0.151112364            -88.054
               599        0.15153048            -89.014        0.986620193               1.34        0.986961019              1.371        0.150782174            -87.999
               600       0.151356125            -89.142        0.986961019              1.295        0.987529323              1.326         0.15055667            -88.067
               601       0.150955868            -89.142        0.987188301               1.28        0.987301962              1.332        0.150123956             -88.08
               602       0.150279589            -89.151        0.986279486              1.286        0.986961019              1.262        0.149847672            -88.029
               603       0.150466117            -89.277        0.987162647              1.193        0.988527406              1.244         0.14956801            -88.182
               604       0.150003019            -89.302        0.986620193              1.198        0.987643023               1.19        0.149262256            -88.156
               605       0.149675253            -89.284        0.986393042              1.162        0.987984202              1.148        0.148713365             -88.22
               606       0.149262256            -89.297        0.987643023              1.145        0.987756736              1.174         0.14866201            -88.274
               607       0.148816128            -89.405        0.987188301              1.096        0.987074653              1.117        0.148234741            -88.257
               608       0.148593564            -89.501        0.987301962              1.048        0.987756736              1.051        0.147757658            -88.332
               609       0.148405501            -89.443        0.986847397              1.068        0.986961019              1.017        0.147655626            -88.214
               610       0.148149435            -89.473        0.987074653              0.999        0.987188301              1.042        0.147332989            -88.392
               611       0.147757658             -89.65        0.987643023              0.999        0.988211719              1.008        0.146757397            -88.378
               612       0.147536678            -89.427        0.987984202              1.029        0.987643023              0.959        0.146588533            -88.344
