!{251R15S0R9}
!Johanson Technology Inc.
!www.johansontechnology.com
!Test Board Conditions:
!Substrate Type  RO4350B
!Substrate Thickness        20 mil
!Substrate Dk      3.66
!TL Type: GCPW 
!TL Trace Width  34 mil
!TL Gap  10 mil
!Electrode orientation      Horizontal
!DUT TOPOLOGY	SERIES
!Mounting Pad LxW         26x52 mil
! Created Thu Mar 12 16:30:08 2020
# mhz S ma R 50
! 2 Port Network Data from SP1.SP block
! freq  magS11  angS11  magS21  angS21  magS12  angS12  magS22  angS22  
!     
               500       0.964929809            -21.325        0.260792876             68.758        0.261604809              68.81        0.963375779            -21.403
               501        0.96480976            -21.376        0.261331456              68.67        0.262205434              68.75        0.963366828            -21.452
               502       0.964694137            -21.444        0.261962809             68.552        0.262596927             68.724        0.963584131            -21.514
               503       0.964544181             -21.46        0.262405012             68.558        0.262979639             68.689        0.963434348            -21.559
               504       0.964529471            -21.463        0.262763781             68.515        0.263551506             68.725        0.961757324            -21.557
               505       0.964385392            -21.545        0.263299857              68.48        0.264028388              68.58        0.962278148            -21.636
               506       0.964140802            -21.577        0.263870271              68.49        0.264630844             68.575        0.962588043            -21.626
               507       0.964180318            -21.623        0.264519847             68.375         0.26473311             68.541        0.961852022            -21.702
               508       0.963758339            -21.674        0.264891577             68.351        0.265624512             68.515        0.962760246            -21.743
               509       0.963825931            -21.667        0.265337484             68.313        0.266041021             68.467        0.962052132            -21.778
               510       0.963548212            -21.725        0.265994986             68.273          0.2665161             68.437        0.962439524            -21.844
               511       0.963537138            -21.759         0.26614509             68.265        0.267004425             68.362        0.961431746            -21.877
               512        0.96343049            -21.828        0.266821233             68.211        0.267467111             68.314        0.960993359            -21.909
               513       0.963292784            -21.839        0.267182683             68.165        0.267891113             68.317        0.961077272            -21.949
               514       0.963060608            -21.969        0.267672416             68.065        0.268443949             68.189         0.96173101            -22.039
               515       0.962927213            -21.943        0.268314078             68.084         0.26896357             68.229        0.961044417            -22.047
               516       0.962759619            -22.019        0.268762001             68.031        0.269598745             68.125        0.960877151            -22.117
               517       0.962676049            -22.046        0.269451228             67.971        0.269854812             68.076        0.961568365            -22.148
               518       0.962527008             -22.12        0.269844099             67.877        0.270497294             68.064          0.9607556             -22.21
               519       0.962277236            -22.106        0.270271475             67.942        0.271019296             68.065        0.961059358            -22.177
               520       0.962172808            -22.161        0.270865117             67.921        0.271395773             67.964        0.961176356            -22.224
               521       0.962072894            -22.197        0.271305113             67.863        0.271805336             67.945        0.960634055            -22.298
               522       0.962014494            -22.235        0.271569889             67.828         0.27250948             67.872        0.959580945            -22.323
               523       0.961886449            -22.339        0.272128361               67.7        0.272849905             67.888        0.959784665            -22.344
               524       0.961705272            -22.312        0.272704307             67.707        0.273427377             67.824        0.959603884            -22.442
               525       0.961589017            -22.369        0.273048311             67.659        0.273898399             67.828        0.958714938            -22.456
               526       0.961376009            -22.394        0.273554133             67.649        0.274405796             67.784        0.959164905            -22.504
               527       0.961286314            -22.449        0.274032933             67.603        0.274854441             67.676        0.958854607            -22.586
               528       0.961025222            -22.517        0.274716526             67.533        0.275540084             67.609        0.959808929            -22.603
               529       0.961074535             -22.51        0.275142114               67.5         0.27571289             67.648        0.958974524            -22.605
               530       0.960779746             -22.58        0.275628321             67.488        0.276422786             67.582         0.95912197             -22.65
               531       0.960739907            -22.594        0.276315871             67.413        0.276634175             67.555        0.958640628            -22.745
               532       0.960499064             -22.69        0.276755937             67.319         0.27733006              67.51        0.958731388            -22.803
               533       0.960432287            -22.705        0.277215016               67.3        0.277726136             67.465         0.95833368            -22.839
               534        0.96005624            -22.746        0.277745272             67.264        0.278129257             67.436        0.959503747            -22.859
               535       0.960056211            -22.762        0.278033202             67.296         0.27889881             67.389        0.958179029            -22.873
               536       0.960087727            -22.853        0.278330576             67.174        0.279164968             67.316        0.956887581            -22.963
               537        0.95979856            -22.881        0.279113019             67.162        0.279885303             67.259        0.958252794            -22.971
               538       0.959522855            -22.933         0.27967608             67.137          0.2803208             67.224        0.958418799            -23.027
               539       0.959544766            -22.947        0.280165878             67.095        0.280714755             67.206        0.957668584            -23.058
               540       0.959465433            -22.988        0.280756185             67.033        0.281209076             67.129        0.957148522            -23.127
               541       0.959231597            -23.061         0.28117291             67.002        0.281658898             67.103        0.957576492            -23.146
               542       0.959272013            -23.081         0.28137906             66.952        0.282027705             67.066        0.956294755            -23.167
               543       0.958928008            -23.143        0.282316333             66.887        0.282706637             67.024        0.957604115            -23.226
               544        0.95874963            -23.161        0.282393834             66.898          0.2834035             66.997        0.956764845            -23.255
               545       0.958644903            -23.191        0.283242075             66.821        0.283666315             66.976        0.957100995            -23.309
               546       0.958560066            -23.228        0.283641212             66.783         0.28406605             66.929        0.956135255            -23.388
               547       0.958213491              -23.3        0.284159566             66.748        0.284814622             66.872         0.95733135            -23.363
               548       0.958174755            -23.387        0.284737537             66.723         0.28519685             66.785        0.956631604            -23.411
               549       0.958103422            -23.371        0.284716339              66.68        0.285569875              66.78        0.955899845              -23.5
               550       0.957928531            -23.436        0.285616379             66.617        0.286274793              66.73        0.956165586            -23.492
               551       0.957858874            -23.472        0.285924603             66.535        0.286517747              66.67         0.95565586            -23.622
               552       0.957711993            -23.529        0.286341915             66.556        0.287068094             66.662        0.955509316             -23.54
               553        0.95748268            -23.566        0.286933283             66.427        0.287627845             66.639        0.955500518            -23.685
               554       0.957310552            -23.588         0.28767548             66.435        0.287874268             66.602        0.955658762            -23.712
               555       0.957278793            -23.659        0.287931008             66.351        0.288561534             66.533        0.955187076            -23.723
               556       0.957117636            -23.681        0.288280534             66.338        0.289044905              66.53         0.95436679            -23.765
               557       0.956799718            -23.686        0.288982164             66.321        0.289715038              66.53        0.955148809            -23.787
               558        0.95689562            -23.805        0.289277441             66.212        0.290044455             66.358        0.953596321            -23.879
               559       0.956530074            -23.762        0.290167407             66.269        0.290501667              66.38        0.954989571            -23.914
               560       0.956353844            -23.849        0.290448146             66.274        0.290950165             66.313        0.954593797            -23.934
               561       0.956375613             -23.87         0.29068893             66.193        0.291426133             66.281          0.9536269            -23.983
               562       0.956164424            -23.906        0.291361779             66.149        0.291898982             66.262        0.954184991            -24.009
               563       0.956103041            -23.972        0.291745858             66.037        0.292519417              66.15        0.953355112            -24.115
               564       0.955914816            -24.006        0.292293524             66.038        0.292832445             66.185        0.953496697            -24.097
               565       0.955643502            -24.049        0.292917899             65.975        0.293390408             66.147        0.954104427            -24.158
               566        0.95561602            -24.118        0.293246895             65.934        0.293990584             66.039        0.953308404            -24.191
               567       0.955518369             -24.14         0.29385903             65.895        0.294231415             66.024        0.953430499            -24.217
               568       0.955308486            -24.164        0.294336171             65.846        0.294878858             66.004        0.953330825             -24.27
               569       0.955201318            -24.225        0.294845778             65.763        0.295287398             65.945        0.952785004            -24.354
               570       0.954865183            -24.269        0.295319455             65.804         0.29596616              65.88        0.953217612            -24.376
               571       0.954805579            -24.361        0.295539101              65.72        0.296288604             65.831        0.952828959            -24.418
               572        0.95472434            -24.391        0.296161087             65.689        0.296672981             65.778         0.95208998            -24.477
               573       0.954521509             -24.38        0.296814914             65.661        0.297259484             65.771        0.952655149            -24.492
               574       0.954264803            -24.402        0.297350659             65.616        0.297933203             65.721        0.952727949            -24.572
               575       0.954223662            -24.457        0.297577562              65.57        0.298229212             65.718        0.951700246              -24.6
               576       0.954098858            -24.454        0.298293216             65.566        0.298705608             65.687          0.9521237            -24.582
               577       0.953699772            -24.567        0.298683807             65.469        0.299510242              65.58        0.952712095            -24.675
               578        0.95381326            -24.591        0.299201217             65.445        0.299683861             65.555        0.951290929            -24.712
               579       0.953508955            -24.641        0.299760757             65.415        0.300278872             65.482        0.952082924            -24.772
               580       0.953493377            -24.698        0.300273967              65.32        0.300654481              65.48        0.951519474            -24.783
               581       0.953326812            -24.698        0.300567353             65.361        0.301052201             65.435        0.950915239            -24.842
               582       0.952946249            -24.725        0.301174644              65.26        0.301834171             65.399        0.952178575            -24.893
               583       0.952960993            -24.822        0.301560965             65.206        0.302186546             65.366        0.950659788            -24.945
               584       0.952904091            -24.797        0.302203292             65.181         0.30248176             65.328        0.950821933             -24.98
               585       0.952779945            -24.884        0.302860481             65.156        0.302755894             65.248        0.950150951            -25.007
               586       0.952652982            -24.914        0.302959609             65.103        0.303343527             65.205         0.95013372            -25.073
               587       0.952421741            -24.972        0.303724133             65.058         0.30393401              65.18        0.950231232            -25.088
               588       0.952135881            -24.997        0.304157781             65.087        0.304578281             65.103        0.950711904            -25.121
               589       0.952074056            -25.055         0.30459357             65.014        0.304839142             65.115        0.949993712            -25.147
               590        0.95203682            -25.079        0.304897417             64.917        0.305318939             65.059        0.949409876            -25.233
               591       0.951811507            -25.107        0.305527953             64.915        0.305915126             65.008        0.949841085            -25.251
               592       0.951568295            -25.179        0.305907386             64.842        0.306612576             64.968         0.94970771            -25.306
               593       0.951459704            -25.215        0.306824758             64.784        0.306577586             64.941        0.949708664            -25.356
               594       0.951113668            -25.268        0.307137201             64.789        0.307420216             64.845        0.950019288            -25.422
               595       0.951079179            -25.308        0.307515262             64.719        0.307834063             64.841        0.949547455            -25.446
               596       0.951047986            -25.312        0.307930304             64.757        0.308143088             64.751        0.948423771            -25.506
               597       0.950898005            -25.386        0.308520436             64.632        0.308662548             64.774        0.948601783            -25.501
               598       0.950661498            -25.396        0.308870126              64.63        0.309368367             64.706         0.94902118            -25.551
               599       0.950409439            -25.464        0.309571336              64.63        0.309713931             64.654        0.948988044            -25.576
               600       0.950397165            -25.499        0.309709931             64.563        0.310066704             64.662        0.947665635            -25.633
               601       0.950182858            -25.468        0.310210998             64.505        0.310747176              64.62        0.948543366            -25.706
               602       0.949905597            -25.583        0.311014364             64.476        0.311157624             64.546        0.948484955            -25.733
               603        0.94996143            -25.638         0.31139094              64.37        0.311462649             64.487        0.947885702            -25.794
               604       0.949744043            -25.655        0.311714194             64.362        0.312109206             64.477        0.947668791            -25.821
               605       0.949617848            -25.738        0.312283378             64.316         0.31249917             64.378        0.947542872             -25.87
               606       0.949363194             -25.75        0.312595262             64.282        0.313243733             64.429        0.946852631            -25.892
               607       0.949082978            -25.813        0.313475919             64.242        0.313475919             64.313        0.948427601            -25.912
               608       0.949141451             -25.86        0.313784105             64.205        0.313928641             64.251        0.946631475            -26.001
               609       0.948794052            -25.869        0.314428536             64.203        0.314319955             64.269         0.94748415            -25.998
               610       0.948852848            -25.898        0.314737771             64.117        0.314774009             64.198        0.946561563            -26.089
               611       0.948575986            -25.948        0.315153494             64.092        0.315516537             64.208        0.946721251            -26.073
               612       0.948423445            -25.984        0.315538445             64.075        0.316047443             64.131        0.946460037             -26.13
