!{251R15S680}
!Johanson Technology Inc.
!www.johansontechnology.com
!Test Board Conditions:
!Substrate Type  RO4350B
!Substrate Thickness        20 mil
!Substrate Dk      3.66
!TL Type: GCPW 
!TL Trace Width  34 mil
!TL Gap  10 mil
!Electrode orientation      Horizontal
!DUT TOPOLOGY	SERIES
!Mounting Pad LxW         26x52 mil
! Created Thu Mar 12 17:15:55 2020
# mhz S ma R 50
! 2 Port Network Data from SP1.SP block
! freq  magS11  angS11  magS21  angS21  magS12  angS12  magS22  angS22  
!     
               500      0.0230613783             -96.62         0.99858896             -4.543        0.999079448             -4.487       0.0219172096            -95.808
               501      0.0228345582            -96.734        0.998996688             -4.506        0.998641738             -4.554       0.0215448073            -95.692
               502      0.0228375757            -96.698        0.998619403             -4.525        0.998929296             -4.514       0.0217745907            -95.747
               503      0.0225643934            -96.405        0.999152923             -4.528        0.998663583             -4.559       0.0215017428            -95.877
               504      0.0225708796            -96.527        0.998878541             -4.561        0.998855887             -4.606       0.0213328305            -95.986
               505      0.0221952041            -96.725        0.998493503             -4.637        0.999216032             -4.636       0.0210261202            -95.719
               506      0.0221080277            -96.432        0.998932056             -4.634        0.998619403             -4.637       0.0209266639            -95.935
               507      0.0220509057            -96.512        0.998335311             -4.687        0.999222793             -4.648       0.0207145943            -95.947
               508      0.0218241515            -96.704        0.999326992             -4.678        0.998488502              -4.64       0.0208347056            -95.681
               509      0.0215236346            -97.295        0.999284119             -4.685         0.99826745             -4.682       0.0205336243            -95.931
               510      0.0214338408            -96.589        0.998389489             -4.691        0.999089972             -4.713       0.0203798039            -95.708
               511       0.021189513             -96.83          0.9982245             -4.725        0.999319207             -4.761       0.0201150434            -96.338
               512       0.021375272             -97.16        0.998466963             -4.701        0.999054315             -4.792       0.0201354644            -96.527
               513      0.0209809156            -96.918        0.997526486              -4.79        0.999360492             -4.792       0.0196550628            -96.811
               514      0.0209584049            -97.353        0.998847593             -4.785        0.998721449             -4.782       0.0198819157            -96.975
               515      0.0207133336            -97.118        0.998504439             -4.826        0.998619403             -4.761       0.0194536008             -96.15
               516      0.0205345737            -97.126         0.99916426             -4.826        0.998634099             -4.856       0.0193502104            -96.151
               517      0.0205164743             -97.65        0.999284109             -4.861        0.998050993             -4.818       0.0193955782            -96.436
               518      0.0201324709            -97.642        0.998895209              -4.85        0.998925685             -4.931       0.0191865584            -96.573
               519      0.0200434823            -97.422         0.99851657             -4.922        0.999285133             -4.884        0.018902671             -95.88
               520       0.019712472            -98.142        0.999269795             -4.924        0.998139149             -4.899       0.0188773527            -96.776
               521      0.0199594323            -97.763        0.998389452             -4.916        0.999046572             -4.921       0.0185715514            -96.727
               522       0.019635327            -98.199        0.998836005             -4.922        0.998551202             -4.981       0.0183945064            -97.299
               523       0.019434631            -97.781         0.99931533             -4.966        0.997885816             -4.976       0.0184024777             -97.27
               524      0.0194257292            -97.863        0.998991782             -4.985        0.998538653             -4.972       0.0182821526            -97.318
               525      0.0190963339            -97.854        0.998907905             -5.009         0.99873438             -5.021       0.0180218761            -97.151
               526      0.0192226322            -97.979        0.998511239             -5.085        0.998998434              -5.05       0.0178469028            -97.021
               527      0.0189027324            -98.327        0.998724917              -5.05        0.998736416             -5.063       0.0177592485            -97.671
               528      0.0186414366             -99.41        0.998326683             -5.134        0.998798264             -5.106       0.0175036806            -97.908
               529       0.018559439            -98.659        0.999180028             -5.113        0.997976569             -5.099       0.0174527893            -97.652
               530      0.0186283258            -99.364        0.998827694             -5.132        0.998343685             -5.134       0.0174772792             -97.79
               531      0.0181628477             -99.07        0.999007149             -5.139         0.99846384             -5.134       0.0172577408            -97.505
               532      0.0181676261            -98.594        0.998908673             -5.167        0.998651788             -5.144       0.0171691258            -97.752
               533      0.0180007053            -99.435        0.999091276             -5.157        0.998271499             -5.193       0.0168418394            -97.008
               534      0.0180035032             -98.85        0.998190013             -5.167        0.999044149             -5.217       0.0167092524             -97.86
               535      0.0177249798            -98.889        0.998403739             -5.201        0.999065469             -5.235       0.0165362012            -97.488
               536      0.0176598189            -99.699        0.999085076             -5.266        0.998147553             -5.255       0.0165571753            -97.547
               537      0.0172854249            -100.05        0.998283076             -5.294        0.998819376               -5.3        0.016172608            -98.456
               538      0.0173319683            -99.816        0.998367045               -5.3        0.998807482             -5.284       0.0161639645            -98.362
               539      0.0171223253            -99.808          0.9986456             -5.325        0.998446256             -5.335       0.0157239894            -98.636
               540      0.0168692825            -99.206         0.99873774             -5.345         0.99886768             -5.317         0.01585976            -97.996
               541      0.0169215461           -100.133        0.998450965             -5.357        0.998503269             -5.311       0.0156185259            -99.198
               542      0.0163750032           -100.278        0.999083862             -5.341        0.997929231             -5.353       0.0153402131            -98.566
               543       0.016579736            -99.829        0.998452967             -5.339        0.998651048             -5.387       0.0152643253            -99.124
               544      0.0166923931           -100.097        0.998691268             -5.363        0.998474097             -5.397       0.0150493798            -97.823
               545       0.016314929           -100.397        0.998892351             -5.415        0.998337621             -5.444       0.0149497933            -97.988
               546      0.0161925144           -100.171        0.998501315             -5.439        0.998784839              -5.41       0.0147966803            -98.165
               547       0.015823992           -100.408        0.998745771             -5.502        0.998883533             -5.466       0.0149370919            -97.776
               548      0.0159878784             -100.2        0.998864521             -5.457        0.998558327             -5.518       0.0147448663            -98.089
               549      0.0155444946           -100.186        0.998632176             -5.484        0.998982097             -5.499       0.0145069664              -97.9
               550      0.0155421965            -99.897        0.998858562             -5.515        0.998575363             -5.541       0.0143453912            -98.811
               551      0.0154793632               -101        0.998957909             -5.552         0.99791463             -5.536       0.0140994798            -99.163
               552      0.0154536413           -101.047        0.998946725             -5.575        0.998115564             -5.584       0.0140113773            -98.494
               553      0.0150067097           -100.379        0.998891992             -5.651        0.998645516             -5.582       0.0139616093            -98.694
               554      0.0150945534           -100.693        0.998703028             -5.582        0.998737638             -5.619        0.013758474            -98.199
               555      0.0148135435           -101.077        0.998806723             -5.619        0.998684954             -5.659       0.0137138362            -98.331
               556      0.0148631889           -101.178        0.998630202             -5.673         0.99838017             -5.652        0.013424929            -99.797
               557       0.014612433            -100.23        0.999156382             -5.681        0.998048466             -5.689       0.0133651098            -99.314
               558      0.0146403032            -99.981        0.999047346             -5.707        0.998365053             -5.666       0.0133767334            -99.221
               559      0.0142325628           -100.375        0.998963244             -5.695        0.998734584             -5.697       0.0132887187            -98.835
               560      0.0141437437           -101.041        0.998890144             -5.734        0.998659477             -5.745       0.0130036232            -98.656
               561      0.0139640931           -100.398        0.998830937              -5.74        0.998865666             -5.734       0.0127588854            -98.585
               562      0.0138523486           -101.067         0.99858172               -5.8        0.998754069             -5.767       0.0126436776            -99.895
               563      0.0137240377           -100.635        0.998720127             -5.772        0.998816831              -5.77       0.0125771402            -99.544
               564      0.0138637413           -100.437        0.999066842             -5.788        0.998542135             -5.812        0.012450318            -98.253
               565      0.0135204219           -100.973        0.998983569             -5.847        0.998598927             -5.823       0.0123705852            -99.095
               566      0.0135414432           -101.334        0.998571354             -5.878        0.998877208             -5.819       0.0119940251            -98.425
               567      0.0132892356           -100.318        0.998619403              -5.87         0.99884937             -5.879       0.0121045877            -97.811
               568      0.0129720227            -101.41        0.998839132             -5.902        0.999087208             -5.888       0.0118469812            -97.473
               569      0.0131660198           -102.845        0.999036612             -5.877        0.998271573             -5.893       0.0118878825            -98.323
               570      0.0130204685            -99.985        0.999312362             -5.925        0.998680592             -5.923       0.0118297784            -97.722
               571       0.012998086           -101.569        0.999195703             -5.956        0.998073921             -5.942       0.0114427236            -98.442
               572      0.0126807134           -101.641        0.999004484             -5.983         0.99857994             -5.992       0.0111839106            -98.305
               573      0.0124420948            -101.22        0.998980953             -6.017        0.998828228             -6.015       0.0111453448            -98.509
               574      0.0123106847           -101.425        0.998153557             -6.061        0.999285668             -5.964       0.0110517794            -99.122
               575      0.0122746154           -102.295         0.99885131              -6.03        0.998726776             -6.006       0.0110308224             -99.17
               576      0.0120135619           -101.824          0.9986021             -6.069        0.999140101             -6.034       0.0108560489            -98.815
               577      0.0118948966           -102.385        0.999291221             -6.064        0.997932742             -6.021       0.0106723651            -99.453
               578      0.0120012777           -101.466        0.999247751             -6.111        0.998405547              -6.12       0.0106102956            -98.425
               579      0.0115333501            -101.85        0.999113262              -6.11         0.99898329             -6.119       0.0105549328            -98.077
               580      0.0117377076           -101.148        0.999207966             -6.153        0.998696177              -6.08        0.010480531            -98.472
               581      0.0115110077           -101.711        0.998764267             -6.147        0.999275054             -6.138       0.0103744085            -97.672
               582        0.01143337           -102.373        0.999242521             -6.167        0.998445253             -6.153       0.0102677257            -98.829
               583      0.0112916398           -101.314        0.999393089             -6.181        0.998268384             -6.213      0.00995536109            -98.526
               584      0.0110232355           -101.688        0.999425985              -6.21        0.998063531             -6.211      0.00967963735            -98.791
               585      0.0110299784               -102        0.999446756              -6.24        0.997986491             -6.211      0.00967775588            -98.457
               586      0.0109262399           -101.708        0.998973875             -6.269        0.998921316             -6.172      0.00947045251            -98.451
               587      0.0106956431           -101.923        0.999331095             -6.264        0.998767268             -6.277       0.0095467797             -97.78
               588      0.0105885856            -103.26        0.998529734             -6.268        0.999221228             -6.255      0.00938724066            -98.703
               589      0.0104193039           -101.695        0.999127369             -6.285        0.999135076             -6.256      0.00921910382            -97.378
               590      0.0103634178           -101.669         0.99908504              -6.36        0.999215256              -6.32      0.00918550433            -97.348
               591      0.0102058692           -101.213         0.99873438             -6.336        0.999343863             -6.326      0.00900430091            -98.537
               592      0.0101018362           -101.949        0.998753979              -6.34        0.999294328             -6.369      0.00901987092             -99.24
               593      0.0101189295           -102.572        0.999004006             -6.339        0.998925862             -6.355      0.00891835118            -99.603
               594     0.00988958818           -103.147        0.999124382             -6.379        0.998731637             -6.347        0.008440695             -98.42
               595      0.0097148209            -101.03         0.99904143             -6.456        0.999208106             -6.418      0.00842334907            -98.434
               596     0.00962787484            -102.45        0.999166422             -6.434        0.999059573             -6.432      0.00831917836            -97.249
               597     0.00949218854           -101.497        0.999119202             -6.514        0.998967722             -6.486      0.00809871947            -99.238
               598     0.00938547954           -100.778        0.999450103             -6.468        0.998492293             -6.412      0.00793517424            -98.413
               599     0.00919193714           -104.116        0.999485863             -6.544        0.998451895             -6.424       0.0080817804             -97.38
               600     0.00919602197           -101.926         0.99873438             -6.546        0.999329942             -6.515      0.00777946981            -97.002
               601     0.00892659929           -103.387        0.998679167             -6.573        0.999144358             -6.544      0.00744879531            -99.786
               602     0.00894521807           -102.731        0.998695821             -6.557        0.999391112             -6.558      0.00763028804            -97.932
               603     0.00884701334            -102.94        0.998935465             -6.581        0.999081535             -6.549      0.00739940302             -99.02
               604     0.00860834801           -104.309        0.998205173             -6.595        0.999497279             -6.544      0.00723218982            -97.502
               605     0.00862457142           -103.354        0.999446434             -6.629        0.998245872              -6.62      0.00729268614            -99.639
               606     0.00861871659           -104.034        0.998670911             -6.624        0.998983235             -6.602      0.00702655742           -101.041
               607     0.00832626061           -102.922        0.999181996             -6.633        0.998389489             -6.644      0.00686910255            -97.026
               608     0.00821606314           -103.146        0.998872871             -6.652        0.999146377             -6.676      0.00669520329            -99.039
               609     0.00788406144           -104.841        0.998960923             -6.661        0.999043043              -6.67      0.00658263842            -98.461
               610     0.00793871552           -104.145        0.999045492             -6.685        0.999027458             -6.667       0.0066450804            -99.899
               611      0.0076950518           -104.101        0.998852584             -6.733        0.999207022             -6.764      0.00640193923           -100.276
               612     0.00779560813           -104.769         0.99884937             -6.771        0.998946317             -6.737      0.00620940519            -99.843
