!{201R07S0R4}
!Johanson Technology Inc.
!www.johansontechnology.com
!Test Board Conditions:
!Substrate Type  RO4350B
!Substrate Thickness        10 mil
!Substrate Dk      3.66
!TL Type: GCPW 
!TL Trace Width  21 mil
!TL Gap  20 mil
!Electrode orientation      Horizontal
!DUT TOPOLOGY	SERIES
!Mounting Pad LxW         16x21 mil
!Agilent Technologies,N5230A,MY45001966,A.07.50.67
!Agilent N5230A: A.07.50.67
! Created Mon Mar  9 16:15:08 2020
# mhz S ma R 50
! 2 Port Network Data from SP1.SP block
! freq  magS11  angS11  magS21  angS21  magS12  angS12  magS22  angS22  
!     
               500       0.992339957            -10.353        0.113988353             79.765        0.114145943             79.921        0.993368716             -10.29
               501       0.992443174            -10.351         0.11409212             79.692        0.114420976             79.896        0.993357669            -10.313
               502       0.991515524            -10.369         0.11424824             79.771        0.114485245             79.926        0.993343647            -10.329
               503       0.992238325            -10.425         0.11446323             79.692        0.114938625             79.833        0.993266979            -10.354
               504       0.993078612            -10.406        0.114692133             79.695        0.114996237             79.813        0.993078612            -10.348
               505       0.991884871            -10.428        0.114884454             79.679        0.115281937             79.788        0.993256157            -10.418
               506        0.99294811            -10.462        0.115232916             79.633        0.115618293             79.741        0.993062434            -10.397
               507       0.992132798            -10.458        0.115324029             79.649        0.115802999             79.798        0.993161342            -10.407
               508       0.991609801            -10.472         0.11555555             79.618        0.115915313             79.752        0.993209376            -10.429
               509        0.99279297            -10.526        0.115826703             79.599        0.116280983             79.726        0.992907276            -10.458
               510        0.99200044            -10.551        0.116027748             79.504        0.116335394             79.745        0.993143181            -10.469
               511       0.992204665            -10.567        0.116345949             79.466        0.116641008             79.667         0.99311894             -10.51
               512       0.991854253            -10.611        0.116519298               79.5        0.116720694             79.608        0.993111155             -10.54
               513       0.992219367            -10.616        0.116803996             79.505        0.117059779              79.62        0.993019324            -10.555
               514       0.992077028            -10.604        0.116881397              79.51        0.117191306             79.628        0.992991186             -10.59
               515       0.992607458            -10.625        0.117119048             79.471        0.117578397             79.574        0.992836041            -10.586
               516       0.991519769            -10.668        0.117476602             79.408        0.117652559             79.553        0.993004868             -10.64
               517       0.991823565            -10.661        0.117675058             79.432        0.117959907             79.508        0.992966101            -10.632
               518       0.991531957            -10.693        0.117830227             79.382         0.11821068             79.605        0.992902756             -10.65
               519       0.990876136             -10.75        0.118050918             79.313        0.118459356             79.451        0.992931684            -10.701
               520       0.992047414            -10.761        0.118272133             79.302        0.118626695              79.47        0.992847232            -10.719
               521       0.990833247            -10.762        0.118454229             79.334        0.118740964             79.462        0.992888706            -10.707
               522        0.99157995            -10.833        0.118816768             79.256        0.119118094             79.422        0.992836503            -10.707
               523       0.991746952            -10.789        0.119028476             79.267        0.119357819             79.442        0.992775096            -10.766
               524        0.99174522            -10.747        0.119206549             79.276        0.119522623             79.445        0.992773363            -10.757
               525       0.991800266             -10.84        0.119391723             79.244        0.119735855              79.41        0.992714168            -10.779
               526       0.990353007            -10.874        0.119506087             79.273        0.119864347             79.367        0.992750295            -10.782
               527       0.991326522            -10.894        0.119913126             79.279        0.120106559             79.307        0.992697037            -10.809
               528        0.99127068            -10.862        0.120030678             79.244        0.120404373             79.379        0.992641118            -10.836
               529       0.991265795            -10.895        0.120292935             79.199        0.120598004             79.355        0.992636225            -10.836
               530       0.991877469            -10.957        0.120533571              79.13        0.120950599             79.194         0.99256287            -10.933
               531       0.992439002            -11.028        0.120754639             79.131        0.121074818             79.188         0.99232475            -10.863
               532        0.99054153             -10.97        0.120898994             79.134        0.121177695             79.238        0.992596384             -10.91
               533       0.991873009            -10.999        0.121173059             79.048        0.121690331             79.231        0.992444141            -10.918
               534       0.991740479            -11.026        0.121380253             79.103        0.121814234             79.156        0.992425786            -10.979
               535       0.991414702            -11.029        0.121606098              79.06        0.122026837             79.196        0.992442502            -10.973
               536        0.99218081            -11.055        0.121756126             79.023         0.12220552             79.078        0.992295045            -11.011
               537       0.990624811            -11.026        0.122041968             79.065        0.122351473             79.141        0.992451291            -11.005
               538        0.99115621            -11.079        0.122403012             78.976        0.122586348             79.089        0.992412227            -11.083
               539       0.991436973            -11.101        0.122494083             78.944        0.122889594             79.106        0.992350541             -11.06
               540        0.99131866            -11.152        0.122860784             78.916        0.123115655             79.057        0.992346361            -11.074
               541       0.990866677            -11.126        0.122974545             78.915        0.123201281             79.073        0.992350798            -11.085
               542       0.991912852            -11.149        0.123175268             78.907        0.123501865             79.046        0.992141274            -11.149
               543         0.9909992            -11.208          0.1233597             78.896        0.123800758             79.006        0.992255018            -11.096
               544       0.990898209            -11.185        0.123773891             78.766        0.124030657             78.991        0.992268131            -11.156
               545       0.990738722            -11.203         0.12379672             78.771        0.124267951             78.954        0.992222652            -11.199
               546        0.99200403            -11.224        0.124111904             78.798        0.124483972             78.913         0.99200403            -11.203
               547       0.991319538            -11.272        0.124297864             78.824        0.124727916             78.869         0.99211877            -11.216
               548       0.991341038            -11.302        0.124615793             78.756        0.124845555             78.851        0.992140287            -11.239
               549       0.991708618            -11.323        0.124819974             78.725        0.125266253             78.897        0.991936994            -11.246
               550       0.990165929            -11.314        0.124956249             78.746        0.125229884             78.832        0.992105777            -11.295
               551       0.991360431            -11.333        0.125308803             78.732        0.125554297             78.794        0.992045475            -11.283
               552       0.990019543            -11.375         0.12541335             78.665        0.125601194             78.746        0.992073314            -11.315
               553       0.991081546            -11.358        0.125663569             78.674        0.125909758             78.795        0.991994787            -11.358
               554       0.991448847            -11.429        0.126028948             78.619        0.126304933             78.801        0.991905532            -11.326
               555       0.990812226            -11.411        0.126180242             78.626        0.126427444             78.749        0.991953598            -11.351
               556       0.990552996            -11.444        0.126379815             78.639        0.126671151             78.656        0.991922441             -11.41
               557       0.989867476            -11.435        0.126539774             78.549        0.126773084              78.72        0.991920932            -11.425
               558       0.990617962            -11.516        0.126869199             78.526        0.127059224             78.641        0.991873297            -11.465
               559       0.990372903             -11.47        0.126940075             78.529        0.127276654             78.656        0.991856285            -11.435
               560       0.991032461            -11.533         0.12721487             78.529        0.127655015             78.657        0.991717278            -11.489
               561        0.99086256            -11.533        0.127486271             78.488        0.127765447             78.634        0.991775598            -11.474
               562       0.991264535            -11.596        0.127787852             78.419        0.128008724              78.58        0.991721135            -11.534
               563       0.990151275            -11.594         0.12796805             78.408        0.128144966             78.555        0.991748497             -11.53
               564       0.989571486            -11.628        0.128084676             78.326          0.1282027             78.547          0.9917385            -11.597
               565       0.989406717            -11.639        0.128402907              78.41        0.128580424             78.505        0.991687535            -11.575
               566       0.989963378            -11.597        0.128652766             78.414        0.128697209             78.493        0.991674461            -11.569
               567          0.990366            -11.702        0.128823686             78.344        0.129061207             78.468        0.991621015            -11.604
               568       0.989856497            -11.682        0.129009662             78.373        0.129396413             78.484        0.991567395            -11.632
               569       0.989511621            -11.722         0.12921737             78.298        0.129470522             78.473        0.991564339            -11.679
               570       0.990508056            -11.753        0.129511404             78.289        0.129705386             78.378        0.991534916            -11.695
               571       0.990025421            -11.728        0.129627261             78.249        0.129956003             78.397        0.991508282            -11.721
               572       0.989534071            -11.755        0.129876552             78.268        0.130250906             78.368         0.99147268            -11.702
               573       0.990073018            -11.778        0.130111962             78.207        0.130456951             78.335          0.9914418            -11.764
               574       0.990384735            -11.839         0.13046798             78.207        0.130588201             78.342        0.991411467            -11.753
               575        0.98980024            -11.858        0.130661474              78.21        0.130751763             78.235        0.991396896            -11.834
               576       0.989560248            -11.831        0.130825451             78.161        0.130900782             78.308        0.991384765            -11.792
               577       0.989638268            -11.856        0.131182674             78.146        0.131152472             78.261        0.991348789            -11.798
               578       0.988466847            -11.895        0.131193436             78.106        0.131420195             78.245        0.991315982            -11.885
               579       0.989002349            -11.923        0.131461118             78.073        0.131733831              78.19        0.991282234             -11.87
               580       0.989207466            -11.976        0.131639852             78.073        0.131882565             78.111        0.991259553            -11.926
               581        0.98916814            -11.967        0.132029239             78.023        0.132181331             78.114        0.991220145             -11.96
               582        0.98913303            -11.984        0.132085366             78.031        0.132420342             78.159        0.991184962            -11.933
               583       0.989454537            -12.029        0.132402396             78.014        0.132600708             78.052        0.991164741            -11.974
               584        0.98830155            -12.003        0.132430944             77.986        0.132720948             78.101        0.991150208            -11.967
               585       0.988942795            -12.033        0.132684799             77.958        0.133021295             78.087        0.991108431            -11.998
               586       0.988568451            -12.088        0.132986252             77.949        0.133277472             78.012        0.991075514            -12.013
               587       0.989663075            -12.089        0.133332913             77.927        0.133532619             78.066         0.99103129             -12.03
               588       0.989532085            -12.091        0.133637973             77.888        0.133714924             77.975        0.991014207            -12.094
               589       0.989283424            -12.186        0.133650544             77.833         0.13388155             77.953        0.990993332             -12.09
               590       0.989362544            -12.159         0.13393851             77.844        0.134154568             77.929        0.990958494            -12.101
               591       0.988763868            -12.162        0.134057954             77.838         0.13436699             77.922        0.990929113            -12.127
               592       0.988512575            -12.203        0.134363775             77.783        0.134534044             77.857        0.990905407            -12.169
               593       0.988474819             -12.21        0.134668372             77.799        0.134683877             77.938         0.99086756            -12.186
               594       0.989706427            -12.204        0.134851689             77.767         0.13496041             77.858        0.990846525            -12.221
               595        0.98910103            -12.242        0.135142097             77.751        0.135204347             77.868        0.990810623            -12.187
               596       0.989860534            -12.291        0.135292589             77.698        0.135495231             77.824        0.990772649             -12.23
               597       0.989464885            -12.299        0.135519062             77.752        0.135815828             77.763        0.990718759            -12.289
               598       0.989111669            -12.329        0.135767345             77.677        0.135970698             77.755        0.990707214            -12.312
               599       0.989170782             -12.33        0.135916217             77.638        0.136339369             77.758        0.990652363            -12.308
               600       0.989957441             -12.35        0.136290795              77.68        0.136447796              77.75        0.990641516            -12.261
               601        0.98902748            -12.371         0.13646094             77.631        0.136586683              77.74         0.99062289            -12.315
               602        0.98888897            -12.407        0.136630461             77.594        0.136787853             77.671        0.990598196            -12.346
               603       0.988402111            -12.418        0.136941053               77.6        0.136941053             77.637        0.990566564             -12.39
               604       0.988944025            -12.429        0.137126601             77.557        0.137189765             77.644          0.9905393            -12.396
               605       0.987772755            -12.453        0.137185131             77.509        0.137453893             77.652        0.990505847            -12.406
               606       0.988197585            -12.454        0.137465523             77.564        0.137671419             77.604        0.990475615            -12.377
               607       0.988627604            -12.482        0.137620374             77.523        0.137858241             77.551        0.990450401             -12.47
               608       0.988927285            -12.493        0.137915907             77.485        0.138154285             77.518        0.990408502            -12.471
               609       0.989450824            -12.548        0.138259256             77.438         0.13846634             77.545        0.990362561            -12.504
               610       0.988753049            -12.573        0.138400556             77.406        0.138575941             77.461        0.990348016            -12.508
               611       0.989184562            -12.525        0.138588543             77.491        0.138716247             77.522        0.990324059            -12.536
               612       0.989148263            -12.544        0.138918918              77.44        0.139014913             77.509        0.990287718             -12.53
