!{251R15S1R4}
!Johanson Technology Inc.
!www.johansontechnology.com
!Test Board Conditions:
!Substrate Type  RO4350B
!Substrate Thickness        20 mil
!Substrate Dk      3.66
!TL Type: GCPW 
!TL Trace Width  34 mil
!TL Gap  10 mil
!Electrode orientation      Horizontal
!DUT TOPOLOGY	SERIES
!Mounting Pad LxW         26x52 mil
! Created Thu Mar 12 16:35:18 2020
# mhz S ma R 50
! 2 Port Network Data from SP1.SP block
! freq  magS11  angS11  magS21  angS21  magS12  angS12  magS22  angS22  
!     
               500       0.928292991            -28.243        0.368964915             61.915        0.370028411             61.989         0.92626461            -28.323
               501        0.92818218            -28.323        0.369771322             61.787        0.370837143              61.87        0.926260675            -28.393
               502       0.927876571            -28.382         0.37045905             61.691        0.371398554             61.844        0.926275568            -28.463
               503       0.927646709            -28.395        0.370879311             61.694        0.371905506             61.815        0.925939493            -28.496
               504       0.927590108            -28.446        0.371326641             61.627        0.372525588             61.805        0.924498282            -28.527
               505        0.92725927             -28.54        0.372221268             61.585        0.373208206             61.658        0.924913639            -28.603
               506       0.926744104            -28.567        0.373000859             61.573        0.373946809             61.666        0.925038549            -28.623
               507       0.926849085            -28.627         0.37386002              61.45        0.374333785             61.597        0.923972457            -28.694
               508       0.926133218            -28.687        0.374346228             61.442          0.3751228             61.591        0.924854601            -28.716
               509       0.926123051            -28.697        0.374945973             61.405        0.375940136             61.515        0.923780294            -28.781
               510       0.925779332            -28.766        0.375714089             61.331        0.376406818             61.452        0.924181947            -28.851
               511        0.92567472            -28.789        0.375801408             61.344        0.377188465             61.385        0.922801737            -28.889
               512       0.925460505            -28.894        0.376580554             61.205        0.377752972             61.321        0.922269591            -28.991
               513       0.925084109            -28.902        0.377425484             61.164         0.37829554             61.321        0.923169018            -29.011
               514       0.924597044            -29.049        0.378226976             61.089        0.379055237              61.17        0.923320548            -29.102
               515       0.924507568            -29.036        0.378669626             61.096        0.379761095             61.187        0.921956585            -29.115
               516       0.924110246            -29.135          0.3794668             60.958        0.380429149             61.097        0.922409539             -29.23
               517       0.923927746            -29.153        0.380310231             60.971        0.380748332             61.049        0.922439749            -29.232
               518       0.923642958             -29.26        0.380762459             60.867        0.381508416                 61        0.921624738            -29.319
               519       0.923186912            -29.252        0.381451774             60.863        0.382111087             61.009        0.921912363            -29.331
               520       0.923243293            -29.317        0.381870545             60.831        0.382794916             60.888        0.921119893            -29.369
               521       0.923021076            -29.335         0.38252658             60.792        0.383275993             60.867        0.920474195             -29.44
               522       0.922669526            -29.384        0.383085908             60.724        0.384190107             60.819        0.920017688            -29.512
               523       0.922435218            -29.536        0.383783126             60.624        0.384667837             60.764        0.920207727            -29.497
               524       0.922150802            -29.529        0.384416436             60.615         0.38534697             60.685        0.919288756            -29.631
               525       0.921965104            -29.579        0.384781766             60.525        0.386113053             60.686        0.918786243            -29.636
               526        0.92142039            -29.616        0.385751673             60.529        0.386551905             60.635        0.919195349            -29.724
               527       0.921459517            -29.671        0.386079071             60.442        0.387325651             60.511        0.918388125            -29.792
               528         0.9209225            -29.754        0.386788082             60.419         0.38799228             60.464        0.919016024            -29.811
               529       0.920796968            -29.762         0.38776078             60.363        0.388296862              60.47        0.918784967             -29.84
               530       0.920328778            -29.849        0.388054749             60.328        0.389352531             60.385         0.91821208             -29.91
               531       0.920279385            -29.856        0.389107582              60.22        0.389600669             60.364        0.917740069            -30.011
               532       0.919890639            -29.976        0.389660335             60.129        0.390423724             60.281        0.917774949            -30.066
               533       0.919787994            -29.988        0.390155503             60.149        0.390874858              60.25        0.916827722            -30.077
               534       0.919131581            -30.056        0.391000838             60.039        0.391631565             60.181        0.918285419            -30.145
               535       0.919040074            -30.084        0.391412282             60.072         0.39254048             60.116        0.917137495            -30.153
               536       0.919035471            -30.162         0.39213199             59.929        0.392900222             60.053         0.91628858            -30.262
               537       0.918450397            -30.216        0.392785734             59.901         0.39378186             60.015        0.916865658            -30.286
               538       0.917973942            -30.273        0.393441669             59.899        0.394348646             59.952         0.91670659            -30.343
               539       0.918051719            -30.298        0.394109722             59.842        0.394745464             59.922         0.91572938            -30.391
               540         0.9178272             -30.36        0.394921633             59.751        0.395467614             59.825         0.91529465             -30.49
               541       0.917543554             -30.42        0.395254378             59.679        0.396028726             59.818        0.915327876            -30.517
               542        0.91741039            -30.453         0.39583451             59.652        0.396564336             59.799         0.91445777            -30.528
               543       0.916905217            -30.544         0.39680254             59.577        0.397396871             59.672        0.915323144            -30.606
               544       0.916447487            -30.602        0.397107039             59.575        0.398205803              59.65        0.914550275            -30.648
               545       0.916373664            -30.609        0.397898773             59.497        0.398586513             59.629        0.914160811            -30.716
               546       0.916139055            -30.684        0.398713919             59.439        0.399035374             59.546        0.913611163            -30.795
               547       0.915364777             -30.74        0.399387251             59.399        0.399985453             59.528        0.914627378            -30.784
               548        0.91555176            -30.821        0.399929004             59.299        0.400574134             59.416        0.913656403            -30.874
               549        0.91527803            -30.814        0.400085708             59.312        0.401146528               59.4        0.912857605            -30.941
               550       0.914890814            -30.904         0.40097682             59.248         0.40194744             59.349        0.912681542            -30.962
               551       0.914851744             -30.93        0.401421584             59.174        0.402300637             59.274        0.912012352            -31.074
               552        0.91452924            -31.015        0.402019941             59.128        0.402946693             59.261         0.91200579            -31.047
               553        0.91408619            -31.077        0.402890612             59.019        0.403679921             59.193         0.91187886            -31.181
               554       0.913821103            -31.097        0.403795229             59.022        0.403934719             59.147        0.912034324            -31.193
               555       0.913654156            -31.159        0.404326153             58.959        0.404791919             59.078        0.911657762            -31.223
               556       0.913464617             -31.23        0.404521613             58.906        0.405454131             59.051        0.910419874            -31.272
               557       0.912888698            -31.237        0.405571875             58.899        0.406085825             59.033        0.911103742            -31.302
               558       0.913010501            -31.349        0.405812829             58.762        0.406748325              58.89        0.909338906            -31.429
               559       0.912330716            -31.317        0.406726338             58.817        0.407147991             58.911        0.910546851            -31.448
               560       0.912111595            -31.389        0.406956488              58.78        0.407941583             58.852        0.909385399            -31.515
               561       0.911952497            -31.445        0.407588777             58.707        0.408528366             58.777        0.909226776            -31.566
               562       0.911735349            -31.515         0.40838407             58.645        0.408995748             58.723        0.909324292            -31.581
               563       0.911549521            -31.551        0.408865312             58.538        0.409949411              58.63        0.908511161            -31.702
               564       0.911224665            -31.639        0.409567481             58.527         0.41027539              58.62         0.90850112            -31.675
               565       0.910760824            -31.684        0.410397155             58.444        0.410775319             58.582        0.908770753            -31.773
               566       0.910427023            -31.761         0.41081391             58.431        0.411855756             58.486        0.908019426            -31.808
               567       0.910414041            -31.787         0.41147073             58.342        0.412039591             58.465        0.907692918            -31.863
               568       0.910075633            -31.809        0.412265969             58.281        0.412978542             58.398        0.907668966            -31.926
               569       0.909865252            -31.882        0.412883074             58.202        0.413358697             58.344        0.907145769            -32.003
               570       0.909366394            -31.951        0.413179628             58.214        0.414227474             58.263        0.906961602             -32.05
               571       0.908978537             -32.02        0.413907817             58.118        0.414623228             58.258        0.907201226            -32.096
               572       0.908958079            -32.088        0.414375294             58.104        0.415187103             58.158        0.905928358            -32.142
               573       0.908502055            -32.083        0.415600359             58.037        0.415887544              58.14        0.906308209            -32.204
               574       0.908262466            -32.133        0.415873615             57.974        0.416736334             58.063         0.90596489            -32.277
               575       0.908068237            -32.204        0.416263647             57.914        0.417079155             58.045        0.905249899            -32.325
               576       0.907686241            -32.199        0.417143761             57.939        0.417624292             58.034        0.905494366            -32.308
               577       0.907072058            -32.337        0.417533945             57.837        0.418689229               57.9        0.905611208            -32.414
               578       0.907264009            -32.347        0.418247817              57.82        0.418922497             57.866        0.904135836            -32.444
               579       0.906659298            -32.415        0.419125534             57.743        0.419704977             57.785        0.904990707            -32.525
               580       0.906610066            -32.469        0.419633872             57.636        0.420068907             57.788        0.904629064            -32.551
               581       0.906391969            -32.477        0.420209676              57.66        0.420645308             57.713        0.903786914            -32.613
               582       0.905751692            -32.514        0.420880839             57.588        0.421656844             57.673        0.904501214            -32.665
               583       0.905685147            -32.632        0.421334717             57.512         0.42211156             57.613        0.903082124            -32.732
               584       0.905401171            -32.597        0.422270801             57.472        0.422368043              57.61        0.903422811            -32.787
               585       0.905402229            -32.703        0.422806407             57.424        0.422757732             57.499        0.901968892            -32.835
               586       0.905080432            -32.753        0.423045593             57.426        0.423386665             57.454        0.901648315            -32.872
               587       0.904681766             -32.82        0.423980456             57.319        0.424224589             57.407        0.901873938            -32.925
               588        0.90423581            -32.836        0.424503917             57.302        0.425041859              57.33        0.902363879            -32.987
               589       0.904149312             -32.89        0.424903351             57.252        0.425343848             57.345        0.901135619            -33.009
               590       0.903936319            -32.947        0.425586493             57.135        0.425978653             57.272        0.900923336            -33.106
               591       0.903520566            -33.015        0.426371378             57.118        0.426764261             57.176        0.900923764            -33.147
               592       0.903029458            -33.075        0.426827033             57.025        0.427712475              57.16        0.900952548            -33.204
               593       0.902916569            -33.116        0.427905258             56.981        0.427708246             57.087        0.900839919            -33.251
               594       0.902342916            -33.171        0.428273905             56.977        0.428569848             57.008        0.900889682            -33.321
               595       0.902246405            -33.214        0.428672042             56.908         0.42901765             57.022        0.900067665            -33.352
               596       0.902016894            -33.236        0.429600395             56.903        0.429353168             56.912         0.89952797            -33.441
               597       0.901821348            -33.322        0.430002036             56.788        0.430249636             56.902        0.899229429            -33.446
               598       0.901375799            -33.365        0.430433331              56.78        0.431028407              56.83        0.899406234            -33.491
               599       0.900959642            -33.402        0.431325702             56.758        0.431425029             56.799        0.899198011            -33.533
               600       0.900901194             -33.46        0.431744847             56.698        0.431844271             56.764          0.8981051            -33.588
               601       0.900452922            -33.463        0.432425217               56.6        0.432773851             56.709        0.898588821            -33.699
               602       0.899970113            -33.598        0.433289422             56.563        0.433189665             56.618        0.898520701            -33.715
               603       0.900024135            -33.632        0.433814592             56.489         0.43356494             56.565        0.897747399            -33.781
               604       0.899907825            -33.668        0.433858418             56.457         0.43445823             56.511        0.897114814            -33.813
               605       0.899426631             -33.74        0.434876302             56.394        0.434976448             56.445        0.897254701            -33.882
               606       0.898948418            -33.797        0.435245984             56.323        0.435797538             56.456        0.896777643            -33.938
               607       0.898674862            -33.837        0.436116576             56.282        0.436166789              56.37        0.897330839            -33.963
               608       0.898619929            -33.905        0.436642541             56.248        0.436692815             56.288        0.895727785            -34.044
               609       0.898332795            -33.926        0.437056169             56.211        0.437358181             56.294        0.895544672            -34.055
               610       0.898034831            -33.964        0.437817565             56.142        0.437716766             56.212        0.895763127             -34.15
               611       0.897498988            -34.046        0.438413549             56.116        0.438665993             56.186        0.895641002            -34.141
               612        0.89727515            -34.071        0.439011241              56.08        0.439415771             56.112        0.895005368            -34.217
