!{251R15S0R3}
!Johanson Technology Inc.
!www.johansontechnology.com
!Test Board Conditions:
!Substrate Type  RO4350B
!Substrate Thickness        20 mil
!Substrate Dk      3.66
!TL Type: GCPW 
!TL Trace Width  34 mil
!TL Gap  10 mil
!Electrode orientation      Horizontal
!DUT TOPOLOGY	SERIES
!Mounting Pad LxW         26x52 mil
! Created Thu Mar 12 16:25:58 2020
# mhz S ma R 50
! 2 Port Network Data from SP1.SP block
! freq  magS11  angS11  magS21  angS21  magS12  angS12  magS22  angS22  
!     
               500       0.996570726            -10.842         0.08227315              79.14       0.0825863221             79.279        0.995424041            -10.809
               501       0.996573407            -10.838       0.0825770367             79.124       0.0826436127             79.322        0.995426719            -10.817
               502       0.996543062            -10.886       0.0826315825             79.093       0.0829174753             79.293         0.99539641            -10.831
               503       0.996464307            -10.872       0.0828059887             79.044       0.0830733544             79.223        0.996349591             -10.88
               504       0.996523313            -10.918       0.0828871989             79.053       0.0831931298             79.231        0.995032952            -10.902
               505       0.996501272            -10.918        0.083133843             79.142       0.0834118699             79.204        0.994896395             -10.91
               506       0.996496032            -10.946       0.0833346419             79.015       0.0835748438             79.147        0.995349433            -10.901
               507       0.996494489            -10.948       0.0835073883             79.047       0.0836420948             79.119        0.994775089             -10.92
               508       0.996474846            -10.979       0.0836597072             78.922       0.0838718727             79.114        0.994411963             -10.94
               509        0.99646479            -11.024       0.0838034615             78.871       0.0839966485             79.104        0.994630924            -11.013
               510       0.996453813            -11.044       0.0839957231             78.956        0.084121532             79.047        0.994276497            -10.988
               511       0.996445276            -11.046       0.0840530453             78.893       0.0842274112             79.042        0.994267979            -10.986
               512        0.99642507            -11.055       0.0842644996             78.891       0.0844684735             78.983        0.994247817            -11.059
               513       0.996409891            -11.106       0.0843505716              78.88       0.0846229245             79.037        0.994118212            -11.057
               514        0.99639586            -11.097        0.084611991             78.809       0.0847972786             79.004        0.995134801             -11.11
               515       0.996391054            -11.168       0.0846992997             78.852       0.0848359289             78.971        0.993641723             -11.11
               516       0.996372194             -11.15       0.0849320485             78.853       0.0850886433             78.924        0.994424004            -11.098
               517       0.996352807            -11.149       0.0850478127             78.837       0.0852831335             78.952        0.994633652            -11.138
               518       0.996339822            -11.222       0.0853507789             78.778       0.0854294261             78.923        0.994849736            -11.167
               519       0.996314063            -11.207       0.0854665671             78.744        0.085712914             78.843        0.995167674            -11.188
               520       0.996317043            -11.238       0.0856145463             78.765       0.0857230391             78.833         0.99482699            -11.213
               521       0.996286793            -11.287       0.0856809697             78.702       0.0860269198             78.878        0.994109841            -11.226
               522       0.996281495            -11.262       0.0858780281             78.727       0.0861354772             78.782        0.994104555            -11.268
               523       0.996275124            -11.295       0.0860556297              78.67       0.0862142961             78.823        0.994670612            -11.247
               524       0.996259976            -11.294       0.0862328388             78.639       0.0863918319             78.764        0.993854213            -11.306
               525       0.996239181            -11.365       0.0863601958             78.626       0.0866290632             78.756        0.993833469            -11.272
               526       0.996225514            -11.387       0.0865082766              78.59       0.0867576261             78.807         0.99324791             -11.34
               527         0.9961975            -11.428       0.0868551245             78.484       0.0870553463             78.637        0.995165811            -11.389
               528       0.995978584            -11.422       0.0869460787             78.566       0.0870161772             78.788        0.994832581             -11.37
               529       0.996164212            -11.421       0.0871226216             78.598       0.0874139883             78.732        0.994216429             -11.38
               530       0.996174354            -11.471       0.0871937502             78.507       0.0873645727             78.674        0.994684515            -11.393
               531        0.99614704            -11.497       0.0874628146             78.451       0.0876341642             78.697        0.995000844             -11.44
               532       0.996126763            -11.515       0.0877131299             78.539       0.0877434302             78.657        0.995095148             -11.45
               533       0.996123713            -11.535       0.0877936851             78.478       0.0879353059             78.618         0.99463395             -11.43
               534       0.996106902            -11.521       0.0879844552             78.403       0.0881263837             78.614        0.993930343            -11.526
               535        0.99609706            -11.556       0.0880849391              78.42       0.0882473471             78.553        0.994034959            -11.512
               536       0.996081463            -11.614       0.0882866134             78.398       0.0884290293             78.484        0.994477262            -11.498
               537        0.99604852            -11.566       0.0884770216             78.375       0.0887116168              78.55        0.995131548             -11.56
               538       0.996053257            -11.637       0.0885895631             78.481       0.0886099639             78.479        0.993762398            -11.584
               539       0.996037913            -11.651       0.0888026385             78.319       0.0889049352             78.462        0.994548278            -11.619
               540       0.996010375            -11.725       0.0890458866             78.331        0.089117678             78.439        0.994635286            -11.651
               541       0.996001858            -11.674       0.0891066566             78.294       0.0893120686             78.438        0.994054392            -11.642
               542        0.99596988            -11.706       0.0892680822             78.375       0.0894120814              78.48        0.994594847            -11.674
               543       0.995967937            -11.738       0.0895046003             78.281       0.0895973897             78.488        0.995051039            -11.611
               544         0.9959614            -11.778       0.0895761736             78.204       0.0896896867             78.442        0.994471879             -11.71
               545       0.995937792            -11.783        0.089770204             78.306        0.089883963             78.405        0.993990451             -11.71
               546       0.995915181            -11.807       0.0898715749             78.208        0.090140996             78.427        0.994311248            -11.725
               547       0.995898441            -11.804       0.0900772362             78.152       0.0902744919             78.345        0.995325321            -11.792
               548       0.995884557            -11.859        0.090283627             78.163       0.0905125912             78.336        0.993937321            -11.815
               549       0.995880714            -11.961       0.0903456656             78.092       0.0906060759             78.295        0.993361496            -11.795
               550       0.995844164            -11.912       0.0905923201             78.247       0.0907802517             78.328        0.993439405             -11.83
               551       0.995843389            -11.891       0.0907488321             78.114       0.0909161517             78.325        0.994354045            -11.854
               552       0.995844134             -11.95       0.0909371563             77.967       0.0910209511             78.227        0.994240316            -11.947
               553        0.99582867                -12       0.0911243882             78.012       0.0911348799             78.203        0.993538327            -11.914
               554       0.995793987            -11.988       0.0912576959              78.07       0.0914785979             78.235        0.993846927            -11.899
               555       0.995765818             -12.01       0.0914865423              78.01       0.0916868841             78.167        0.994734576            -11.989
               556       0.995773191             -12.02       0.0916664536             78.002        0.091687563             78.221        0.993826173            -11.936
               557        0.99566605            -12.069       0.0918996164             78.008       0.0920902599             78.178        0.995322218            -11.964
               558        0.99572729            -12.072       0.0920323285             77.999       0.0921065277             78.131        0.993780361            -12.042
               559       0.995706844            -12.151       0.0922001213             77.889       0.0922425908             78.143        0.994446658            -12.052
               560       0.995701351            -12.101       0.0924440783             77.903       0.0924440783             78.095        0.994212219             -12.07
               561       0.995690621             -12.12       0.0924750162             77.921       0.0925389178             78.054        0.993858179            -12.118
               562        0.99565451            -12.188       0.0925781857             77.878       0.0928450309             78.077        0.994050997            -12.098
               563       0.995663145            -12.198        0.092739005             77.803       0.0929420895             78.008        0.993601942            -12.144
               564        0.99563112            -12.259       0.0929070055             77.752       0.0931855263             77.999        0.993913209            -12.188
               565       0.995598386            -12.246       0.0931181167             77.806       0.0933865183             78.011        0.994109408            -12.192
               566       0.995531094            -12.264       0.0933479595             77.746       0.0935416075             77.977        0.995301891            -12.187
               567       0.995573146            -12.287       0.0935132549             77.766       0.0936533192             77.926        0.994542104            -12.242
               568       0.995492624            -12.301       0.0936888799               77.8       0.0938076047               77.9        0.995148853            -12.249
               569       0.995548119            -12.367        0.093812834             77.723       0.0939425308             77.883        0.993944777            -12.291
               570       0.995531954            -12.363       0.0940708795             77.707       0.0941142107             77.878        0.994271989            -12.281
               571       0.995499761            -12.371       0.0942412765             77.709       0.0943172566             77.812        0.994583294            -12.351
               572       0.995512161            -12.422       0.0943184314              77.65       0.0944705773             77.766        0.993680047            -12.361
               573       0.995469265            -12.457       0.0945317844             77.649       0.0946624752             77.793        0.994323849            -12.363
               574       0.995463067            -12.461       0.0946291963             77.612       0.0947272985             77.792        0.994432139            -12.384
               575       0.995460307             -12.52       0.0948252393             77.542       0.0949235447             77.688        0.994429382             -12.44
               576       0.995378771            -12.514       0.0950688792             77.509       0.0951783943             77.692        0.995149603            -12.471
               577       0.995406767            -12.557       0.0950934467             77.505       0.0953895036             77.624        0.994490386            -12.487
               578       0.995382425            -12.543       0.0953213025             77.529       0.0955190442             77.674        0.994466066            -12.495
               579         0.9953255            -12.564       0.0955575774             77.517       0.0956015934             77.655        0.994981786            -12.507
               580       0.995384069             -12.61       0.0955962125             77.401       0.0958386496             77.617        0.993666585            -12.538
               581       0.995313805            -12.632        0.095820852             77.457       0.0959975232             77.618        0.994626504            -12.556
               582       0.995353004            -12.677       0.0960344672             77.332       0.0961672354             77.512        0.993864393            -12.634
               583       0.995322653            -12.665       0.0960757732             77.387        0.096308338              77.53        0.993948513            -12.648
               584       0.995314335            -12.729       0.0962410293             77.329       0.0964851017             77.515        0.993139509            -12.671
               585       0.995276215            -12.714       0.0964258832             77.355       0.0966815547             77.495        0.994131021            -12.676
               586       0.995296577            -12.773       0.0967392042             77.258       0.0966946644             77.416         0.99335049            -12.715
               587       0.995251753            -12.744       0.0967348474              77.27       0.0970248435             77.462        0.994106586            -12.719
               588       0.995252615            -12.778       0.0969579283             77.277       0.0970919732             77.393        0.994107447            -12.741
               589       0.995225902            -12.799       0.0971676435             77.216       0.0974028514             77.402        0.993737481            -12.772
               590       0.995209989             -12.85        0.097401294               77.2       0.0974461593             77.322         0.99452276              -12.8
               591       0.995201109            -12.874       0.0974228547             77.192       0.0975687748             77.302        0.994170452            -12.829
               592       0.995183476            -12.908         0.09765695              77.12       0.0978370065             77.284          0.9942673            -12.832
               593       0.995169497             -12.94       0.0978468967             77.136       0.0980160183              77.22        0.993909991            -12.861
               594       0.995165053            -12.942       0.0980381521             77.012       0.0980381521             77.247        0.994477855            -12.919
               595       0.995142393            -12.984       0.0982506037             77.055       0.0982506037             77.206         0.99331096            -12.942
               596       0.995132955            -12.961       0.0982496718             77.043       0.0984648239             77.185        0.993415904            -12.933
               597       0.995118559            -12.987       0.0984633995             77.078       0.0985768249             77.114        0.993515909            -12.966
               598       0.995114232            -13.018        0.098599097             76.986       0.0986558715             77.145        0.993282851            -12.954
               599       0.995008303            -13.084       0.0989297029             76.899       0.0989980647             77.139        0.994893755            -13.019
               600       0.995049191            -13.062       0.0990021328             76.996       0.0991047684             77.074        0.994362072            -13.028
               601        0.99504558             -13.08       0.0991728913               76.8       0.0993671823             77.107         0.99390065             -13.08
               602       0.995038985            -13.131        0.099286476             76.842       0.0994122942             77.057        0.993550844            -13.082
               603       0.994983301            -13.127        0.099509786             76.904       0.0996703061             76.997        0.994754224            -13.057
               604       0.994998987            -13.199       0.0995457307             76.777       0.0998096744             76.948        0.993510906             -13.17
               605        0.99499324             -13.22       0.0998090979             76.783       0.0998895669             76.919        0.993162082            -13.161
               606        0.99498106            -13.206       0.0999688771             76.795         0.10002644             76.909        0.993836205            -13.145
               607       0.994959246            -13.217        0.100208669             76.743        0.100185597              76.93        0.993814416            -13.191
               608       0.994942062            -13.277        0.100183867             76.734        0.100403255             76.868        0.992882352            -13.222
               609       0.994919611            -13.247        0.100366318             76.746        0.100597686             76.891        0.993546028            -13.212
               610        0.99489008            -13.276        0.100641036             76.783        0.100791777             76.882        0.993402161            -13.239
               611       0.994892084            -13.321        0.100768774              76.73        0.100873241             76.843        0.993175449            -13.217
               612       0.994866263            -13.361        0.100998449             76.581         0.10116137             76.874        0.993035339            -13.264
