!{251R15S270}
!Johanson Technology Inc.
!www.johansontechnology.com
!Test Board Conditions:
!Substrate Type  RO4350B
!Substrate Thickness        20 mil
!Substrate Dk      3.66
!TL Type: GCPW 
!TL Trace Width  34 mil
!TL Gap  10 mil
!Electrode orientation      Horizontal
!DUT TOPOLOGY	SERIES
!Mounting Pad LxW         26x52 mil
! Created Thu Mar 12 17:12:11 2020
# mhz S ma R 50
! 2 Port Network Data from SP1.SP block
! freq  magS11  angS11  magS21  angS21  magS12  angS12  magS22  angS22  
!     
               500       0.116654098            -90.383        0.991859141             -0.101        0.992201776               -0.1        0.116238501            -90.039
               501       0.116627241            -90.433        0.991973339             -0.148        0.992544529              -0.16        0.116064659            -90.127
               502        0.11634561            -90.385        0.991402478             -0.117        0.992658807              -0.18        0.115664477            -90.186
               503       0.116104753            -90.529        0.991859141             -0.173        0.992544529             -0.226        0.115637848             -90.24
               504       0.115731078            -90.436        0.992087551             -0.233        0.992773098             -0.237         0.11517282            -90.352
               505         0.1155713            -90.498        0.992316014             -0.232        0.992316014             -0.277        0.114881474            -90.345
               506       0.115411743            -90.531        0.992201776             -0.258        0.992658807             -0.248        0.114868249            -90.223
               507       0.115150726            -90.438        0.991897238             -0.322        0.993268542             -0.276        0.114344869            -90.288
               508       0.114868249            -90.637        0.992658807             -0.336        0.992658807             -0.352        0.114300992            -90.359
               509       0.114551294            -90.611        0.992658807             -0.372        0.992658807             -0.353        0.113933122            -90.378
               510       0.114431941            -90.759        0.992766845             -0.371        0.992995464               -0.4        0.113591874             -90.42
               511       0.114340477            -90.648        0.992316014             -0.415        0.993230392             -0.424        0.113396591            -90.446
               512       0.113684512            -90.765        0.992433239             -0.466        0.993347725             -0.446        0.113370824            -90.572
               513       0.113409647            -90.836        0.991859141             -0.485        0.993116048             -0.466        0.112797637            -90.521
               514        0.11339264            -90.725        0.992509945             -0.501        0.993424502             -0.482        0.112728796            -90.508
               515        0.11294517            -90.927        0.993042107             -0.542        0.993156442             -0.499        0.112413291            -90.577
               516       0.112797637            -90.839        0.992658807             -0.582        0.992658807             -0.591        0.112176013            -90.613
               517       0.112610955            -90.955         0.99261456             -0.582         0.99330047             -0.651        0.111668489            -90.729
               518       0.112072743            -90.884        0.992773098              -0.59        0.992773098             -0.608        0.111314054            -90.733
               519       0.111979314            -91.051        0.992516652              -0.65        0.993431215             -0.649        0.111195651            -90.752
               520       0.111763502            -91.004        0.993116048              -0.71        0.992887401             -0.703         0.11103247            -90.787
               521       0.111583505            -91.032        0.992087551             -0.735        0.993001718             -0.694        0.110649639            -90.747
               522       0.110930252            -91.134        0.993344748             -0.741        0.993116048             -0.759        0.110598694            -90.803
               523       0.110828129            -91.052        0.993344748             -0.761        0.992773098             -0.754        0.110230049            -90.838
               524       0.110943024             -90.96        0.992544529             -0.833        0.993459118             -0.781        0.109951207            -90.921
               525       0.110634293             -91.04        0.992864004              -0.77        0.993664481             -0.778        0.109935958            -90.864
               526       0.110171485            -91.206        0.993731832             -0.832        0.992702697             -0.863        0.109715807            -90.952
               527       0.109989189            -91.234        0.992201776             -0.888        0.992773098             -0.897        0.108893009            -90.949
               528       0.109863735            -91.295        0.993240362             -0.897        0.993583474             -0.909        0.108956805            -90.847
               529       0.109483835            -91.227        0.993344748             -0.913        0.993116048              -0.97        0.108817815            -90.968
               530       0.109144034            -91.332        0.993001718             -0.947        0.993802306             -0.931        0.108492571            -90.946
               531       0.108817815            -91.334        0.993344748              -0.98        0.993573501             -0.963        0.108505062                -91
               532       0.108742672            -91.295        0.993116048             -0.989        0.993116048             -1.002        0.108230584            -91.037
               533       0.108392691            -91.515        0.993344748             -1.068        0.993116048             -1.013        0.107733309            -91.041
               534        0.10810605            -91.377        0.992544529             -1.083        0.993573501             -1.076        0.107398941            -91.138
               535       0.108218124            -91.372        0.993802306             -1.065        0.993459118             -1.046        0.107510282             -91.05
               536       0.108006527            -91.576        0.993116048             -1.127        0.993802306             -1.155        0.107114928            -91.173
               537       0.107544566            -91.468         0.99308969             -1.122        0.994004781              -1.11        0.106779645            -91.136
               538       0.107312423            -91.504        0.993344748             -1.186        0.993916728             -1.147        0.106438807            -91.224
               539        0.10705007            -91.644        0.993886875             -1.213        0.993429278             -1.189        0.106349868            -91.265
               540       0.107053285            -91.572        0.993459118             -1.253        0.993687897             -1.275        0.106230689            -91.431
               541       0.106573689            -91.616        0.992773098             -1.241        0.993916728             -1.279        0.105766955            -91.289
               542       0.106426554            -91.548        0.993573501             -1.321        0.993230392             -1.269        0.105584459            -91.335
               543       0.106022978            -91.715        0.993230392              -1.33        0.993916728              -1.36         0.10536588            -91.217
               544       0.105693919            -91.747        0.992887401             -1.348        0.993802306             -1.371        0.105171968            -91.352
               545       0.105837535            -91.929        0.993778769             -1.364        0.993664363             -1.332        0.105133159            -91.418
               546       0.105414414             -91.77        0.993573501             -1.388        0.993573501             -1.371        0.104568289            -91.439
               547       0.105523697            -91.944        0.993230392             -1.394        0.993802306             -1.483          0.1044119            -91.506
               548       0.105049946            -91.852        0.993792772             -1.434        0.994136075             -1.467        0.104218744            -91.383
               549       0.104664644            -91.725        0.994031163             -1.468        0.993344748             -1.499        0.103920206            -91.499
               550       0.104652595            -91.818        0.994031163             -1.447        0.994031163             -1.509        0.103932171            -91.524
               551       0.104544214             -92.11        0.993344748             -1.507        0.993116048             -1.546        0.103538054            -91.479
               552       0.104099825            -91.979        0.993573501             -1.592        0.994145612             -1.572        0.103430828            -91.663
               553       0.104001713            -91.975         0.99366614              -1.58        0.994238305             -1.572        0.103250102            -91.689
               554        0.10366926            -91.908        0.992887401             -1.572        0.994145612              -1.59        0.102943754              -91.6
               555       0.103471203            -92.028        0.994075794              -1.62        0.994075794             -1.616        0.102664311            -91.696
               556       0.103125739            -92.044        0.994299158             -1.711        0.993841372             -1.634        0.102356888            -91.804
               557       0.102825303            -92.078        0.993687897             -1.698        0.994145612             -1.676        0.102058692            -91.749
               558       0.102908204            -92.151        0.993802306             -1.688        0.994145612             -1.781        0.101835688             -91.75
               559       0.102825303            -92.219        0.993344748             -1.779        0.994145612             -1.707         0.10157808            -91.731
               560        0.10251797            -92.195        0.993916728               -1.8        0.993573501             -1.728        0.101484566             -91.81
               561       0.102058692            -92.109        0.993573501             -1.787        0.993344748             -1.783        0.101204541            -91.841
               562       0.102211556            -92.189        0.993802306             -1.778        0.993230392              -1.82        0.101169592            -91.808
               563       0.101519624            -92.314        0.993573501              -1.82        0.993344748              -1.84        0.100797556            -91.841
               564       0.101204541            -92.203        0.994031163             -1.857        0.994145612             -1.861        0.100820768            -91.921
               565       0.101216193            -92.382        0.993802306             -1.886        0.994603539              -1.94        0.100403765            -91.884
               566       0.100905022            -92.362        0.994289331             -1.914        0.994518301             -1.937        0.100372047            -91.977
               567       0.100785951            -92.397        0.993916728             -1.965        0.994145612             -1.946        0.100080623            -92.022
               568       0.100530999             -92.43        0.994374549             -1.952        0.994260074             -1.975        0.099919442            -92.001
               569       0.100577306             -92.38        0.994031163             -1.979        0.994145612              -2.01       0.0995749278            -91.942
               570       0.100253605            -92.522        0.994145612             -2.032        0.994260074             -2.048       0.0995863924            -92.111
               571       0.100092533             -92.44        0.993920571             -2.053          0.9947219             -2.085       0.0991063951            -92.043
               572       0.099907939             -92.48        0.994603539             -2.102        0.994260074             -2.096       0.0989805813            -92.126
               573      0.0997156613            -92.724         0.99440517             -2.098        0.994176226             -2.126       0.0986650576            -92.145
               574      0.0994286568            -92.726        0.994172103             -2.124        0.994744559             -2.141       0.0988238052            -92.061
               575      0.0991973339             -92.55        0.994718053             -2.182        0.994260074              -2.16       0.0985484958             -92.28
               576      0.0991288345            -92.653        0.994031163             -2.207        0.994489037             -2.224       0.0980957066            -92.286
               577      0.0988780744            -92.568        0.993344748             -2.209        0.994374549               -2.2       0.0977912506            -92.285
               578      0.0984859354            -92.707        0.993972145              -2.25        0.994888049             -2.293       0.0975717769            -92.279
               579      0.0982667295            -92.816        0.993817185             -2.244        0.994847476             -2.262       0.0974443139            -92.346
               580      0.0982426345            -92.593        0.994260074               -2.3        0.994145612              -2.29        0.097229936              -92.3
               581      0.0977912506            -92.634        0.994374549             -2.345        0.994260074             -2.336       0.0970845227            -92.411
               582      0.0977420577            -92.733         0.99398877             -2.303        0.995019238             -2.353       0.0968571036             -92.29
               583      0.0975551048            -92.762        0.994603539             -2.362        0.994031163             -2.369       0.0966384599            -92.415
               584      0.0972635239            -92.724        0.994718053              -2.39        0.994260074              -2.34       0.0965494935            -92.364
               585      0.0971952436             -92.84         0.99470663             -2.362        0.994592116             -2.413       0.0962376507            -92.469
               586      0.0968630584            -92.815        0.994507763             -2.443        0.994965857             -2.422       0.0961298308            -92.534
               587      0.0967943483            -92.943        0.994603539             -2.453        0.994374549             -2.465       0.0959732054            -92.525
               588      0.0963496186            -93.096        0.994374549             -2.536        0.994718053             -2.546       0.0953783928             -92.56
               589      0.0962541774            -92.943        0.994648397             -2.513        0.994991995             -2.532       0.0955145616            -92.578
               590      0.0961944465            -92.976        0.994718053             -2.532        0.994603539             -2.532       0.0953235044            -92.501
               591      0.0959945526             -93.06        0.994595727             -2.603        0.994939307             -2.601        0.095026906            -92.638
               592      0.0957634977            -93.112        0.994489037              -2.57        0.994489037             -2.595       0.0949292391            -92.631
               593      0.0956262638            -93.149        0.994322318             -2.594        0.995009409             -2.641       0.0945207562            -92.649
               594      0.0955817863             -92.98        0.994317637             -2.588        0.995119285              -2.64       0.0944659166            -92.619
               595       0.095174385            -93.033        0.993848254             -2.671        0.995336841             -2.674       0.0943452586            -92.674
               596      0.0951717763            -93.123         0.99427879             -2.684        0.995080407             -2.682       0.0939632815            -92.745
               597      0.0947781058            -93.095        0.994736433             -2.667        0.995194632             -2.721       0.0940390049            -92.732
               598      0.0947852426            -93.167        0.994353315             -2.721        0.995040427             -2.775       0.0934847403            -92.869
               599      0.0944060876            -93.112        0.994832581             -2.752        0.995061676             -2.759       0.0934975003            -92.791
               600      0.0942385637            -93.238        0.994669173             -2.819        0.995241915             -2.842       0.0932564026            -92.775
               601      0.0939474146            -93.249        0.995256066             -2.828        0.994454307             -2.765       0.0930218201            -92.901
               602      0.0935082652            -93.336        0.994145612             -2.823        0.994832581             -2.868       0.0928966387            -92.806
               603      0.0936625897            -93.397        0.994640552             -2.883        0.995213278             -2.858       0.0927718381            -92.937
               604      0.0936101403            -93.313        0.993969129             -2.872        0.995343297             -2.899       0.0924321162            -92.992
               605       0.093302563            -93.269        0.994130902             -2.916        0.995390688             -2.939       0.0921071986            -92.992
               606      0.0927669419            -93.427        0.995389924             -2.925        0.994588058             -2.916       0.0920859219            -93.038
               607      0.0928752509            -93.417        0.994603539             -2.959        0.994832581             -2.966       0.0918967177            -92.987
               608      0.0925266376            -93.515        0.994985566             -3.013        0.995214696             -3.035        0.091657241            -93.114
               609      0.0924698174            -93.501        0.994374549             -3.008        0.994603539             -3.033       0.0916009547            -93.033
               610      0.0924272433             -93.53        0.994489037             -3.055        0.994603539             -3.022       0.0914113241              -93.1
               611      0.0921842617            -93.715        0.994504566             -3.045        0.995191783             -3.063       0.0909299143            -93.173
               612       0.091928548            -93.418        0.995406335             -3.024        0.994948039             -3.066       0.0910123652            -93.127
