!{201R07S1R2}
!Johanson Technology Inc.
!www.johansontechnology.com
!Test Board Conditions:
!Substrate Type  RO4350B
!Substrate Thickness        10 mil
!Substrate Dk      3.66
!TL Type: GCPW 
!TL Trace Width  21 mil
!TL Gap  20 mil
!Electrode orientation      Horizontal
!DUT TOPOLOGY	SERIES
!Mounting Pad LxW         16x21 mil
!Agilent Technologies,N5230A,MY45001966,A.07.50.67
!Agilent N5230A: A.07.50.67
! Created Mon Mar  9 16:22:07 2020
# mhz S ma R 50
! 2 Port Network Data from SP1.SP block
! freq  magS11  angS11  magS21  angS21  magS12  angS12  magS22  angS22  
!     
               500       0.936623742            -22.669        0.343490842             66.863        0.344639588             67.002        0.935330642            -22.525
               501        0.93686581            -22.676        0.344133847             66.894        0.344966871             66.992        0.934603472            -22.523
               502       0.936159826            -22.708        0.344587881             66.851        0.345819915             66.901        0.934759742            -22.575
               503       0.936110981            -22.784        0.345364218             66.766        0.346319814             66.839        0.934173063            -22.638
               504        0.93564264            -22.798        0.346066855             66.718         0.34710431             66.863        0.934673664            -22.708
               505       0.935674112            -22.872        0.346756502             66.685        0.347515847             66.758        0.933737098            -22.725
               506       0.935650435            -22.951        0.347147166             66.634        0.348227948             66.701        0.933176135            -22.772
               507       0.935161384            -22.908         0.34788569             66.608        0.348727796              66.74        0.933440339            -22.787
               508       0.934899043            -22.938        0.348750401             66.578        0.349393415             66.685        0.933285923             -22.86
               509        0.93454453            -23.059        0.349301138             66.497        0.349663258               66.6         0.93250249            -22.882
               510       0.934400063            -23.059        0.349931355             66.477        0.350415137             66.565        0.932895201            -22.943
               511       0.934056626            -23.072        0.350326674             66.423        0.351215121             66.555        0.932659688            -22.977
               512       0.933810974            -23.153        0.350799506             66.369        0.351851149             66.482        0.932307061            -23.003
               513       0.933434655            -23.167        0.351506954             66.364        0.352398394             66.472        0.932682699            -23.054
               514       0.933331231            -23.261        0.352278224             66.295        0.352968377             66.389        0.932149988              -23.1
               515       0.933152608            -23.311        0.352900825             66.236        0.353429401              66.34        0.931971591            -23.165
               516         0.9326858            -23.301        0.353374628             66.232        0.354311595             66.327        0.932041746            -23.207
               517       0.932478326            -23.388        0.354355148             66.146        0.354885901             66.285        0.931619878            -23.239
               518       0.932651138            -23.414        0.354788247             66.128        0.355524247             66.241        0.930720382            -23.274
               519         0.9327648            -23.442        0.354994928             66.091        0.355936191             66.184        0.929655726             -23.31
               520       0.931973593            -23.456        0.355798086             66.081        0.356782552             66.156        0.930686913            -23.367
               521       0.931738652            -23.586        0.356405266             65.968        0.357514872              66.09        0.930130985            -23.389
               522       0.931518573            -23.591        0.357224731             65.951        0.357800974             66.076         0.93012543            -23.426
               523       0.931361379             -23.64        0.357905379             65.931        0.358523993             66.015        0.929861411            -23.485
               524       0.930916736             -23.69        0.358600457             65.872        0.358972218             65.987        0.929952654            -23.513
               525       0.930648602            -23.717        0.358910141             65.839        0.359820356             65.946        0.929791837            -23.572
               526       0.930664043            -23.772        0.359702068             65.786        0.360365274             65.897         0.92905823             -23.61
               527        0.93019797            -23.774         0.36026775             65.793        0.361139829             65.853        0.929341621            -23.678
               528       0.929929447            -23.864        0.360952455             65.719        0.361701242             65.806        0.928966387              -23.7
               529       0.930160062            -23.831        0.361249861             65.689        0.362082628             65.804        0.928020753            -23.733
               530       0.929884951            -23.919        0.362100579             65.639        0.362809975             65.734        0.927746275            -23.775
               531       0.929073344            -23.995        0.362702041              65.62        0.363412616             65.665        0.928111171            -23.807
               532       0.928949132            -23.987        0.363405866             65.573         0.36411782             65.658        0.927987088             -23.85
               533       0.928800624            -24.036        0.364017698             65.457        0.364520954             65.626        0.927625115            -23.935
               534       0.928111171             -24.07         0.36458601             65.454        0.364837944             65.629        0.927256743            -23.948
               535       0.928483344            -24.111        0.365236454             65.466        0.365994128             65.546        0.926988011            -23.969
               536         0.9282521            -24.155        0.365734509             65.411        0.366451025             65.478         0.92675714            -24.034
               537       0.927790933            -24.184        0.366353314             65.357        0.367028783             65.447        0.926830088            -24.084
               538       0.927846788            -24.268         0.36709314             65.301        0.367473706             65.408        0.926245837            -24.107
               539       0.927451324            -24.281        0.367317082             65.237        0.368206224             65.341        0.925957653            -24.181
               540       0.927283003            -24.325        0.367842833             65.229        0.368860626              65.31        0.925683023             -24.19
               541       0.927367176            -24.338         0.36876672             65.188        0.369446639             65.327        0.925127775            -24.253
               542       0.927096583            -24.416        0.369381364             65.177        0.369892036             65.263        0.924857836            -24.228
               543       0.926309029            -24.434        0.369960959             65.125        0.370557747             65.233        0.925669378            -24.309
               544       0.926181628            -24.514        0.370720124             65.027         0.37110445             65.156        0.924902944            -24.362
               545       0.926396569            -24.504        0.371105113             65.003        0.371917778             65.116        0.923415028            -24.418
               546       0.925941825            -24.615        0.371735213             64.949        0.372592151             65.062        0.924131347            -24.468
               547       0.925652618            -24.611        0.372432896             64.923        0.372861922             65.028        0.923842705            -24.494
               548        0.92517665            -24.631        0.372841858             64.877        0.373701347             65.028        0.923899354            -24.519
               549       0.925458979            -24.726        0.373815387             64.854        0.374246005              64.96        0.923117903            -24.585
               550       0.924769871            -24.792        0.374441238              64.78        0.374829421             64.904        0.923599463            -24.632
               551       0.924606935            -24.829        0.374979173             64.733        0.375281492             64.871        0.923436734            -24.687
               552       0.923838148            -24.819        0.375401403             64.723         0.37644011              64.87        0.923412803            -24.683
               553       0.923996428            -24.952        0.376287934             64.624        0.376504605             64.809           0.922827            -24.707
               554       0.924220767            -24.894        0.376465968             64.615        0.377073249             64.793        0.921988964              -24.8
               555       0.923962207            -25.045        0.377054569             64.576        0.377967282             64.665        0.921624917            -24.829
               556       0.923684856            -25.023        0.377592903              64.49        0.378463345             64.652        0.921348267            -24.928
               557       0.923088309            -25.049        0.378567434             64.525        0.379003526             64.621        0.921813896            -24.913
               558       0.922932063            -25.117        0.378634108             64.413         0.37985665             64.588        0.920809378            -24.926
               559       0.922433382            -25.103        0.379913749             64.372        0.380220047              64.57        0.921053827            -25.012
               560       0.922487179            -25.187        0.380154678             64.355        0.381031025             64.519        0.920683455            -25.045
               561       0.922552392            -25.192        0.380970229             64.369        0.381233485             64.487        0.919900891            -25.056
               562       0.921909881            -25.245        0.381582518             64.269        0.381846197             64.439        0.920425135            -25.144
               563       0.921539641            -25.338        0.381780746             64.258         0.38279303             64.344        0.920373322            -25.168
               564       0.921276856             -25.32        0.382595767              64.22        0.383124708             64.345        0.920004944            -25.193
               565        0.92141324            -25.418        0.383181425             64.159        0.383887922             64.275        0.919399892            -25.281
               566       0.921154407            -25.454         0.38400107             64.077         0.38426642             64.213         0.91882422             -25.35
               567       0.920884029            -25.512         0.38433058             64.029        0.384861919             64.186        0.918554525            -25.346
               568       0.920183793            -25.544        0.385189624             64.006         0.38554456              64.16        0.919230827            -25.395
               569       0.920389611            -25.576         0.38554201             63.947        0.386163932             64.135        0.918272773             -25.45
               570       0.920077775            -25.609        0.386477789             63.908        0.386522287             64.057        0.917961655            -25.517
               571       0.919072983            -25.617        0.386767524             63.893        0.387168486             64.049        0.917909786            -25.545
               572       0.919662123            -25.668        0.387238296             63.867        0.388041612             63.972         0.91712451            -25.576
               573        0.91922041            -25.729        0.388123249             63.791        0.388257325             63.955        0.917634342            -25.629
               574       0.918766852            -25.793        0.388646998             63.765        0.389184305              63.88        0.917498405            -25.662
               575       0.918715825             -25.84        0.389297126             63.693        0.389610989             63.827        0.916708372            -25.713
               576        0.91830486            -25.851        0.389795555             63.675         0.39033445             63.855         0.91693148            -25.717
               577       0.918152264            -25.901        0.390629205             63.674        0.390899135              63.74        0.916251522            -25.769
               578       0.917884522            -25.909         0.39096515             63.638        0.391550738             63.759        0.916406259             -25.81
               579       0.917469325            -25.979        0.391463751             63.583        0.392140369             63.671         0.91620267            -25.854
               580       0.917548698            -26.031        0.392219447             63.501        0.392580861             63.659        0.915543794            -25.916
               581       0.917240939             -26.05        0.392675161             63.506        0.393218037             63.593        0.915131344            -25.928
               582       0.917114824            -26.112        0.393163971             63.464        0.393752853             63.554        0.914689541            -25.948
               583        0.91632598            -26.184        0.394094161             63.421        0.394366485             63.464        0.915060903            -26.022
               584       0.916387504             -26.18        0.394256769               63.4        0.395074645             63.476        0.915016991            -26.072
               585       0.915782071            -26.245         0.39499549             63.314        0.395814898             63.394        0.914833662             -26.14
               586       0.915783943            -26.262        0.395724578             63.257        0.396043623             63.407        0.914414333            -26.173
               587       0.915491275            -26.329        0.396281875             63.242        0.396692701             63.345        0.914016865            -26.164
               588       0.914639599             -26.37        0.397054388             63.156        0.396917274             63.288        0.913587187            -26.272
               589       0.915098176             -26.39        0.397665294             63.149        0.397436445               63.3          0.9136244            -26.262
               590       0.914728759            -26.488        0.397962668             63.087        0.398466976             63.166        0.913255578             -26.34
               591       0.914756016            -26.496        0.398570613             63.063        0.399075691             63.215        0.912967409            -26.363
               592       0.913922853              -26.5        0.399263434             63.041        0.399585332             63.137        0.913186615            -26.408
               593       0.913871915            -26.569        0.400161526             62.979        0.400023339             63.104          0.9127153            -26.454
               594       0.914132451            -26.608        0.400367786             62.956        0.400690574             63.042        0.911715055             -26.51
               595       0.913587187            -26.646        0.400543787             62.891        0.401328498             63.061         0.91085658            -26.518
               596       0.913182981            -26.724        0.401474355             62.809        0.402075684             62.975        0.911607331            -26.574
               597       0.913218387            -26.731        0.402183868             62.798        0.402415451              62.95        0.911118043            -26.627
               598       0.912535986             -26.77        0.402856152             62.761        0.402902535             62.837        0.911066337             -26.69
               599       0.912654502            -26.839        0.403001257             62.689        0.403883769             62.821        0.910345816            -26.731
               600       0.911905846            -26.853        0.403877817             62.707        0.404156902             62.835        0.911276142            -26.716
               601       0.912146556            -26.914        0.404636097             62.636        0.404682685             62.803        0.910363051            -26.779
               602       0.911066337            -26.947        0.404995316             62.614        0.405368502             62.713          0.9103324            -26.839
               603       0.910961452            -26.956        0.405695322             62.612        0.405788748             62.704        0.910122812            -26.825
               604       0.910958769            -27.039        0.406255001             62.513        0.406629349             62.661        0.909910592            -26.888
               605       0.910850596            -27.045        0.406440659             62.493        0.407330703             62.608        0.909488364            -26.955
               606       0.910512443            -27.114        0.407273249             62.462        0.407930225             62.561        0.909255392            -26.967
               607        0.91008831            -27.148        0.407881057             62.394        0.408444955             62.493        0.909145798            -27.055
               608       0.910405153            -27.213        0.408540115             62.331        0.408822422             62.461        0.907997614            -27.093
               609       0.909778961            -27.211        0.408823535             62.301         0.40957731              62.43        0.908209185            -27.128
               610       0.909539291            -27.319        0.409752361             62.285        0.410177151             62.326        0.908074467            -27.178
               611       0.909377614            -27.284         0.41000982             62.318        0.410482134             62.354        0.907913051            -27.143
               612       0.908657049            -27.328        0.410913112             62.183        0.411244403             62.327        0.907716019            -27.251
