!{251R15S110}
!Johanson Technology Inc.
!www.johansontechnology.com
!Test Board Conditions:
!Substrate Type  RO4350B
!Substrate Thickness        20 mil
!Substrate Dk      3.66
!TL Type: GCPW 
!TL Trace Width  34 mil
!TL Gap  10 mil
!Electrode orientation      Horizontal
!DUT TOPOLOGY	SERIES
!Mounting Pad LxW         26x52 mil
! Created Thu Mar 12 16:46:40 2020
# mhz S ma R 50
! 2 Port Network Data from SP1.SP block
! freq  magS11  angS11  magS21  angS21  magS12  angS12  magS22  angS22  
!     
               500       0.302203855            -79.885        0.949948366             10.051        0.951152163             10.042        0.301682418            -79.562
               501       0.301751891            -79.947        0.950276523              9.973        0.950933178              9.972        0.301404686            -79.608
               502        0.30116188            -79.971        0.950495358              9.975        0.951480736              9.939        0.300711474             -79.68
               503       0.300815354            -80.052        0.950385934              9.912        0.951809423              9.874        0.300538421            -79.725
               504       0.300330888            -80.054        0.950495358              9.849        0.951809423              9.837        0.299640146            -79.777
               505       0.299605651            -80.074        0.950823704              9.802        0.951480736              9.788        0.298985413            -79.833
               506       0.299260915            -80.129        0.950933178              9.764        0.951480736              9.785        0.298882165            -79.835
               507       0.298744556            -80.166        0.951261675              9.676        0.952796164               9.76        0.298263425            -79.908
               508       0.298229088             -80.31        0.951699848              9.668         0.95191901              9.643          0.2976117             -79.96
               509       0.297783068            -80.289        0.952138223              9.615        0.952467137              9.653        0.297132393             -79.97
               510       0.297303485            -80.406        0.952686476              9.596        0.953015579              9.576        0.296688013            -80.027
               511       0.296790503            -80.393         0.95191901              9.521        0.953235044              9.525         0.29603973            -80.099
               512       0.296176093            -80.469        0.952905865              9.471         0.95345456              9.472        0.295869365            -80.192
               513       0.295596985            -80.558        0.952357486              9.444        0.953674126              9.436        0.294985046              -80.2
               514       0.295392864             -80.54        0.952686476              9.387         0.95400357              9.448        0.294747412            -80.232
               515       0.294543878            -80.633        0.952796164              9.348        0.953893743              9.379        0.294001807            -80.277
               516       0.294171097             -80.64        0.952796164               9.28        0.953125305              9.279        0.293460734            -80.313
               517       0.293832615            -80.742        0.953125305              9.275        0.954333128              9.201        0.292886936            -80.411
               518        0.29312307            -80.724         0.95345456              9.214        0.954443006              9.244        0.292314259            -80.439
               519       0.292415238            -80.854         0.95345456              9.145        0.954882645              9.154        0.291877085            -80.484
               520       0.292078776            -80.818        0.953564337              9.086         0.95400357              9.099        0.291339922            -80.553
               521       0.291675533            -80.903        0.953344795              9.047        0.954333128              9.075        0.290636396            -80.582
               522       0.290904206            -81.011          0.9546628              9.028        0.954772716              9.003        0.290636396             -80.61
               523       0.290301981            -80.989         0.95510254              8.982        0.954333128              8.994        0.290101517            -80.665
               524        0.29006812             -81.02        0.954223263              8.873        0.955212507              8.926        0.289301043            -80.779
               525       0.290001337            -81.045          0.9546628              8.938        0.956092695              8.928         0.28920114            -80.695
               526        0.28920114            -81.158        0.955762529              8.849         0.95510254              8.839        0.288768622            -80.852
               527       0.288436356            -81.226        0.954333128              8.778         0.95510254              8.771        0.287806104            -80.826
               528        0.28840315            -81.236        0.954552897              8.769        0.956092695               8.76        0.287276433            -80.837
               529       0.287508044             -81.28         0.95510254              8.745         0.95510254              8.654        0.287011964            -80.897
               530       0.287078058            -81.319        0.954992586              8.665        0.956422975              8.709        0.286384824             -80.97
               531       0.286483755            -81.411        0.956092695              8.619        0.956202776               8.63        0.286285927            -81.022
               532       0.286121175             -81.43        0.955542482              8.589        0.956312869              8.588        0.285791955             -81.05
               533       0.285660374            -81.546        0.956312869              8.496        0.956422975              8.562        0.284872154            -81.111
               534       0.285036187            -81.484        0.955322486              8.471        0.956533093              8.507        0.284315149            -81.198
               535       0.284806568            -81.522        0.956643225              8.452        0.956092695              8.491         0.28424969            -81.165
               536       0.284315149            -81.619        0.955762529              8.406        0.956753369              8.389        0.283530641            -81.236
               537       0.283595934            -81.647        0.956863525               8.39        0.957304279              8.393        0.283171799            -81.227
               538          0.283498            -81.697        0.956533093              8.303        0.957634977               8.34        0.282585582            -81.353
               539       0.282813411            -81.807        0.956753369              8.258        0.957194071              8.281        0.282227936            -81.344
               540       0.282487997            -81.819        0.956863525              8.202        0.956973695              8.191         0.28157883            -81.484
               541       0.281903196            -81.795        0.956092695              8.195        0.957745235              8.184        0.280866537            -81.418
               542       0.281384389            -81.849        0.957083877              8.103        0.956973695              8.156        0.280543364            -81.511
               543       0.280672589            -82.025        0.957194071              8.059        0.957634977               8.07        0.280220562            -81.475
               544        0.28002706            -82.027        0.956973695              8.028        0.957855506              8.013         0.27983369            -81.588
               545       0.280317364            -82.068        0.957965789              8.025        0.958407051              8.053        0.279511705            -81.649
               546       0.279447353            -82.083        0.958076086              7.952        0.958407051              7.987        0.278708363            -81.701
               547       0.279318692            -82.164        0.957524732              7.983        0.957965789               7.89        0.278419725            -81.709
               548       0.278804642            -82.196        0.958296716              7.878        0.959290183              7.889        0.278003331            -81.716
               549       0.278067351            -82.189        0.958517398              7.827        0.958296716              7.833         0.27726816            -81.831
               550       0.277843346            -82.196        0.958186395              7.842        0.958848515              7.809         0.27733201            -81.826
               551       0.277491702            -82.363        0.957965789               7.78        0.958296716              7.752        0.276375792            -81.838
               552       0.276821616            -82.334        0.958186395              7.699        0.959179747               7.73         0.27608957            -81.947
               553       0.276630461             -82.38        0.958848515              7.678        0.959732054              7.709        0.275644924            -81.993
               554       0.276057786            -82.408        0.957855506              7.666        0.959400632               7.64        0.275042622            -81.985
               555       0.275613191            -82.495        0.959290183               7.58        0.959621567              7.623         0.27472615            -82.041
               556       0.274852695            -82.492        0.959290183              7.496        0.959400632              7.578        0.274157417              -82.1
               557        0.27456805            -82.533        0.958848515              7.498        0.959511093              7.532        0.273652865            -82.126
               558       0.274346864            -82.663        0.959621567               7.49        0.959953066              7.417        0.273212144            -82.201
               559       0.273936561            -82.666        0.958848515              7.369        0.960063591              7.464        0.272583774            -82.192
               560       0.273463898            -82.717        0.959511093               7.34        0.959400632              7.413        0.272176108            -82.265
               561       0.272866362            -82.724        0.959621567              7.363        0.959621567              7.359        0.271894235            -82.261
               562       0.272552393             -82.74        0.959511093              7.309        0.959511093              7.293        0.271393849            -82.354
               563       0.271612655            -82.819        0.959400632              7.254        0.959621567              7.284        0.271081575             -82.37
               564       0.271206441            -82.853        0.960174129              7.223        0.960505818              7.232        0.270863197            -82.402
               565       0.271050367             -82.91        0.959732054              7.169        0.960727008              7.164        0.270364708            -82.473
               566       0.270520387            -82.906        0.960284679               7.13         0.96094825              7.149        0.269991443            -82.523
               567       0.270084711            -82.997        0.959842554              7.076         0.96094825              7.111        0.269277459            -82.548
               568       0.269618694            -83.008        0.960616407               7.06        0.961058889              7.071        0.269122495            -82.572
               569       0.269432512            -83.056        0.960063591              7.023        0.960837623              7.007        0.268596284            -82.595
               570       0.268998588            -83.129         0.96094825              6.955        0.960837623              6.957        0.268256343            -82.661
               571       0.268627209            -83.113        0.960505818              6.906        0.961612278              6.922        0.267577752             -82.72
               572       0.268194582            -83.191        0.961612278              6.842        0.961501575              6.888        0.267485349            -82.768
               573       0.267701004            -83.262        0.961722994              6.832        0.962055219              6.847        0.267054561            -82.797
               574       0.267085309            -83.274        0.961390884              6.797        0.961944465              6.821        0.266993077            -82.782
               575       0.266931606            -83.316        0.961722994              6.731        0.961944465               6.78        0.266256366            -82.874
               576        0.26637901            -83.429        0.961280207              6.717        0.961833723              6.696        0.265552259            -82.918
               577       0.266011248            -83.343        0.960727008              6.696        0.961612278              6.701        0.265063544              -82.9
               578       0.265521688            -83.516        0.961280207               6.63        0.962387559              6.583        0.264636656             -82.98
               579       0.265094062             -83.54        0.961944465              6.604        0.962941713              6.616        0.264514814            -83.011
               580       0.264789037            -83.456        0.961501575              6.562        0.962276766              6.574        0.264028009            -83.032
               581       0.264149626            -83.492        0.961944465              6.467        0.962165986              6.512        0.263572442            -83.136
               582       0.263936832            -83.594        0.961833723              6.502        0.963052582              6.456        0.263057083             -83.12
               583       0.263238859            -83.601        0.962276766              6.414        0.961722994               6.45        0.262724153            -83.134
               584       0.262996519            -83.633        0.962941713              6.387        0.962276766              6.438        0.262421854            -83.168
               585       0.262784654            -83.671        0.962941713              6.398        0.963274359              6.391        0.262059555            -83.246
               586       0.262331233            -83.699        0.963163464              6.313        0.963385266              6.357        0.261607385             -83.32
               587       0.261908745            -83.789        0.963163464              6.302        0.962720013              6.314        0.261246211            -83.328
               588       0.261095869            -83.885        0.962387559              6.214        0.963274359              6.213        0.260345455            -83.384
               589       0.261005705            -83.855        0.963052582              6.219        0.963829024              6.204         0.26043539            -83.375
               590        0.26076542            -83.877        0.963163464              6.184        0.963385266              6.171        0.259926165            -83.404
               591       0.260345455            -83.986        0.963274359              6.122        0.963939995              6.121        0.259477676            -83.476
               592       0.259926165            -84.003        0.963607119                6.1        0.963718065               6.09        0.259149276            -83.523
               593       0.259477676            -84.047        0.963496186              6.049        0.963939995              6.064        0.258672345            -83.546
               594       0.259238799            -83.995        0.963607119              6.057        0.964050979              6.033        0.258404457            -83.546
               595       0.258761703            -84.087        0.963274359              5.982        0.964606091              5.988        0.258077415            -83.565
               596       0.258583018            -84.114        0.963496186              5.951        0.964272986              5.966        0.257394937            -83.627
               597       0.257988294            -84.133        0.964050979              5.937        0.964272986              5.918        0.257424572            -83.682
               598       0.257869513            -84.208        0.963939995              5.882        0.964939312              5.851         0.25665516            -83.775
               599       0.257039578            -84.189        0.963939995              5.806        0.964272986              5.844        0.256271317            -83.733
               600       0.256950815            -84.286        0.964272986               5.77        0.965050411               5.78        0.255946974            -83.807
               601        0.25647793            -84.305        0.964828225              5.713        0.964828225              5.801        0.255593615             -83.85
               602       0.255593615            -84.321        0.963385266              5.729        0.964384008              5.704        0.255005766            -83.827
               603       0.255888047            -84.433        0.964939312              5.635        0.965939665              5.696        0.254976409            -83.916
               604       0.255240743            -84.453        0.964050979              5.629        0.965494935              5.628        0.254448562            -83.953
               605       0.254829675            -84.445        0.964050979              5.583        0.965383785              5.598        0.253921807            -84.008
               606       0.254272855            -84.482        0.965606099              5.585        0.964828225              5.606        0.253804899             -84.01
               607       0.253863346            -84.593        0.964717152              5.502        0.964828225              5.518        0.253366971            -84.059
               608       0.253571243             -84.67        0.964939312              5.481        0.965828463              5.431        0.252726044            -84.102
               609       0.253104578            -84.692        0.964272986              5.477        0.964828225              5.419        0.252377132             -84.07
               610       0.252900682            -84.701        0.964939312              5.412        0.964939312              5.432        0.252173822            -84.155
               611        0.25243525            -84.783        0.965272648               5.37        0.966050879              5.395        0.251506955            -84.169
               612       0.252173822             -84.67        0.965717274              5.381        0.965717274              5.365        0.251391159            -84.213
