!{251R14S510}
!Johanson Technology Inc.
!www.johansontechnology.com
!Test Board Conditions:
!Substrate Type  RO4350B
!Substrate Thickness        20 mil
!Substrate Dk      3.66
!TL Type: GCPW 
!TL Trace Width  36 mil
!TL Gap  12 mil
!Electrode orientation      Horizontal
!DUT TOPOLOGY	SERIES
!Mounting Pad LxW         26x36 mil
! Created Wed Mar 11 15:51:06 2020
# mhz S ma R 50
! 2 Port Network Data from SP1.SP block
! freq  magS11  angS11  magS21  angS21  magS12  angS12  magS22  angS22  
!     
               500      0.0268998588            -90.285        0.998851785             -2.378        0.998274551             -2.376       0.0268534445            -91.641
               501      0.0266716572            -90.437        0.998159627             -2.393        0.998619403             -2.364       0.0265796954            -91.596
               502      0.0266440353             -90.01        0.997700064             -2.374        0.998389489              -2.39       0.0264453915            -91.496
               503      0.0262059555            -89.851        0.997585206             -2.409        0.998389489             -2.426       0.0261186064            -92.002
               504       0.025935821            -90.321        0.998504439             -2.458        0.998159627             -2.427       0.0258731913            -91.313
               505      0.0258107129            -90.336        0.998948502             -2.492        0.998504439             -2.457       0.0258166567            -92.013
               506      0.0255240743            -90.291        0.998504439             -2.494        0.998619403             -2.495       0.0254976409            -91.804
               507      0.0253951042            -90.344         0.99889744             -2.487        0.997240712             -2.509       0.0253221164            -92.032
               508      0.0252813348            -90.245        0.998903995             -2.525        0.998044717             -2.544       0.0254565766            -91.724
               509      0.0250409038            -89.835        0.998044717             -2.576        0.998619403              -2.54       0.0248427689            -91.572
               510       0.025012091            -90.155        0.998389489             -2.573         0.99873438             -2.595       0.0247400174            -91.791
               511      0.0247286268            -89.767        0.998044717             -2.587        0.998044717             -2.553       0.0245019134            -92.099
               512      0.0245386124            -90.076        0.998274551             -2.598        0.998389489             -2.572        0.024082413            -92.354
               513      0.0245555689            -89.399        0.998504439             -2.569        0.998389489             -2.606        0.024299649            -91.973
               514      0.0240214932            -89.714         0.99873438             -2.644         0.99908192             -2.641       0.0239966159            -92.271
               515       0.023782089            -90.323        0.999175669             -2.679         0.99873438             -2.655       0.0237766136            -91.636
               516      0.0236102182            -90.133        0.998504439             -2.639        0.998274551             -2.676       0.0236809979            -91.741
               517      0.0235152716            -90.622        0.998504439             -2.658        0.998985535             -2.723       0.0232300423            -91.539
               518      0.0231286349            -89.567        0.998928146             -2.695         0.99873438             -2.736       0.0231100029            -92.315
               519      0.0229482726            -90.315         0.99873438             -2.733        0.998872025             -2.713       0.0228796828            -91.841
               520      0.0227771824            -89.262        0.998389489             -2.807        0.997929819             -2.741       0.0225761561            -91.481
               521      0.0225995608            -89.637        0.998389489              -2.74         0.99873438             -2.777       0.0224543248             -92.26
               522       0.022539797            -90.237        0.999046839             -2.814        0.998274551              -2.77       0.0224543248            -91.802
               523      0.0222894832            -90.702        0.998274551             -2.799        0.999559612             -2.843       0.0220039171            -93.035
               524      0.0217620598            -90.628        0.998855005             -2.813        0.998389489              -2.81       0.0219053401            -91.693
               525      0.0218524432            -89.958        0.998274551             -2.839        0.999063517             -2.835       0.0215675096            -91.936
               526      0.0215055226            -89.862        0.997814935             -2.881        0.998044717             -2.889       0.0214264391            -92.174
               527      0.0215005713                -90        0.998159627             -2.892         0.99873438             -2.857       0.0213796209            -91.798
               528      0.0212177828            -90.032        0.998619403             -2.906        0.998964258             -2.899       0.0209290733            -91.674
               529      0.0210377844             -90.18        0.998159627              -2.95        0.998996462             -2.939       0.0207300333            -92.062
               530      0.0208257188            -89.604        0.998044717             -2.939        0.998389489             -2.927       0.0207682546            -92.044
               531      0.0204314881            -90.258         0.99885926             -2.978        0.998969779             -2.979        0.020625287            -92.748
               532      0.0203422974            -89.847         0.99919488             -2.993        0.998159627             -2.974       0.0203422974            -92.387
               533      0.0200793662            -89.843        0.997814935             -2.995        0.998274551             -3.014       0.0199388451            -91.848
               534      0.0200493363            -90.003        0.998893875              -3.02         0.99902395             -3.011       0.0199021502            -92.502
               535      0.0199549204             -90.17        0.998274551             -3.033        0.998274551              -3.03       0.0195276508            -92.372
               536      0.0197514962            -88.829        0.997125907             -3.068        0.998274551             -3.053       0.0193196832            -91.923
               537      0.0194468829            -89.902        0.998619403             -3.102        0.997814935             -3.096       0.0194782529            -91.721
               538      0.0192841278            -90.072        0.997814935             -3.061        0.998619403             -3.086       0.0192530705             -91.26
               539      0.0190985326            -89.984        0.998159627             -3.138        0.998619403             -3.082       0.0189779807            -92.466
               540      0.0187931682             -89.87        0.998159627             -3.172        0.998619403             -3.159        0.018543854            -91.497
               541      0.0188083198            -89.947        0.998915955             -3.136        0.998619403             -3.197       0.0183886565            -92.127
               542      0.0186509089            -89.671        0.997470361             -3.188         0.99891515              -3.17       0.0184905573            -92.207
               543      0.0183569278            -89.788        0.999082151             -3.184         0.99873438              -3.21       0.0179370079            -92.214
               544      0.0181447087            -89.875        0.998935161             -3.227         0.99884937             -3.264       0.0177868892            -92.145
               545      0.0178135304            -89.681        0.998159627             -3.238         0.99884937             -3.245       0.0177235208            -92.431
               546      0.0178073789            -89.422        0.997929819             -3.228        0.998044717             -3.231       0.0175489041            -91.465
               547      0.0175812601            -89.511        0.998159627             -3.278        0.999108836             -3.266       0.0173500208             -91.98
               548      0.0173660081            -90.525        0.998619403             -3.303         0.99873438             -3.296        0.017009831            -92.378
               549      0.0172762707            -89.674        0.998976219             -3.309        0.999012679             -3.284       0.0170019995            -92.097
               550       0.016925831            -90.042        0.998159627             -3.352        0.998504439             -3.286        0.016931678            -92.199
               551      0.0169238824             -89.35        0.997470361             -3.328        0.998274551             -3.388       0.0165767734            -91.819
               552      0.0167571439            -89.623        0.998619403             -3.364        0.998274551             -3.365       0.0163926815            -91.845
               553      0.0166763115            -89.335        0.997814935             -3.353        0.998389489             -3.394       0.0163286395            -92.557
               554      0.0165044099             -89.64        0.999039478             -3.354         0.99889698             -3.365       0.0162892092            -92.273
               555      0.0161528812             -88.78        0.998619403             -3.398        0.998619403             -3.423       0.0158507567            -92.389
               556      0.0157942861            -89.039        0.998504439             -3.409        0.998389489             -3.422       0.0157054361            -91.219
               557      0.0156152881            -89.536        0.998619403              -3.46        0.999350191             -3.471       0.0153691553            -92.312
               558      0.0156819477            -89.728        0.999025446             -3.501        0.998504439             -3.467        0.015226497            -92.483
               559      0.0153038253            -89.382        0.998044717             -3.492        0.998871105             -3.521       0.0151547927            -92.463
               560      0.0153546786            -89.168        0.999309418             -3.513        0.998826556             -3.544       0.0149585925            -92.183
               561      0.0149313818            -88.764        0.998159627             -3.527        0.997929819             -3.605       0.0148490955            -92.643
               562       0.014697721            -89.108         0.99873438             -3.581        0.998389489             -3.514       0.0143863294            -92.572
               563      0.0145831049            -88.762        0.998274551             -3.618        0.998619403             -3.568       0.0143185816            -92.686
               564      0.0144860507             -88.57        0.998504439             -3.561        0.998987721             -3.596       0.0142708552            -92.055
               565      0.0144062186            -89.964         0.99873438             -3.581        0.998974379             -3.615       0.0141971117            -92.384
               566      0.0142872946            -88.426        0.998619403             -3.624        0.998044717             -3.597       0.0137467489            -92.748
               567      0.0141922091            -88.744        0.998504439             -3.625         0.99873438             -3.666       0.0137009285            -92.191
               568      0.0137198701            -88.877        0.998389489             -3.691        0.999379991              -3.68        0.013702506            -93.009
               569       0.013678616            -89.162        0.999345719             -3.657        0.999151297             -3.682       0.0134614597            -92.751
               570      0.0136474025            -89.424         0.99873438             -3.652        0.998274551             -3.719       0.0132464651            -93.181
               571      0.0135176127            -89.045         0.99884937              -3.67         0.99873438             -3.667       0.0131856031            -92.078
               572      0.0131023742            -88.614         0.99890871               -3.7        0.998044717             -3.754       0.0130888051            -91.618
               573      0.0128395558             -87.72        0.998159627              -3.76        0.998159627             -3.717       0.0127511689            -92.383
               574      0.0125242002            -88.704        0.998504439             -3.797         0.99873438             -3.758       0.0122970234            -92.281
               575      0.0126663067            -88.293        0.998619403             -3.765        0.997700064             -3.786       0.0122320712            -91.596
               576      0.0122927769            -89.992         0.99873438             -3.802         0.99873438             -3.826       0.0119302625             -92.61
               577       0.012096229            -89.422         0.99885719             -3.836         0.99887812             -3.845       0.0119206517            -92.946
               578      0.0117530342            -88.031        0.998504439             -3.772        0.999175324             -3.836       0.0115637848            -91.782
               579      0.0118195244            -88.631         0.99873438             -3.865        0.998986686             -3.847       0.0115040299            -91.911
               580      0.0117111623            -87.853         0.99873438             -3.872         0.99873438             -3.871       0.0112460497            -92.154
               581      0.0114788928             -88.52        0.998159627              -3.89        0.998159627             -3.867       0.0112447551            -93.097
               582       0.011437628              -88.1        0.998127376             -3.901        0.999747559             -3.858       0.0109770582            -94.165
               583      0.0110395152            -89.355        0.998972999             -3.954        0.999655593             -3.912       0.0108905547            -93.975
               584      0.0107497905            -85.404         0.99873438             -3.965        0.998159627             -3.975       0.0106377554            -92.822
               585      0.0106635056            -88.864        0.998389489             -3.944        0.998274551             -3.975       0.0104749028            -92.996
               586      0.0104592369            -88.305        0.999038558             -3.976        0.998619403              -3.95       0.0103228591            -93.113
               587      0.0101812242            -87.469        0.998619403             -3.997        0.997814935              -4.05       0.0100069101             -92.45
               588      0.0104303769            -88.006        0.999033037             -3.948         0.99873438             -4.004       0.0102364649            -92.657
               589     0.00999309463            -88.482        0.998274551                 -4        0.999279896             -4.004      0.00981408918            -91.814
               590     0.00979715547            -88.191        0.998619403             -4.045        0.998389489             -4.088      0.00950276523            -93.114
               591     0.00975101894            -88.471        0.999153813              -4.06        0.999119764             -4.042      0.00953235044            -91.564
               592     0.00954552897            -87.952         0.99889859             -4.083        0.999671015               -4.1      0.00921828222            -94.413
               593     0.00942648976            -87.563        0.997929819             -4.063        0.998619403             -4.106      0.00912115845            -92.074
               594     0.00911381062            -87.648        0.999323499             -4.115        0.999074329             -4.112      0.00915060903            -93.238
               595     0.00893716961            -87.076        0.998504439             -4.165         0.99873438              -4.16      0.00867061694            -93.213
               596      0.0086836038            -87.483        0.998504439             -4.129        0.999168537             -4.246      0.00845278845             -94.12
               597     0.00848301041            -85.623        0.998619403              -4.22        0.998619403             -4.184      0.00844695149            -93.027
               598     0.00857531338            -87.753        0.999073984             -4.189        0.998389489             -4.192      0.00833777171            -94.119
               599     0.00836565596            -86.237        0.999379186             -4.236        0.998389489             -4.201      0.00808909619            -92.761
               600     0.00812175716            -87.774        0.999076974             -4.245         0.99873438             -4.211      0.00787408321            -93.405
               601     0.00816394368            -88.631         0.99873438             -4.201        0.999178315             -4.261      0.00781447849             -93.71
               602     0.00782257976            -85.235        0.997929819             -4.298        0.998619403             -4.272      0.00743789426            -91.914
               603     0.00747997248            -87.111        0.998159627             -4.266        0.999536827             -4.301      0.00759801244            -94.335
               604     0.00742249647            -84.912        0.999019465             -4.271         0.99887766              -4.29      0.00729793515            -93.092
               605     0.00725855213            -85.711        0.999338571             -4.329        0.998159627             -4.285      0.00717133483            -93.652
               606     0.00722520211            -84.534        0.998958508             -4.337        0.998942752             -4.299      0.00690001445             -92.47
               607     0.00715731284             -86.66        0.999213516             -4.296         0.99884937              -4.35      0.00675460567            -93.331
               608     0.00665196568            -84.311        0.998619403               -4.4        0.998159627             -4.354      0.00675149577            -93.577
               609     0.00671660796            -85.825        0.999088017             -4.406        0.999245843             -4.395      0.00651403368            -95.118
               610     0.00650279405            -84.565        0.999348811             -4.355         0.99873438             -4.411      0.00628347657            -92.334
               611     0.00629071486            -84.609        0.998619403             -4.434        0.998274551              -4.45      0.00614610535            -94.158
               612     0.00624740988            -82.269        0.999439248             -4.452         0.99885259             -4.409       0.0060429639            -94.227
