!{251R15S3R9}
!Johanson Technology Inc.
!www.johansontechnology.com
!Test Board Conditions:
!Substrate Type  RO4350B
!Substrate Thickness        20 mil
!Substrate Dk      3.66
!TL Type: GCPW 
!TL Trace Width  34 mil
!TL Gap  10 mil
!Electrode orientation      Horizontal
!DUT TOPOLOGY	SERIES
!Mounting Pad LxW         26x52 mil
! Created Thu Mar 12 16:40:57 2020
# mhz S ma R 50
! 2 Port Network Data from SP1.SP block
! freq  magS11  angS11  magS21  angS21  magS12  angS12  magS22  angS22  
!     
               500       0.656563035             -55.99        0.749163186             34.553        0.750803741             34.521        0.654374592            -55.798
               501        0.65569288            -56.009        0.750413205             34.445        0.750931751             34.518        0.653733089            -55.911
               502       0.654666185            -56.105        0.750533202             34.411        0.751917009             34.425        0.653160494            -55.968
               503       0.654472435            -56.176        0.751867581             34.301        0.752213909             34.383        0.651990638            -55.992
               504       0.653425331            -56.258        0.752221889             34.229        0.753088415             34.298        0.651322328              -56.1
               505        0.65276701            -56.317        0.752762884             34.168        0.753630034             34.247         0.65059122            -56.162
               506       0.651810227            -56.368        0.753392288             34.113        0.754607592             34.183        0.649637626            -56.229
               507       0.651189511            -56.411        0.754236241             34.083        0.754757429             34.097         0.64946746            -56.296
               508        0.65042854            -56.531        0.754917668             33.979        0.755439326             34.017        0.648559148            -56.363
               509       0.649638422            -56.595        0.754956107             33.905        0.756609348             33.966        0.647174956            -56.448
               510       0.648800337            -56.661        0.756068365             33.867        0.756852181             33.906        0.646935624            -56.475
               511       0.647976346            -56.763        0.756587484             33.722        0.757720702              33.82         0.64603962            -56.605
               512       0.647215327            -56.797        0.757092238             33.705        0.758575468             33.735        0.645429474            -56.653
               513       0.646752054            -56.897        0.757945217             33.621        0.758905703             33.633         0.64385462            -56.762
               514         0.6457214            -56.985        0.758569155              33.53         0.75979281             33.557        0.643569093            -56.828
               515       0.645165686            -57.005        0.759313744             33.485        0.760626165             33.485        0.643089266             -56.86
               516       0.644291252            -57.108        0.760120132             33.388        0.760820551             33.424        0.642735422            -56.944
               517       0.643671075            -57.182        0.760350776              33.36        0.761401966             33.375        0.641377903            -57.001
               518       0.642587133            -57.261        0.761170634             33.231        0.762222957             33.299        0.640445273            -57.138
               519       0.642293833            -57.283        0.761524276             33.195        0.762664887             33.304         0.63956362            -57.143
               520       0.641423438            -57.399        0.762157672             33.118        0.763387115             33.173        0.639285458            -57.218
               521       0.640400542            -57.467        0.762784204             33.091        0.763926703             33.108        0.638633493            -57.277
               522       0.639845173            -57.553        0.763527877             33.016        0.764319426             33.034        0.637345462            -57.361
               523       0.638872701            -57.636        0.763948938             32.939        0.765093181             32.972        0.636743223            -57.436
               524       0.638170681            -57.704        0.765044766             32.854        0.765397163             32.885        0.636043543            -57.527
               525       0.637214821            -57.751        0.765395436             32.805        0.766100716              32.84        0.635383406            -57.607
               526       0.636778329            -57.813        0.765840404             32.697        0.766987481             32.735        0.634801984            -57.703
               527       0.636167826            -57.932        0.766252141             32.644        0.767841712             32.665        0.633682482            -57.698
               528       0.635117715            -57.964        0.767368957             32.554         0.76789922             32.631        0.633511097            -57.817
               529       0.634393369            -58.078        0.767553462             32.522        0.768614609             32.538        0.632206032             -57.88
               530       0.634031222            -58.121        0.768175841             32.416        0.769060746             32.497         0.63090017            -57.982
               531       0.633087821            -58.146        0.768712528             32.383        0.769952545              32.43        0.630614509            -58.037
               532       0.632297914            -58.229        0.769877716             32.348        0.770409713             32.337        0.629682682            -58.066
               533       0.631774199            -58.295        0.769860231             32.221        0.771013329             32.323        0.629161133             -58.16
               534        0.63069969            -58.403        0.770943618             32.136        0.771387537             32.227        0.628525088             -58.25
               535       0.629990328            -58.478        0.771229942             32.088        0.772118365             32.153        0.627745896             -58.31
               536       0.629283642            -58.582        0.771962924              32.03        0.772674256             32.051        0.626825192            -58.365
               537       0.628552425            -58.571        0.772487581             31.967        0.773377452             32.032        0.625664489            -58.471
               538       0.627904186            -58.709        0.772757766             31.865         0.77418255             31.929        0.625451126            -58.509
               539       0.626841163            -58.768        0.773673119               31.8        0.774475186             31.835        0.624967607             -58.64
               540       0.626228129            -58.828        0.774341564             31.774        0.774876645              31.82        0.624140797            -58.627
               541        0.62553025            -58.925        0.774547964             31.687        0.775618781             31.754        0.623014732            -58.715
               542       0.625083629            -58.969        0.775154236              31.67        0.776047179             31.654        0.621996763            -58.784
               543       0.624181335            -59.065        0.775908979             31.582         0.77626638             31.622        0.621027422            -58.862
               544       0.623338847            -59.109         0.77700568             31.497        0.777095141             31.505        0.621189625            -58.922
               545       0.622656941            -59.133          0.7774972             31.411        0.777318196             31.564        0.620081585            -58.981
               546       0.621961737            -59.257        0.777881903             31.331        0.778329817             31.414        0.619603223            -59.049
               547       0.621472643            -59.324        0.777896855             31.295        0.778882625             31.318        0.618332417            -59.163
               548        0.62015454            -59.379        0.778215592             31.228        0.779650439             31.316        0.618087453            -59.221
               549       0.619662055             -59.43        0.778941609             31.182        0.780108308             31.227        0.617454419            -59.278
               550       0.618869622            -59.477        0.779828612             31.119         0.78063706             31.183        0.616735809            -59.324
               551       0.618101755            -59.574        0.780476762             31.056        0.781195939              31.08         0.61597059            -59.395
               552       0.617199773            -59.669        0.780864641             30.983        0.782034221             31.012         0.61521336            -59.448
               553       0.616835746            -59.721        0.781752959             30.881        0.782383231             30.932        0.614001644            -59.559
               554       0.616153389            -59.788        0.782237878             30.762        0.782778416             30.888        0.613463661            -59.669
               555       0.615228285            -59.894        0.782503509              30.74        0.783765773             30.784        0.613036444            -59.678
               556       0.614663188            -59.918         0.78340656             30.699        0.783767416             30.765        0.612191371            -59.735
               557       0.613879068             -59.99        0.783398661             30.669        0.784843064             30.679        0.611551203            -59.776
               558       0.613537412            -60.068        0.784586895             30.556        0.784586895             30.649        0.610648156             -59.84
               559       0.612321351            -60.125           0.785108             30.472        0.785379214             30.581        0.609858952            -59.974
               560       0.611777769            -60.209        0.785495482             30.418         0.78594778             30.509        0.608826702            -60.026
               561       0.611069929            -60.256         0.78594275              30.39        0.786666964             30.397        0.608752717            -60.083
               562       0.610378928            -60.304        0.786320381             30.316        0.787316825             30.387        0.608204364            -60.114
               563       0.609805482             -60.41        0.786758283             30.258        0.787755282             30.277         0.60700368            -60.206
               564       0.609020224            -60.472        0.787284524             30.155          0.7885545             30.241          0.6065711            -60.253
               565       0.608197116            -60.591        0.787307442             30.082        0.789031527             30.131        0.605821046            -60.382
               566       0.607838515            -60.614         0.78838475             30.021        0.789202069             30.087        0.604976096            -60.431
               567       0.606471148            -60.666         0.78924192             29.941        0.789605463             30.074         0.60444967             -60.52
               568       0.606086076            -60.746        0.790286033              29.87        0.790013125             29.945         0.60399634             -60.56
               569       0.605549176            -60.739        0.790313531             29.809        0.790950706             29.954        0.603252899            -60.613
               570       0.604942752            -60.885        0.790795661             29.736        0.791433224             29.836        0.602301962             -60.67
               571        0.60372831            -60.911        0.791756325             29.675        0.792029835             29.755        0.601993139            -60.775
               572       0.603536541             -60.96        0.791778253             29.661        0.792142965              29.75        0.601386354            -60.781
               573        0.60276437            -61.035        0.792040835             29.601        0.793318484              29.62         0.60013309            -60.883
               574       0.602282176            -61.109        0.792775118             29.514        0.793505627             29.557        0.599514941            -60.953
               575       0.600917226            -61.186        0.793258353              29.43        0.794537965             29.496        0.599052181            -61.028
               576       0.600871179            -61.247        0.793745677             29.394        0.794385618             29.481         0.59804157            -61.044
               577       0.599948808            -61.284        0.794537126             29.297        0.795360823             29.392        0.598017916            -61.114
               578       0.599447293            -61.374        0.795153552             29.236        0.795336664             29.315        0.596693083             -61.22
               579       0.598795535            -61.421        0.795387118             29.188        0.796303369             29.256        0.596044319            -61.253
               580       0.597942144            -61.499         0.79626782             29.139        0.796909794             29.191        0.595606138            -61.254
               581       0.597542249            -61.541        0.796468523             29.083         0.79711066             29.134         0.59465985            -61.368
               582       0.596568487              -61.6        0.797370765             28.977        0.797738052             29.087        0.594306265            -61.431
               583       0.595958342            -61.669        0.797748329             28.926        0.798299585              28.97        0.593288463            -61.544
               584       0.594992694            -61.763        0.798291735             28.888        0.798567503             28.934        0.592804693            -61.568
               585       0.594621683            -61.781        0.798988892             28.792        0.799172887             28.882        0.592639701            -61.614
               586       0.593639602            -61.843        0.799600147             28.708        0.799508095             28.834         0.59159278            -61.739
               587       0.593020992             -61.95        0.799687056              28.61         0.80060826             28.757        0.590908268            -61.778
               588       0.592508737            -62.021        0.800285151             28.605        0.800838159             28.644         0.59032987            -61.825
               589       0.591787826            -62.008        0.801154039             28.532        0.801430796              28.62        0.589475863            -61.903
               590       0.591187931            -62.121        0.801171624             28.467        0.801909871             28.575        0.588607185            -61.948
               591       0.590382777            -62.161        0.801924864             28.401        0.802386622             28.489        0.588414924            -62.031
               592       0.590028847            -62.196        0.802090264             28.394         0.80264452             28.457         0.58731791            -62.077
               593       0.589146192            -62.243        0.803106378             28.277        0.803291321              28.41        0.586912116            -62.139
               594       0.588527803             -62.35        0.802817785             28.242          0.8042054             28.301        0.586228576            -62.195
               595       0.588040135            -62.403        0.803631532             28.165        0.804649913             28.261        0.585203572            -62.231
               596       0.587197593            -62.478        0.804237403             28.077        0.805071156             28.194        0.584566962            -62.327
               597       0.586700301            -62.529        0.804667222             28.019        0.805408689              28.13        0.584408213            -62.381
               598       0.585788898            -62.591        0.805362004             27.999        0.806104112             28.059        0.583769144            -62.392
               599       0.585382026            -62.611        0.805636962             27.913        0.806379323             28.006        0.582759528            -62.541
               600       0.584913588             -62.65        0.806569343             27.872        0.806383645             27.945        0.582427283            -62.576
               601       0.584106887            -62.789        0.807034919             27.808        0.807127838             27.829        0.581423159            -62.621
               602       0.583546805            -62.796        0.807375739             27.742        0.807561666             27.808        0.580665061            -62.712
               603       0.582965704            -62.865        0.807593856              27.69        0.808058878             27.771        0.580220416            -62.739
               604       0.582204655            -62.983        0.808119662             27.563        0.808584987             27.688         0.57946295            -62.836
               605        0.58129939            -63.038         0.80844386             27.564        0.809188807             27.635        0.579028402            -62.851
               606       0.580726784            -63.051        0.808857203             27.525         0.80978897             27.606        0.578324854             -62.89
               607       0.580292162            -63.133        0.809462445               27.5        0.809742072             27.467        0.577625962            -62.995
               608       0.579661564            -63.158        0.809887142             27.413        0.810540097             27.465        0.576931835            -63.026
               609       0.578847197            -63.262        0.810427062             27.322        0.811267232             27.341        0.576320323            -63.117
               610       0.578165408            -63.342        0.810591609             27.253        0.811992661             27.292        0.575376478            -63.165
               611       0.577309218            -63.349        0.811443886             27.194        0.812098096             27.281        0.575318702            -63.234
               612       0.577046921            -63.416         0.81229004             27.173        0.812009534             27.255        0.573866837            -63.222
