!{251R14S820}
!Johanson Technology Inc.
!www.johansontechnology.com
!Test Board Conditions:
!Substrate Type  RO4350B
!Substrate Thickness        20 mil
!Substrate Dk      3.66
!TL Type: GCPW 
!TL Trace Width  36 mil
!TL Gap  12 mil
!Electrode orientation      Horizontal
!DUT TOPOLOGY	SERIES
!Mounting Pad LxW         26x36 mil
! Created Wed Mar 11 15:53:17 2020
# mhz S ma R 50
! 2 Port Network Data from SP1.SP block
! freq  magS11  angS11  magS21  angS21  magS12  angS12  magS22  angS22  
!     
               500      0.0123211147            -87.412        0.998504439              -3.78        0.997929819             -3.777       0.0122489821            -93.784
               501      0.0123055208            -87.719        0.997929819             -3.785         0.99888916              -3.79       0.0124150937            -94.004
               502      0.0122984392            -88.566         0.99873438             -3.816        0.999269657             -3.806       0.0118576875            -94.899
               503       0.012017109            -87.847        0.998504439             -3.836        0.999085716             -3.846        0.011956388            -94.963
               504      0.0118276918            -87.979        0.998389489              -3.89        0.999176014             -3.842       0.0117679279            -95.911
               505      0.0118304156            -87.867         0.99884937             -3.835         0.99884937             -3.854       0.0116613814            -95.158
               506      0.0117896252            -88.076        0.997585206             -3.852        0.999086636             -3.878        0.011581105            -94.603
               507      0.0113880666            -87.977        0.998389489             -3.913        0.998159627              -3.88       0.0112940576             -94.96
               508      0.0114656848            -87.793        0.998504439             -3.878        0.998619403             -3.922       0.0113005609            -95.079
               509      0.0112979591            -86.634        0.998159627             -3.929        0.997929819             -3.953        0.011137815            -94.488
               510      0.0111609201            -87.453        0.998504439             -3.958        0.998389489             -3.988       0.0106169556            -94.265
               511      0.0109106343            -88.029        0.998389489             -3.951        0.998504439             -3.959       0.0108667581            -95.039
               512      0.0109131469            -87.988        0.997929819             -4.019         0.99873438             -3.984       0.0106402051            -95.326
               513      0.0108280437            -88.376        0.999044424             -4.015        0.999204543             -3.963       0.0104568289            -95.776
               514      0.0105305244            -86.963        0.998504439             -3.986        0.998619403             -4.029       0.0104592369            -94.044
               515      0.0103109813            -86.675        0.998917335              -4.08        0.999085946             -4.054       0.0100855596            -96.028
               516      0.0102647884            -87.319        0.998970354             -4.053        0.999066392             -4.077       0.0099735553            -95.901
               517       0.010091367            -87.379        0.998504439             -4.074        0.998504439             -4.095      0.00964717152             -95.93
               518      0.0100207448            -87.195        0.998619403             -4.117        0.998389489              -4.07      0.00969504881            -95.856
               519     0.00963163464            -86.738        0.999772761             -4.057        0.998619403               -4.1      0.00961833723            -96.524
               520     0.00971292421            -86.867        0.998159627             -4.144        0.999257577             -4.095      0.00946455066            -96.823
               521     0.00951152163            -87.051        0.999376194             -4.148        0.998966789             -4.172      0.00936159826             -96.95
               522     0.00943191764            -85.528         0.99873438             -4.144        0.998504439              -4.15      0.00934329368            -96.735
               523     0.00920449572            -86.619         0.99884937             -4.184         0.99884937             -4.189      0.00909389635            -96.139
               524     0.00900015523            -86.266         0.99890503             -4.209        0.998504439             -4.203      0.00905732601            -97.078
               525     0.00903961637            -86.604        0.998389489             -4.224        0.998389489             -4.191      0.00881556192            -96.421
               526     0.00859211339            -86.768        0.998946317              -4.23        0.999489417             -4.207      0.00882063802            -97.024
               527     0.00862084824            -86.756        0.998159627              -4.24         0.99886409             -4.243      0.00823758673            -95.795
               528     0.00873071879            -85.573        0.998159627             -4.248        0.998619403             -4.256      0.00834449387            -96.048
               529     0.00834833754             -84.43        0.998872715             -4.285        0.998044717             -4.291      0.00824327902            -95.754
               530     0.00848008099            -86.692        0.998159627             -4.278         0.99884937             -4.276      0.00813298554            -98.724
               531     0.00819030359            -85.599        0.998504439             -4.314        0.998941257             -4.319       0.0079579279            -95.162
               532     0.00800940031            -84.712        0.997929819              -4.36        0.998619403             -4.341      0.00788496918            -95.999
               533     0.00792957662            -85.202        0.998389489              -4.35         0.99735553             -4.335      0.00781447849            -96.073
               534     0.00772235922             -83.97         0.99887007             -4.372        0.998504439             -4.342      0.00765420342            -97.083
               535      0.0078749898             -86.45        0.998879845             -4.379        0.998619403             -4.339      0.00737224908            -96.786
               536     0.00764451611            -82.059        0.998159627             -4.413        0.998274551             -4.366       0.0072912166            -98.654
               537      0.0073986077            -84.696        0.998389489              -4.45        0.998159627             -4.435      0.00696225619            -97.561
               538     0.00733246502            -87.176        0.998504439             -4.415        0.998274551             -4.391       0.0070680563            -97.116
               539     0.00700486871            -84.922         0.99873438             -4.429        0.998274551             -4.403       0.0069791093            -98.596
               540     0.00664890304            -83.255        0.998504439             -4.506         0.99884937              -4.47      0.00675616115            -98.639
               541     0.00697750249            -81.591        0.998389489             -4.494        0.999267816             -4.475      0.00666730005            -96.612
               542     0.00674217468            -83.701        0.999800271              -4.46        0.998504439             -4.483      0.00663208372             -98.34
               543      0.0068053427            -83.236        0.998274551             -4.481         0.99873438             -4.503      0.00625604696            -98.404
               544     0.00656220812            -82.985        0.998504439             -4.545        0.999126206               -4.5      0.00628202991             -98.85
               545     0.00623878472            -82.737        0.998274551             -4.563        0.999252975             -4.536      0.00612491407            -99.043
               546     0.00599307896            -85.679        0.999191199              -4.58        0.998929756             -4.566      0.00602143496            -98.613
               547     0.00598067221            -82.111        0.999018775             -4.575         0.99873438             -4.557      0.00577962951            -99.473
               548     0.00591017037            -82.808        0.998274551             -4.588        0.998504439             -4.592       0.0058620565            -97.558
               549     0.00596760405            -81.935        0.998504439             -4.579        0.998504439             -4.574      0.00568918426            -99.299
               550     0.00575307453             -81.61         0.99884937             -4.655         0.99873438              -4.62      0.00542625251            -99.466
               551     0.00556544634            -82.596        0.998619403             -4.656         0.99885213             -4.656      0.00534441286            -99.923
               552     0.00547456983            -81.015        0.998159627             -4.621        0.998504439             -4.638      0.00523359365            -98.718
               553      0.0055237225            -80.235        0.999035918             -4.672        0.999688859               -4.7      0.00500993224            -99.015
               554     0.00508452047            -79.739         0.99873438             -4.621        0.998987491             -4.697      0.00483170043            -99.729
               555     0.00505010026            -78.688         0.99873438             -4.703        0.999399896              -4.72      0.00455354885            -99.745
               556     0.00481504112            -80.186        0.998949422             -4.714         0.99873438             -4.711      0.00478630092            -102.65
               557     0.00490512411            -77.838        0.999242046             -4.763        0.998504439             -4.726      0.00443098214           -100.444
               558     0.00480950079            -78.512         0.99884937             -4.727         0.99884937             -4.711      0.00446477934           -100.994
               559      0.0045840569            -78.681        0.998619403             -4.802        0.998389489             -4.763      0.00416725427            -102.67
               560     0.00440656317            -78.309        0.999064207             -4.792         0.99884937               -4.8      0.00409637776           -101.818
               561     0.00428894029            -76.316        0.998619403             -4.807        0.998389489             -4.797       0.0041701339           -101.166
               562      0.0041937255            -77.228        0.998619403             -4.765        0.998619403             -4.818      0.00404529316           -103.858
               563      0.0039769488            -76.342        0.998898015             -4.888         0.99873438             -4.799      0.00394775325           -103.819
               564     0.00396734529            -76.112        0.998968974             -4.853        0.999250904             -4.858      0.00362493313           -103.815
               565     0.00365805305            -73.128        0.998504439             -4.892        0.998504439             -4.875       0.0035014667           -103.874
               566     0.00379183997             -73.52        0.997814935             -4.868         0.99905075             -4.897      0.00339390749           -102.838
               567     0.00385655918            -70.926        0.999175669             -4.911        0.998951952             -4.913      0.00328889493           -104.067
               568     0.00363956936            -70.373        0.998159627             -4.893        0.998389489             -4.858      0.00329078872           -102.656
               569     0.00334734133            -68.862        0.998159627             -4.973        0.999057076              -4.96       0.0029590343           -104.282
               570     0.00317102744            -73.295        0.999288294             -4.968        0.999252055              -4.97      0.00290636396           -107.777
               571     0.00303005143            -70.538        0.999495055             -4.923         0.99873438                 -5       0.0028242296           -107.617
               572     0.00306407929            -65.122        0.998389489             -4.984        0.998274551             -4.944      0.00280252826           -105.639
               573      0.0028477378            -66.657        0.998504439             -5.021        0.998389489             -5.037      0.00248857079           -110.745
               574     0.00288270366             -63.91        0.999148866             -4.975        0.998932631             -5.048      0.00248056151           -103.103
               575     0.00273369463            -62.241        0.998504439             -5.037        0.998966444             -5.056      0.00237848272            -96.228
               576     0.00283661242            -61.006        0.998159627             -5.037        0.998159627             -5.058      0.00222228625           -103.292
               577     0.00265552259            -63.894         0.99873438             -5.076        0.999006468             -5.051       0.0020914621           -108.735
               578     0.00230993628             -61.65        0.998159627             -5.088         0.99873438             -5.099        0.002018134           -105.052
               579     0.00258344964            -58.298        0.998159627             -5.106         0.99873438             -5.096      0.00210765731           -103.615
               580     0.00241454253             -52.64        0.999810306               -5.1        0.998469629             -5.108      0.00179281245           -113.491
               581     0.00203727661            -61.453        0.998619403             -5.139        0.999535216             -5.096       0.0016251745            -117.29
               582     0.00211373238            -53.115        0.998619403             -5.174        0.999760675             -5.147      0.00160675626           -116.287
               583      0.0019169024            -50.873         0.99873438             -5.197         0.99902027             -5.189      0.00153620792           -122.152
               584     0.00181363547            -48.633        0.998274551             -5.137        0.998274551             -5.156      0.00138165623           -111.326
               585     0.00188516774             -47.58        0.998504439             -5.186        0.998389489             -5.172      0.00120448113           -120.073
               586     0.00189867224            -40.924         0.99885558             -5.228        0.998159627             -5.223      0.00106279622           -128.677
               587      0.0021332905            -32.791        0.999063517             -5.256        0.998159627             -5.231      0.00106010773           -128.852
               588     0.00152282501            -42.118        0.998389489             -5.237        0.998916415             -5.213     0.000783880751           -132.535
               589     0.00190326824            -23.813        0.997814935             -5.297         0.99873438             -5.254     0.000682260142           -146.236
               590     0.00171494422            -30.442        0.998159627             -5.246        0.998274551             -5.263     0.000812175716           -137.219
               591     0.00141905752            -23.156        0.999228816             -5.285         0.99873438             -5.303     0.000713099283           -147.244
               592     0.00146554784            -16.241        0.998990251             -5.286        0.999460765             -5.315     0.000842558375           -170.619
               593     0.00158891257            -21.588        0.998859605             -5.319        0.999790947             -5.334     0.000782888656           -170.047
               594     0.00148456768             -9.166         0.99884937             -5.321        0.998504439             -5.344     0.000672589371            169.419
               595     0.00143466334             -10.68         0.99873438             -5.344         0.99873438             -5.336     0.000507341046            164.265
               596     0.00158015613              3.858        0.999010148             -5.359        0.999276329             -5.394     0.000592515888            178.305
               597     0.00118959738              6.761        0.998915265             -5.399        0.999127586             -5.406      0.00059689783            156.039
               598     0.00163983443             10.082         0.99920926             -5.441        0.998619403             -5.409     0.000864967919            134.131
               599     0.00154917329              5.874        0.997929819             -5.454        0.998619403              -5.45     0.000753615808            127.352
               600     0.00171850183             10.979        0.999178315             -5.464        0.998619403             -5.429      0.00107497905            123.645
               601     0.00171929342             15.612        0.997929819             -5.492        0.998159627             -5.463      0.00115997866            115.058
               602     0.00161138754             18.287        0.998619403              -5.46         0.99873438             -5.439       0.0011893235            119.272
               603     0.00204644464             21.629         0.99873438               -5.5        0.998504439             -5.522      0.00125762164            108.074
               604     0.00188408287             28.468        0.998274551             -5.533        0.998504439             -5.449      0.00133244717             98.313
               605     0.00209749049             31.718        0.999263674             -5.513         0.99884937             -5.537      0.00130797668            118.873
               606      0.0023157944             28.201        0.998504439             -5.584        0.998389489             -5.524      0.00153338073            110.392
               607     0.00217245105             35.852        0.998274551             -5.547         0.99873438              -5.59      0.00168732989             109.94
               608     0.00230834118             42.119        0.998389489             -5.573        0.998274551             -5.523      0.00179266855             97.462
               609     0.00222510239             37.861        0.998159627             -5.594        0.998504439             -5.588       0.0018717593             98.895
               610     0.00219154302             40.953         0.99898174             -5.627        0.998957703             -5.586       0.0015901936            108.101
               611     0.00224233244             44.594        0.998619403             -5.631        0.999130347             -5.644      0.00239855676            103.745
               612     0.00237383211             46.366        0.999153353             -5.623        0.998619403             -5.623      0.00194446442            103.156
