!{251R14S0R5}
!Johanson Technology Inc.
!www.johansontechnology.com
!Test Board Conditions:
!Substrate Type  RO4350B
!Substrate Thickness        20 mil
!Substrate Dk      3.66
!TL Type: GCPW 
!TL Trace Width  36 mil
!TL Gap  12 mil
!Electrode orientation      Horizontal
!DUT TOPOLOGY	SERIES
!Mounting Pad LxW         26x36 mil
! Created Mon Mar 16 17:01:56 2020
# mhz S ma R 50
! 2 Port Network Data from SP1.SP block
! freq  magS11  angS11  magS21  angS21  magS12  angS12  magS22  angS22  
!     
               500        0.98849664        -12.5379854         0.14438549         76.8317628        0.144718333         77.0066369        0.988142013        -12.7106742
               501       0.988494277        -12.5639805        0.144671692         76.8090171        0.145005195         76.9855158        0.988055578        -12.7342323
               502       0.988490349        -12.5899756        0.144957669         76.7862713        0.145291831         76.9643948        0.987967579        -12.7577904
               503       0.988484871        -12.6159708         0.14524342         76.7635256        0.145578241         76.9432738         0.98787803        -12.7813485
               504       0.988477863        -12.6419659        0.145528948         76.7407799        0.145864427         76.9221527        0.987786952        -12.8049066
               505        0.98846935         -12.667961        0.145814255         76.7180341        0.146150391         76.9010317        0.987694369        -12.8284647
               506        0.98845936        -12.6939561        0.146099343         76.6952884        0.146436137         76.8799106        0.987600311        -12.8520227
               507       0.988447928        -12.7199513        0.146384217         76.6725426        0.146721667         76.8587896        0.987504812        -12.8755808
               508       0.988435089        -12.7459464         0.14666888         76.6497969        0.147006986         76.8376686        0.987407908        -12.8991389
               509       0.988420882        -12.7719415        0.146953337         76.6270512        0.147292099         76.8165475         0.98730964         -12.922697
               510       0.988368238        -12.7962419        0.147245352         76.6065584        0.147584788         76.7915179        0.987294616        -12.9468019
               511       0.988297468        -12.8197808        0.147540649         76.5870779        0.147880765         76.7647321        0.987316139        -12.9711526
               512       0.988225158        -12.8433198        0.147835728         76.5675974        0.148176524         76.7379464        0.987336129        -12.9955032
               513       0.988151244        -12.8668588        0.148130579         76.5481169        0.148472055         76.7111607        0.987354518        -13.0198539
               514       0.988075661        -12.8903977        0.148425191         76.5286364        0.148767346          76.684375        0.987371243        -13.0442045
               515       0.987998348        -12.9139367        0.148719553         76.5091558        0.149062387         76.6575893        0.987386244        -13.0685552
               516        0.98791925        -12.9374756        0.149013654         76.4896753        0.149357166         76.6308036        0.987399462        -13.0929058
               517       0.987838315        -12.9610146        0.149307487         76.4701948        0.149651676         76.6040179        0.987410846        -13.1172565
               518        0.98775078        -12.9845536        0.149600327         76.4507143        0.149945191         76.5772321        0.987415636        -13.1416071
               519       0.987658454        -13.0080925        0.149892442         76.4312338         0.15023798         76.5504464        0.987415636        -13.1659578
               520       0.987566127        -13.0316315        0.150184558         76.4117532        0.150530769         76.5236607        0.987415636        -13.1903084
               521       0.987473801        -13.0551705        0.150476674         76.3922727        0.150823558          76.496875        0.987415636        -13.2146591
               522       0.987415636        -13.0793176        0.150766186         76.3709829        0.151113738         76.4718846        0.987381487        -13.2381154
               523       0.987415636        -13.1045004        0.151051267         76.3466125        0.151399476         76.4499513        0.987289192        -13.2600487
               524       0.987415636        -13.1296832        0.151336347         76.3222421        0.151685213         76.4280179        0.987196897        -13.2819821
               525       0.987415636         -13.154866        0.151621427         76.2978716        0.151970951         76.4060845        0.987104602        -13.3039155
               526       0.987415636        -13.1800487        0.151906508         76.2735012        0.152256688         76.3841511        0.987012307        -13.3258489
               527       0.987415636        -13.2052315        0.152191588         76.2491308        0.152542426         76.3622177        0.986920012        -13.3477823
               528       0.987408838        -13.2304143        0.152475619         76.2247604        0.152827111         76.3402843        0.986820924        -13.3697157
               529       0.987397359        -13.2555971        0.152758921         76.2003899        0.153111067         76.3183509        0.986717159        -13.3916491
               530       0.987384172        -13.2807799        0.153041952         76.1760195         0.15339475         76.2964175        0.986611689        -13.4135825
               531       0.987369339        -13.3059626         0.15332472         76.1516491         0.15367817         76.2744842        0.986504577        -13.4355158
               532       0.987352925        -13.3311454        0.153607233         76.1272786        0.153961334         76.2525508        0.986395888        -13.4574492
               533       0.987334996        -13.3563282        0.153889501         76.1029082        0.154244253         76.2306174        0.986285689        -13.4793826
               534       0.987313006        -13.3814622        0.154171523         76.0787327        0.154527812         76.2085865        0.986182511        -13.5017059
               535       0.987248723        -13.4058327        0.154453156         76.0576117         0.15482489         76.1850284        0.986210581        -13.5301381
               536       0.987183129        -13.4302031        0.154734546         76.0364907        0.155121721         76.1614703        0.986237329        -13.5585703
               537       0.987116145        -13.4545735        0.155015679         76.0153696        0.155418292         76.1379123        0.986262676        -13.5870024
               538       0.987047687        -13.4789439         0.15529654         75.9942486         0.15571459         76.1143542        0.986286538        -13.6154346
               539       0.986977671        -13.5033144        0.155577116         75.9731275        0.156010598         76.0907961         0.98630883        -13.6438668
               540        0.98690601        -13.5276848         0.15585739         75.9520065        0.156306303          76.067238        0.986329464        -13.6722989
               541       0.986832619        -13.5520552        0.156137348         75.9308855        0.156601688         76.0436799        0.986348357        -13.7007311
               542       0.986757416        -13.5764257        0.156416976         75.9097644        0.156896739         76.0201219        0.986365424        -13.7291633
               543        0.98668032        -13.6007961        0.156696258         75.8886434        0.157191442         75.9965638        0.986380585        -13.7575955
               544       0.986601256        -13.6251665        0.156975182         75.8675223        0.157485784         75.9730057        0.986393764        -13.7860276
               545       0.986520157         -13.649537        0.157253735         75.8464013         0.15777975         75.9494476        0.986404893        -13.8144598
               546       0.986436961        -13.6739074        0.157531904         75.8252803         0.15807333         75.9258895         0.98641391         -13.842892
               547        0.98641178        -13.6976686        0.157824398         75.7980666         0.15834777         75.8998944        0.986342629        -13.8701056
               548       0.986404308        -13.7212266        0.158121413         75.7688221        0.158615578         75.8730869        0.986242958        -13.8969131
               549       0.986394515        -13.7447847         0.15841805         75.7395776        0.158883007         75.8462794        0.986140966        -13.9237206
               550       0.986382465        -13.7683428        0.158714318         75.7103331        0.159150066          75.819472        0.986036721         -13.950528
               551       0.986368234        -13.7919009        0.159010227         75.6810885        0.159416767         75.7926645        0.985930299        -13.9773355
               552       0.986351908         -13.815459         0.15930579          75.651844        0.159683121          75.765857        0.985821784         -14.004143
               553       0.986333576        -13.8390171        0.159601018         75.6225995         0.15994914         75.7390496        0.985711269        -14.0309504
               554       0.986313334        -13.8625751        0.159895925          75.593355        0.160214839         75.7122421        0.985598847        -14.0577579
               555       0.986291279        -13.8861332        0.160190525         75.5641105        0.160480232         75.6854346        0.985484618        -14.0845654
               556       0.986267508        -13.9096913        0.160484833          75.534866        0.160745334         75.6586271         0.98536868        -14.1113729
               557        0.98624212        -13.9332494        0.160778863         75.5056214        0.161010158         75.6318197        0.985251129        -14.1381803
               558       0.986215209        -13.9568075        0.161072628         75.4763769         0.16127472         75.6050122        0.985132062        -14.1649878
               559       0.986154438        -13.9832143        0.161370259         75.4471429        0.161556151            75.5775        0.985100656        -14.1921429
               560       0.986047795        -14.0132468        0.161672407         75.4179221        0.161858647         75.5490909        0.985178058        -14.2197403
               561         0.9859349        -14.0432792        0.161973579         75.3887013        0.162160165         75.5206818        0.985249242        -14.2473377
               562       0.985815299        -14.0733117        0.162273693         75.3594805        0.162460625         75.4922727        0.985313749        -14.2749351
               563       0.985688615        -14.1033442         0.16257268         75.3302597        0.162759957         75.4638636          0.9853712        -14.3025325
               564        0.98555458        -14.1333766         0.16287049          75.301039        0.163058109         75.4354545        0.985421322        -14.3301299
               565       0.985413055        -14.1634091        0.163167092         75.2718182        0.163355053         75.4070455        0.985463973        -14.3577273
               566       0.985264048        -14.1934416        0.163462481         75.2425974        0.163650782         75.3786364        0.985499156        -14.3853247
               567       0.985107711         -14.223474        0.163756674         75.2133766        0.163945314         75.3502273        0.985527018        -14.4129221
               568       0.984944325        -14.2535065        0.164049711         75.1841558        0.164238689         75.3218182        0.985547839        -14.4405195
               569       0.984774278         -14.283539         0.16434165         75.1549351        0.164530964         75.2934091           0.985562        -14.4681169
               570       0.984598032        -14.3135714        0.164632562         75.1257143        0.164822211             75.265        0.985569961        -14.4957143
               571       0.984440585         -14.342827        0.164923722         75.0976604        0.165111814         75.2369781        0.985563562         -14.522827
               572       0.984459624        -14.3663851        0.165223148         75.0781641        0.165395813         75.2117953        0.985490498        -14.5463851
               573       0.984477215        -14.3899431        0.165522341         75.0586677        0.165679579         75.1866125        0.985415982        -14.5699431
               574        0.98449329        -14.4135012         0.16582129         75.0391714          0.1659631         75.1614297        0.985339944        -14.5935012
               575       0.984507779        -14.4370593        0.166119981         75.0196751        0.166246362          75.136247        0.985262316        -14.6170593
               576       0.984520618        -14.4606174        0.166418402         75.0001787        0.166529353         75.1110642        0.985183034        -14.6406174
               577       0.984531741        -14.4841755         0.16671654         74.9806824         0.16681206         75.0858814        0.985102034        -14.6641755
               578       0.984541091        -14.5077335        0.167014383          74.961186        0.167094473         75.0606986        0.985019257        -14.6877335
               579       0.984548611        -14.5312916        0.167311922         74.9416897        0.167376581         75.0355158        0.984934648        -14.7112916
               580       0.984554254        -14.5548497        0.167609145         74.9221933        0.167658373         75.0103331        0.984848159        -14.7348497
               581       0.984557976        -14.5784078        0.167906044          74.902697         0.16793984         74.9851503        0.984759749        -14.7584078
               582       0.984559745        -14.6019659        0.168202612         74.8832006        0.168220976         74.9599675        0.984669385        -14.7819659
               583       0.984559536         -14.625524        0.168498843         74.8637043        0.168501775         74.9347847        0.984577041         -14.805524
               584       0.984522055        -14.6510561        0.168780697         74.8382859        0.168780697         74.9096019        0.984522055        -14.8330301
               585       0.984476044        -14.6770512         0.16905924         74.8114785         0.16905924         74.8844192        0.984476044        -14.8614622
               586       0.984429961        -14.7030463        0.169337797          74.784671        0.169337797         74.8592364        0.984429961        -14.8898944
               587       0.984383806        -14.7290414        0.169616368         74.7578635        0.169616368         74.8340536        0.984383806        -14.9183266
               588        0.98433758        -14.7550366        0.169894954         74.7310561        0.169894954         74.8088708         0.98433758        -14.9467587
               589       0.984291282        -14.7810317        0.170173554         74.7042486        0.170173554         74.7836881        0.984291282        -14.9751909
               590       0.984244912        -14.8070268        0.170452169         74.6774411        0.170452169         74.7585053        0.984244912        -15.0036231
               591        0.98419847        -14.8330219        0.170730797         74.6506336        0.170730797         74.7333225         0.98419847        -15.0320552
               592       0.984151957        -14.8590171         0.17100944         74.6238262         0.17100944         74.7081397        0.984151957        -15.0604874
               593       0.984105371        -14.8850122        0.171288097         74.5970187        0.171288097         74.6829569        0.984105371        -15.0889196
               594       0.984058714        -14.9110073        0.171566767         74.5702112        0.171566767         74.6577742        0.984058714        -15.1173517
               595       0.984011984        -14.9370024        0.171845452         74.5434037        0.171845452         74.6325914        0.984011984        -15.1457839
               596       0.983965139        -14.9625914        0.172126971         74.5190333        0.172135186          74.608221        0.983965139        -15.1721852
               597       0.983918139        -14.9877742        0.172411277         74.4970999        0.172435922         74.5846629        0.983918139        -15.1965556
               598       0.983871016        -15.0129569        0.172695533         74.4751665        0.172736606         74.5611048        0.983871016        -15.2209261
               599       0.983823769        -15.0381397        0.172979739         74.4532331        0.173037239         74.5375467        0.983823769        -15.2452965
               600       0.983776397        -15.0633225        0.173263896         74.4312998         0.17333782         74.5139886        0.983776397        -15.2696669
               601         0.9837289        -15.0885053        0.173548002         74.4093664        0.173638349         74.4904305          0.9837289        -15.2940374
               602       0.983681277        -15.1136881        0.173832057          74.387433        0.173938826         74.4668725        0.983681277        -15.3184078
               603       0.983633528        -15.1388708        0.174116062         74.3654996        0.174239251         74.4433144        0.983633528        -15.3427782
               604        0.98358565        -15.1640536        0.174400016         74.3435662        0.174539624         74.4197563         0.98358565        -15.3671487
               605       0.983537645        -15.1892364        0.174683919         74.3216328        0.174839943         74.3961982        0.983537645        -15.3915191
               606       0.983489511        -15.2144192         0.17496777         74.2996994         0.17514021         74.3726401        0.983489511        -15.4158895
               607       0.983441247        -15.2396019         0.17525157          74.277766        0.175440423          74.349082        0.983441247          -15.44026
               608       0.983400024         -15.264164        0.175534475         74.2552192        0.175739862         74.3250649        0.983382594        -15.4652435
               609       0.983388058        -15.2860795        0.175813569         74.2300568        0.176036011         74.2990909        0.983278877        -15.4928409
               610       0.983373999        -15.3079951        0.176092334         74.2048945        0.176331834         74.2731169        0.983173054        -15.5204383
               611       0.983357895        -15.3299107        0.176370776         74.1797321        0.176627337         74.2471429        0.983065172        -15.5480357
               612         0.9833398        -15.3518263        0.176648905         74.1545698        0.176922528         74.2211688        0.982955286        -15.5756331
