!{251R15S1R5}
!Johanson Technology Inc.
!www.johansontechnology.com
!Test Board Conditions:
!Substrate Type  RO4350B
!Substrate Thickness        20 mil
!Substrate Dk      3.66
!TL Type: GCPW 
!TL Trace Width  34 mil
!TL Gap  10 mil
!Electrode orientation      Horizontal
!DUT TOPOLOGY	SERIES
!Mounting Pad LxW         26x52 mil
! Created Thu Mar 12 16:35:40 2020
# mhz S ma R 50
! 2 Port Network Data from SP1.SP block
! freq  magS11  angS11  magS21  angS21  magS12  angS12  magS22  angS22  
!     
               500       0.917170336            -29.999        0.393640704             59.557        0.394684435             59.622        0.914850227            -30.121
               501        0.91622049            -30.051        0.394139535             59.498        0.395048121             59.581        0.914534303            -30.147
               502       0.915904093            -30.075        0.394729878             59.441        0.395594277             59.562        0.914008006            -30.253
               503       0.916590861             -30.15        0.395571981             59.332        0.396620833             59.495        0.914377483            -30.335
               504       0.915693223            -30.217        0.396278034             59.323        0.397420257             59.406        0.914534303            -30.337
               505       0.915587806            -30.239        0.397145824             59.245        0.397923878             59.384        0.913902783            -30.402
               506       0.914744907            -30.314         0.39769488             59.198        0.398428136             59.347        0.913902783            -30.441
               507       0.915060903            -30.406        0.398519888             59.128        0.399208702             59.276        0.913797572            -30.522
               508        0.91491904            -30.401        0.399008976             59.124        0.400113003             59.233        0.913130114            -30.546
               509       0.913061435             -30.47        0.399484561             59.061        0.400221117             59.169        0.913166561            -30.613
               510       0.913482012            -30.505         0.40008291             59.018        0.401051366             59.152        0.912325891            -30.653
               511       0.913973962            -30.582         0.40099026             58.946        0.402007193             59.054        0.912501997            -30.723
               512       0.913903354             -30.65        0.401744807             58.894        0.402670924             58.995        0.912011409            -30.799
               513       0.912535986            -30.705        0.402485278             58.813        0.403227367             58.927        0.912115845            -30.864
               514       0.912535986            -30.756        0.403088121             58.791        0.403598924             58.876        0.911905846            -30.904
               515       0.912535986            -30.813        0.403970824             58.716        0.404622473             58.833        0.911381062            -30.962
               516       0.912010839            -30.837        0.404249973             58.691        0.404855459             58.783        0.910646872            -30.971
               517       0.912115845            -30.925        0.405041945             58.614        0.405742032             58.702        0.910542036            -31.098
               518        0.91159094            -30.946        0.405695322             58.603        0.406583734             58.726          0.9103324            -31.105
               519       0.911066337            -31.039        0.406162665             58.509        0.407427182             58.612        0.910646872             -31.15
               520       0.910646872            -31.121        0.406958384             58.454        0.407802609             58.543          0.9103324            -31.241
               521       0.910952846            -31.123        0.407564076              58.39        0.408691775             58.536        0.909485746            -31.246
               522       0.910662535            -31.154        0.408514494             58.315        0.409173473             58.446        0.909091234            -31.366
               523       0.910018036            -31.263        0.409025138             58.316        0.410015241              58.42        0.909284944            -31.382
               524       0.909913273            -31.333         0.40973211             58.205         0.41067664             58.301        0.908657049             -31.45
               525       0.909599054            -31.329        0.410534822             58.201        0.411149721             58.299        0.908134134             -31.51
               526       0.909494339             -31.48        0.411102388             58.108        0.412002641             58.185        0.907716019            -31.581
               527       0.909389635            -31.533        0.411765542             58.072        0.412619739             58.173        0.907716019            -31.599
               528       0.908902358            -31.542        0.412161318             58.002        0.413254156             58.096        0.907543039            -31.676
               529       0.908238693             -31.57        0.412999951             57.941        0.413713793             58.068        0.906671574            -31.774
               530       0.908016792            -31.644        0.413803234             57.929        0.414661658             58.038        0.907598731            -31.751
               531       0.907716019            -31.701        0.414381158             57.849        0.415097387             57.943        0.906671574            -31.852
               532       0.908029588            -31.716        0.415097387             57.878        0.415575561             57.933        0.906254133            -31.873
               533       0.907298097            -31.808        0.415384226             57.735        0.416485609             57.873        0.905836883            -31.911
               534       0.907302916            -31.887        0.416296066             57.703        0.417255727             57.805        0.905737412            -31.979
               535       0.906775965            -31.901         0.41701339              57.63        0.417686078             57.759        0.905315592            -32.071
               536       0.906254133            -31.961        0.417830367             57.563        0.418359851             57.706        0.905628331            -32.124
               537       0.906358475            -31.949        0.418456193             57.554        0.419131209             57.694          0.9047946             -32.18
               538       0.905986994            -32.089        0.418862966             57.473        0.419973573             57.593         0.90442376            -32.199
               539       0.905775688            -32.106        0.419923964             57.479        0.420407698             57.534        0.904108723            -32.249
               540        0.90569043            -32.193        0.420174584             57.365        0.420900827             57.468        0.903295359            -32.315
               541       0.904882805            -32.198        0.421252349             57.286        0.421689062             57.419        0.903737568            -32.433
               542         0.9047946             -32.27         0.42155088             57.252        0.422036488             57.371        0.903233424            -32.477
               543       0.904609577            -32.318        0.422338994             57.191        0.422776833             57.346        0.902840809            -32.491
               544       0.903857571            -32.397        0.422522655             57.143        0.423594195             57.275        0.902194136            -32.569
               545       0.903485363             -32.46        0.423517267             57.042        0.424395843             57.204        0.902965425            -32.647
               546       0.903621033            -32.458        0.423971175             57.081        0.425242175             57.174        0.902165741            -32.681
               547       0.903495285            -32.517        0.424644878             57.021        0.425770816             57.138         0.90131353            -32.697
               548       0.902861772            -32.591        0.425374317              56.95        0.426600407             57.068        0.901615284            -32.773
               549       0.903001297            -32.696        0.425979181             56.897        0.426961164             56.961        0.900509656            -32.824
               550       0.902694672            -32.704        0.426963627             56.824        0.427701604             56.942        0.900100243            -32.927
               551       0.901674941            -32.773        0.427366031             56.827        0.428006141             56.884        0.900533763            -32.914
               552       0.902089465            -32.852        0.428202906             56.692          0.4287949             56.848        0.899807504            -33.008
               553       0.901571138            -32.866         0.42894341             56.686        0.429437534             56.793        0.900015523            -33.062
               554       0.901549874             -32.97        0.429229693             56.579        0.430120119             56.728        0.899269279            -33.139
               555       0.900430091            -32.999        0.430080746             56.533        0.430774513             56.667        0.899911911            -33.167
               556       0.900678163            -33.049        0.430694805             56.523        0.431389563             56.582        0.899124089             -33.25
               557       0.900512889            -33.131        0.431360062             56.429        0.432254908             56.563        0.898338336            -33.298
               558       0.900080496            -33.156        0.431947884             56.411        0.432943627               56.5        0.898217167            -33.344
               559       0.899741175            -33.211        0.432531355             56.376        0.433478534             56.404        0.897878548            -33.398
               560       0.898876445              -33.3        0.432713057             56.256        0.433910341             56.382        0.897118887            -33.443
               561       0.899248947            -33.357        0.433790401             56.225        0.434790391             56.353         0.89749066            -33.504
               562       0.898566038              -33.4        0.434210179             56.152        0.435411605             56.305        0.896809087            -33.538
               563       0.898255738            -33.431        0.435110937             56.124        0.435812819              56.24        0.896809087            -33.585
               564        0.89804846            -33.502        0.436063537              56.04        0.436716673             56.201        0.896911872             -33.69
               565       0.898307858            -33.556        0.436340172             56.033        0.437245349             56.158        0.895622919            -33.711
               566       0.897682054             -33.62        0.437142008             55.931         0.43774636             56.078        0.895617443            -33.767
               567       0.896499393            -33.651        0.437471736             55.882        0.438227876             56.025        0.895364766            -33.831
               568       0.896602613            -33.713        0.438227876             55.848        0.439035866             55.956        0.895467854            -33.928
               569       0.896189807            -33.783        0.438833729             55.819        0.439794709             55.893        0.894746483            -33.923
               570       0.895969879            -33.811        0.439737405             55.729        0.440497461             55.859        0.895041989            -33.991
               571       0.895897187             -33.88        0.440613879             55.661        0.440766088             55.788        0.894557319            -34.069
               572       0.894334532            -33.924        0.440707052             55.645        0.441316332             55.735        0.894540484            -34.082
               573       0.894334532            -33.949        0.441062363             55.613        0.442079117             55.693        0.893614074            -34.176
               574       0.894643477            -34.038        0.442028224             55.492         0.44284322             55.632        0.893305484            -34.246
               575       0.893614074            -34.068         0.44253742             55.516        0.443149231              55.59        0.892585855            -34.236
               576       0.894231574            -34.161        0.443506511             55.396        0.444119661             55.487        0.892791404            -34.345
               577       0.893716961            -34.188        0.444017411              55.39        0.444733659             55.463        0.892380353            -34.372
               578       0.893511199            -34.254        0.444631267             55.335        0.445040977             55.397        0.891353553            -34.462
               579       0.893527926            -34.315        0.445510691              55.24        0.446023899             55.359        0.891780825              -34.5
               580       0.892894196            -34.333         0.44611826             55.188        0.446426534              55.32         0.89145618            -34.576
               581       0.892380353            -34.438         0.44652934             55.091        0.447352635             55.277        0.890840596            -34.604
               582       0.891969491            -34.451        0.447198152             55.117        0.447764852             55.195        0.890943164             -34.66
               583       0.891764131            -34.515        0.447816406             55.069        0.448487146             55.134         0.89073804            -34.716
               584       0.891148335            -34.527        0.448538783             55.034        0.448848729             55.104        0.890430444            -34.751
               585       0.891353553            -34.635        0.448797057             54.928        0.449779855              55.01        0.889713131            -34.863
               586       0.890840596            -34.657        0.449521015             54.914        0.450349827              54.95        0.889610704            -34.895
               587        0.88950829            -34.728        0.450090659             54.849        0.450609144             54.894         0.88879172            -34.948
               588       0.889815568             -34.77        0.450609144             54.772        0.451439961             54.889         0.88879172            -34.983
               589        0.89002048             -34.81        0.451647905             54.698        0.452012037             54.835        0.888587092            -35.085
               590       0.889918018            -34.909        0.452220244             54.649        0.452689061             54.809         0.88838251            -35.083
               591       0.889303497            -34.946        0.452636946             54.652        0.453054032             54.709        0.887564657             -35.13
               592       0.888894052            -34.968        0.453523713             54.605        0.453471503             54.672         0.88695176            -35.188
               593        0.88838251            -35.029        0.454255297             54.506        0.454307598             54.622        0.887564657            -35.278
               594       0.888177976            -35.062        0.454726223             54.522        0.455040446               54.6        0.887564657            -35.272
               595       0.887973489             -35.18        0.455145235             54.399        0.455617084             54.503         0.88695176            -35.376
               596       0.887156012            -35.201        0.455407313             54.394        0.456194453             54.495        0.885931207            -35.364
               597        0.88705388             -35.26        0.456825144             54.339        0.456825144             54.398         0.88695176            -35.441
               598       0.886747556             -35.29        0.456825144             54.247        0.457298735             54.335        0.885421371            -35.531
               599       0.886747556            -35.346        0.457614735             54.194        0.458036408             54.299        0.885421371            -35.574
               600       0.885829216            -35.411        0.458458469             54.167         0.45840569             54.242         0.88511561            -35.613
               601       0.885727237            -35.497         0.45888092             54.055        0.458933753             54.207        0.884402578            -35.692
               602        0.88562527            -35.538        0.459674064             54.054        0.459832857             54.173        0.884809955            -35.694
               603       0.885829216            -35.555        0.460256574             54.006        0.460627646             54.137        0.884402578             -35.78
               604       0.884504405            -35.606        0.460733722             54.005        0.460999018             54.025        0.884198961            -35.809
               605       0.884402578            -35.657        0.461583207             53.889        0.461636352             53.961        0.884198961            -35.923
               606       0.884402578            -35.711        0.461742659             53.835         0.46254075             53.979        0.883690121            -35.933
               607       0.884198961            -35.758        0.462434258             53.815        0.462966962             53.851        0.882673321            -35.993
               608       0.883588388            -35.825        0.463393567             53.708        0.463393567             53.863        0.882571705            -36.053
               609       0.883791866            -35.866        0.463820564             53.715        0.464354865              53.79        0.882368509            -36.059
               610         0.8830799            -35.875        0.464515275             53.686        0.464729242             53.766        0.881962257            -36.148
               611       0.882571705            -35.933        0.465318158             53.621        0.465425314             53.673        0.882063802            -36.223
               612       0.882063802            -36.031        0.465532494             53.549        0.466068767             53.582        0.881353229             -36.29
