!{251R14S910}
!Johanson Technology Inc.
!www.johansontechnology.com
!Test Board Conditions:
!Substrate Type  RO4350B
!Substrate Thickness        20 mil
!Substrate Dk      3.66
!TL Type: GCPW 
!TL Trace Width  36 mil
!TL Gap  12 mil
!Electrode orientation      Horizontal
!DUT TOPOLOGY	SERIES
!Mounting Pad LxW         26x36 mil
! Created Wed Mar 11 15:53:39 2020
# mhz S ma R 50
! 2 Port Network Data from SP1.SP block
! freq  magS11  angS11  magS21  angS21  magS12  angS12  magS22  angS22  
!     
               500     0.00156458802             67.207        0.998619403             -4.036        0.998159627             -4.007      0.00146571658             75.411
               501     0.00148081226             76.464        0.999172678             -4.005        0.999122525             -4.015      0.00187585817             87.404
               502     0.00177356304             74.046        0.999099819             -4.075        0.999917756             -4.096      0.00213155543             86.099
               503     0.00173780083              76.29         0.99873438             -4.047        0.999216622             -4.062      0.00210208368              75.63
               504     0.00189605094             79.096        0.998159627             -4.107        0.999463872             -4.038      0.00249029043             81.173
               505     0.00229509148             75.869         0.99884937             -4.133        0.999405994             -4.096      0.00246065088             79.994
               506     0.00233050479             78.486        0.999457888             -4.137         0.99914392             -4.122      0.00275454581             80.571
               507     0.00242437613              78.64        0.999260338             -4.128        0.999679762             -4.156      0.00261908745             79.921
               508     0.00271206441             76.304         0.99969622             -4.136         0.99884937             -4.158      0.00276216743             84.221
               509     0.00296244298             75.305        0.999169457             -4.132        0.998997727             -4.153      0.00297783068              81.39
               510     0.00297269259             79.059        0.998619403             -4.137         0.99922548             -4.211      0.00330369541             81.149
               511     0.00310455959             78.106         0.99889859             -4.153         0.99873438             -4.195      0.00328397619             83.009
               512     0.00312068548             79.268        0.999638214             -4.193        0.999362732             -4.236      0.00340839563              83.19
               513     0.00322069797             75.851        0.998159627             -4.227        0.998933551             -4.259      0.00352736174              78.86
               514     0.00334348978             82.188         0.99885489             -4.221        0.999531188             -4.241      0.00373293132             82.084
               515     0.00350708762             80.529        0.999774949             -4.252        0.999464713             -4.263      0.00385297877             81.872
               516     0.00388866024             77.191        0.998504439             -4.321         0.99873438             -4.332      0.00407943483             81.409
               517     0.00416102189             82.595         0.99888272             -4.283         0.99888985             -4.354      0.00405882195             80.666
               518     0.00412714759             81.698        0.998939071             -4.306         0.99873438             -4.344      0.00431767551             83.194
               519      0.0041414269             82.818        0.999191659              -4.33         0.99873438             -4.336       0.0046419451             84.274
               520     0.00466444525             83.128        0.998619403             -4.323        0.999160485             -4.343      0.00465532494             82.093
               521     0.00430229316             81.657        0.998389489             -4.387        0.999127701             -4.366      0.00460468578             82.837
               522      0.0047217175             80.653        0.999233993             -4.417         0.99919442             -4.336      0.00474569693             86.052
               523     0.00485567935             81.293        0.998389489             -4.382        0.999010148             -4.403      0.00511387373             81.605
               524     0.00507107461             79.428        0.998619403             -4.443        0.999191084             -4.437      0.00545255431             83.639
               525     0.00521074715              82.87        0.998504439             -4.407        0.999513467             -4.424      0.00529480536             82.729
               526     0.00527472716              81.58        0.999139319             -4.454        0.998504439             -4.462       0.0055252254             82.927
               527     0.00550363977             81.085        0.999674928             -4.475        0.999173598             -4.513      0.00548150734              86.24
               528     0.00540443129              83.69         0.99884937             -4.445        0.999687128             -4.487      0.00575572453             84.325
               529     0.00588030699             82.212        0.998619403             -4.521        0.999314525             -4.499      0.00593403359             83.148
               530     0.00560226933             82.288        0.999010915             -4.539        0.999842708             -4.498      0.00620031828             84.531
               531     0.00603045387             83.531        0.999404614             -4.527        0.999150592              -4.55      0.00622586931             85.137
               532     0.00598204947             82.714        0.998619403             -4.536        0.998389489             -4.596      0.00652529274             82.876
               533      0.0063664891             82.341        0.998504439               -4.6        0.998504439             -4.576      0.00647291643             85.536
               534     0.00640693031             83.306         0.99884937             -4.608        0.999883496             -4.597      0.00678109767              85.26
               535     0.00649531174             81.331        0.998389489             -4.576        0.998972079             -4.585      0.00665196568             84.943
               536     0.00663513861             80.672         0.99873438             -4.594        0.998619403             -4.617      0.00680612624             82.674
               537     0.00710640574             81.731        0.999693113             -4.653        0.998504439             -4.607      0.00687305786              83.36
               538     0.00722936247             80.912        0.999090317             -4.662        0.998619403             -4.638      0.00722686596             83.191
               539     0.00698875796             81.715         0.99873438             -4.665        0.999233188             -4.672      0.00743190244             84.154
               540     0.00707945784             82.917        0.999500119             -4.666        0.999495746             -4.706      0.00763308327             84.895
               541     0.00750585206             83.153        0.999401392              -4.71        0.999226976             -4.657       0.0075596206             84.029
               542     0.00749290109             81.722        0.999437407             -4.696        0.998619403             -4.698      0.00768245456             84.097
               543     0.00785868715             83.342        0.998504439             -4.707        0.998953907             -4.696      0.00774640145             84.736
               544     0.00768245456             82.743        0.999638905             -4.736         0.99873438             -4.749      0.00822147991             83.928
               545     0.00810587682             82.353        0.999513007             -4.775        0.998504439             -4.714      0.00821485685             85.264
               546     0.00808537189             81.269         0.99910159             -4.775        0.998274551             -4.787      0.00840910935             84.876
               547     0.00828323533             83.143        0.999414739             -4.792        0.998899625             -4.792      0.00859112425             83.923
               548     0.00837722153             80.826        0.999445231             -4.863        0.998389489              -4.83       0.0086976114             85.583
               549      0.0086976114             83.696        0.999138284             -4.802         0.99916267             -4.845      0.00895364766              84.47
               550     0.00860399204              81.94        0.998504439             -4.822        0.999023375             -4.833      0.00904690438             83.145
               551     0.00880136435              81.73         0.99873438             -4.844        0.999076629             -4.881      0.00927683858             84.011
               552     0.00893305484             84.024        0.998877545             -4.885        0.998389489             -4.933      0.00936914586             83.335
               553     0.00918226876               82.3        0.999075824             -4.927        0.999347085             -4.878      0.00949183106             84.695
               554     0.00923208937             83.102         0.99873438             -4.903        0.999287029             -4.943      0.00967052384             84.046
               555     0.00946019307             83.402        0.999855523             -4.943        0.999185217             -4.912      0.00956202776             84.796
               556     0.00941998042             82.838         0.99873438              -4.95        0.998504439             -4.914      0.00973419406             83.606
               557     0.00944495733             83.733        0.998504439             -4.931         0.99873438             -4.929      0.00990375755             84.769
               558     0.00987188301             82.457        0.999028781             -4.979        0.999061562             -4.956      0.00987529323             85.028
               559      0.0100311333             83.761        0.999482743             -4.997         0.99886846             -4.954       0.0100646807             84.745
               560      0.0101727434             83.215        0.999833517                 -5        0.999283212             -5.051       0.0102574189             83.694
               561      0.0101216193             83.403        0.998389489             -5.056        0.999240436             -4.986       0.0105293121             83.771
               562      0.0101543002             83.678        0.998274551             -5.026         0.99938839             -4.999       0.0105791311             82.662
               563      0.0102482568              81.62        0.999237444             -5.017        0.999535331             -5.002       0.0104616455              84.83
               564       0.010426775                 83        0.999054545             -5.063        0.999307967             -5.031       0.0108880473             84.379
               565      0.0105329495              81.41        0.998895715             -5.083        0.998619403             -5.092       0.0108205665              83.99
               566      0.0108842874             83.104        0.999068233              -5.08        0.998963568             -5.102       0.0113083697             84.786
               567      0.0107497905             84.127        0.998619403             -5.081        0.998619403             -5.113        0.010967307             84.328
               568      0.0110840889             81.466         0.99884937             -5.112        0.998389489             -5.086       0.0112641908             83.447
               569      0.0112305235              83.62         0.99919557             -5.182        0.999519106             -5.152       0.0116882637              84.05
               570      0.0113057662             82.825        0.999164856             -5.165        0.999285418             -5.143       0.0116533288             84.616
               571      0.0115385172             83.934        0.999258152             -5.111         0.99873438             -5.187       0.0115093289             83.458
               572      0.0114524921             82.858        0.999376424             -5.213        0.998994161             -5.176       0.0118304156             84.293
               573      0.0118467712             82.559        0.998619403             -5.202        0.998044717             -5.222       0.0120046638             83.071
               574      0.0119330099             82.878        0.999236869             -5.229        0.998619403             -5.215       0.0121199269             83.315
               575      0.0119922314               83.1         0.99898496             -5.198        0.999182226             -5.218        0.012268741              83.22
               576      0.0121955109             82.073        0.999008768             -5.241        0.999466748             -5.243       0.0123495178             84.493
               577      0.0121786738             82.293        0.998504439             -5.271         0.99873438             -5.308       0.0125617458             82.967
               578       0.012229255             81.919         0.99884937             -5.336        0.998389489             -5.292        0.012708667             84.249
               579      0.0123694389             82.863        0.999036257             -5.317        0.999700939             -5.262       0.0127247717             84.153
               580       0.012727702             83.698        0.998619403             -5.319        0.998619403             -5.323       0.0130361695             84.668
               581      0.0129702994             83.035        0.999128736             -5.363        0.999173023             -5.291       0.0129912219             83.067
               582      0.0129598507             82.983        0.999033957             -5.292        0.999786918             -5.342       0.0131053915             84.612
               583      0.0131613367             83.974        0.999002902             -5.386         0.99873438             -5.375       0.0134849705             84.127
               584      0.0129166532             83.148        0.998619403             -5.308         0.99873438              -5.39       0.0132907656             83.373
               585      0.0133998519             82.661        0.998389489             -5.381        0.999215702             -5.411       0.0136505453             83.825
               586       0.013491182             84.352         0.99884937             -5.439        0.998948962             -5.413       0.0137705092             83.762
               587      0.0136898913             82.348        0.999002327             -5.384         0.99884937             -5.443       0.0139460109             83.489
               588      0.0138086111              83.19        0.998389489             -5.444        0.998504439             -5.434       0.0139363807             83.435
               589      0.0135893912             82.382         0.99884937             -5.456        0.998926536             -5.464       0.0141221233             83.497
               590      0.0137625845             84.021        0.999307622              -5.44         0.99884937             -5.443       0.0141563079             83.432
               591      0.0140136091             83.383        0.998274551             -5.484        0.999024065             -5.446       0.0140831563              83.68
               592      0.0142429516              82.93        0.999147371             -5.525         0.99873438             -5.507       0.0143449817              84.24
               593      0.0141807761             83.246        0.998389489             -5.531        0.999081115              -5.49       0.0143334257             83.841
               594      0.0143367265             83.081        0.998504439             -5.543        0.998619403             -5.552       0.0148268878             82.824
               595      0.0145127596             82.966        0.999649608             -5.564        0.998389489              -5.56       0.0149176358             83.544
               596      0.0145814261              83.38         0.99954914             -5.566        0.998619403             -5.523        0.015002029             83.722
               597      0.0150348812             83.326         0.99925332             -5.563        0.998969204             -5.598       0.0152089769             82.629
               598      0.0150175816             84.041        0.999469165             -5.567        0.998940797              -5.62       0.0151478153             83.872
               599       0.014866201             82.564        0.998504439             -5.611        0.999181191             -5.602       0.0153744646             82.935
               600      0.0153161637             82.861         0.99873438             -5.592        0.998274551             -5.659       0.0153214546              83.39
               601      0.0153815464             82.973         0.99884937             -5.657        0.999384938             -5.656       0.0155345973             83.273
               602      0.0152457923             82.555        0.998389489             -5.648         0.99873438             -5.702       0.0157543322             82.842
               603      0.0154543235              82.22        0.998389489             -5.696         0.99873438             -5.666        0.016062014             83.232
               604      0.0158927847              84.27        0.999209145             -5.724         0.99962659             -5.673       0.0157652187             84.163
               605      0.0158799818             83.184        0.999165661             -5.751         0.99873438             -5.707       0.0161101654             83.049
               606      0.0159992638              83.23        0.997814935             -5.713        0.999059261             -5.688       0.0161640431             83.133
               607      0.0159734968             82.635        0.999377345             -5.763         0.99884937             -5.755       0.0161901175              82.89
               608      0.0163060962              83.47         0.99873438             -5.717        0.998389489             -5.757       0.0164721391             82.377
               609      0.0163794758             82.149         0.99873438              -5.77         0.99898634             -5.785       0.0168674721              83.44
               610      0.0165367439             82.967        0.999057881             -5.782        0.998389489              -5.78       0.0168015752             83.234
               611      0.0165677015             83.183        0.998809839             -5.804        0.999765743             -5.784        0.016957517             83.565
               612       0.016853884             83.124        0.998274551              -5.83         0.99873438             -5.831       0.0171159102             82.983
