!{251R15S910}
!Johanson Technology Inc.
!www.johansontechnology.com
!Test Board Conditions:
!Substrate Type  RO4350B
!Substrate Thickness        20 mil
!Substrate Dk      3.66
!TL Type: GCPW 
!TL Trace Width  34 mil
!TL Gap  10 mil
!Electrode orientation      Horizontal
!DUT TOPOLOGY	SERIES
!Mounting Pad LxW         26x52 mil
! Created Thu Mar 12 17:16:57 2020
# mhz S ma R 50
! 2 Port Network Data from SP1.SP block
! freq  magS11  angS11  magS21  angS21  magS12  angS12  magS22  angS22  
!     
               500      0.0345468062            -96.426        0.998697019             -5.199        0.998584806             -5.168       0.0337254617            -96.141
               501       0.034513413             -96.56        0.998728536             -5.196        0.998350084              -5.23       0.0332650292             -95.89
               502      0.0344640336            -96.612        0.998311572              -5.19        0.998733242             -5.182       0.0334939298            -96.213
               503      0.0342697968            -96.498        0.998821149              -5.21        0.998415994              -5.23       0.0333857802            -96.129
               504      0.0343831275            -96.617        0.998536922              -5.23        0.998526576             -5.256       0.0331890925            -96.137
               505        0.03410469            -96.638        0.998421917             -5.308        0.998814885             -5.293       0.0329582471            -95.842
               506      0.0339899089            -96.333        0.997929819             -5.273        0.998274551             -5.302       0.0329685616            -95.945
               507       0.033979092             -96.65        0.998301604             -5.338        0.998828714             -5.327        0.032908779            -96.206
               508      0.0339184572            -96.578        0.998858777             -5.341        0.998593167             -5.295       0.0330435037            -95.928
               509      0.0336539965            -96.799        0.999041076             -5.347        0.998243854             -5.336       0.0329144532            -95.916
               510      0.0337358359            -96.317        0.998025127             -5.367        0.999150535             -5.332       0.0328466797            -95.995
               511      0.0334932833            -96.767        0.997947566             -5.397        0.998991684             -5.421       0.0325654979            -96.455
               512      0.0336627317            -96.926        0.998307435             -5.373        0.998682307              -5.44        0.032707651            -96.663
               513      0.0334214563            -96.617        0.997413793             -5.418        0.999075985             -5.454       0.0323687084            -96.726
               514       0.033675288            -96.694        0.998332751             -5.421         0.99866463             -5.436       0.0325657676            -96.777
               515      0.0333579997            -97.117        0.997814935             -5.464         0.99873438             -5.432       0.0323519155            -96.198
               516      0.0333632138             -96.73        0.998756179             -5.459        0.998545546             -5.471       0.0322008903            -96.141
               517      0.0333329041            -96.964         0.99897726             -5.521        0.997868131             -5.449       0.0323499156            -96.537
               518      0.0330858203             -97.14        0.998598033             -5.503         0.99867081             -5.578       0.0322063795            -96.416
               519      0.0328851631            -96.962        0.998389489             -5.561        0.999008193             -5.526       0.0320184276            -95.977
               520      0.0328189556            -97.214        0.998839611             -5.553        0.998331459             -5.521       0.0319355762             -96.44
               521      0.0329192551            -96.843        0.998274551             -5.564         0.99873438             -5.536       0.0319631814            -96.464
               522      0.0327959786            -97.282        0.998721143             -5.557        0.998092045             -5.619       0.0316024384            -96.869
               523      0.0327777029            -97.218         0.99902856             -5.624        0.997650706             -5.605        0.031858734            -96.774
               524      0.0326738863            -97.054        0.998834176             -5.613        0.998400394             -5.605       0.0318420334            -96.731
               525      0.0324526376             -97.23        0.998619403             -5.645        0.998504439              -5.69       0.0314521255            -96.717
               526       0.032674848            -97.205        0.998190829             -5.724        0.998777213             -5.686       0.0313627095            -96.706
               527      0.0323048295            -97.245        0.998617686             -5.682        0.998647234             -5.706       0.0313413323            -96.709
               528      0.0323060207             -97.63        0.997891831             -5.732        0.998728441             -5.691       0.0312308258            -97.289
               529      0.0322048302            -97.603        0.998852047             -5.741         0.99803797             -5.725       0.0312983191             -96.95
               530      0.0322825625            -97.513        0.998695287             -5.741        0.998315928             -5.731       0.0313558083            -97.024
               531      0.0318677958            -97.906        0.998741109              -5.76        0.998394147             -5.767       0.0310886617            -96.655
               532      0.0321123578            -97.334        0.998847632             -5.787        0.998325569             -5.751       0.0312156365            -96.915
               533      0.0319474549              -97.7        0.998893107             -5.758        0.998242983             -5.798       0.0309839131            -96.528
               534      0.0320091189            -97.363        0.998099228             -5.778         0.99889254              -5.82       0.0309794512            -97.035
               535      0.0318427521            -97.419        0.998298908             -5.798        0.998883055             -5.852       0.0308077936            -96.788
               536      0.0318823701             -97.88        0.998816249             -5.865        0.998161004             -5.851       0.0308532273            -96.816
               537        0.03168778            -98.012         0.99791101             -5.886        0.998798805             -5.902       0.0305275404            -97.098
               538       0.031711024            -98.115        0.998452516             -5.905        0.998366077             -5.883        0.030659161            -97.236
               539      0.0316326264            -98.132        0.998518353             -5.902        0.998240652             -5.912        0.030579843            -97.356
               540      0.0314777882            -97.696        0.998611835             -5.928        0.998471352             -5.918       0.0303881463            -97.153
               541      0.0314083092            -98.089        0.998262042             -5.967        0.998562168             -5.926        0.030335039            -97.371
               542      0.0309687092            -97.854        0.999051448             -5.963        0.997868018             -5.972       0.0301767944            -97.085
               543      0.0312679926            -97.878        0.998159627             -5.933        0.998389489             -5.969        0.030185613            -97.397
               544      0.0314386795            -97.824        0.998550414             -5.988        0.998473277             -6.004       0.0299408618            -96.729
               545      0.0312756695            -98.067        0.998625073             -6.008        0.998404698             -6.051       0.0299093253             -96.78
               546      0.0310895528            -97.736        0.998323802             -6.039        0.998761001             -6.008       0.0298307708             -97.08
               547      0.0307922712            -98.202        0.998684417             -6.069        0.998675449             -6.058        0.030029059            -96.816
               548       0.031010761            -98.129         0.99870592             -6.047        0.998459892              -6.13        0.029913169            -96.939
               549      0.0308415092            -97.874        0.998586341             -6.072          0.9988163             -6.086       0.0298562749            -96.803
               550      0.0308725814            -97.647        0.998689985             -6.119        0.998529832             -6.125       0.0297627423              -97.4
               551      0.0307098746            -98.448        0.998777713             -6.144        0.998165702             -6.122        0.029663886            -97.175
               552      0.0309036884            -98.137        0.998758102              -6.16        0.998413203              -6.16       0.0295740168            -96.704
               553      0.0304407125            -98.306          0.9987159             -6.222        0.998606674             -6.173       0.0295362132            -97.003
               554       0.030621373             -98.09         0.99844618             -6.156        0.998791091             -6.205       0.0293308507            -96.751
               555      0.0305659427             -98.44         0.99869815             -6.191        0.998476379             -6.225       0.0294603428             -96.95
               556      0.0305604147            -98.267        0.998295798              -6.24        0.998640657              -6.21       0.0292792025            -97.464
               557      0.0303305245            -98.118        0.998987654             -6.255        0.997768803             -6.262       0.0291729213             -97.58
               558      0.0304690338            -97.911        0.998764122             -6.275        0.998409451             -6.227       0.0293466602            -97.522
               559      0.0300953678            -97.927        0.998928041             -6.266        0.998574116             -6.282       0.0292314026            -97.169
               560      0.0302215439             -98.53        0.998430633             -6.305        0.998747136             -6.304       0.0291552418            -97.145
               561      0.0300999087            -98.023        0.998654305             -6.325        0.998742495             -6.306       0.0289177953            -97.056
               562      0.0300116458            -98.293        0.998481017             -6.338        0.998682668             -6.335       0.0288761848            -97.483
               563      0.0298653779            -97.954        0.998595753             -6.364        0.998772934             -6.336       0.0289346354            -97.649
               564      0.0300711474            -98.127         0.99873438             -6.342        0.998619403             -6.366       0.0288635669            -96.858
               565      0.0299497732            -98.334        0.998542233              -6.39        0.998718484              -6.37       0.0288465273            -97.357
               566      0.0299381861            -98.551        0.998103282             -6.431        0.998852092             -6.371       0.0284888871            -97.115
               567      0.0298229088             -98.08        0.998044717              -6.41        0.998159627             -6.432       0.0286615716            -96.855
               568       0.029620314            -98.545        0.998595621              -6.46        0.998992223             -6.478       0.0286476932            -96.665
               569      0.0298226936            -98.956        0.998694865             -6.418        0.998382286             -6.448       0.0286448707            -97.182
               570      0.0297885936             -98.31        0.998619403             -6.438        0.998274551             -6.492       0.0286022369            -97.316
               571      0.0296913357            -98.492        0.999020925             -6.489        0.998113052             -6.496       0.0284072854            -96.994
               572      0.0294721339            -98.693         0.99871594             -6.527        0.998531067             -6.531       0.0282463009            -97.272
               573      0.0293282398            -98.508         0.99871184             -6.561        0.998737251             -6.572       0.0281731883            -97.171
               574      0.0292751422            -98.522         0.99838722             -6.578        0.998925301             -6.534       0.0281545774            -97.354
               575      0.0292412972            -98.771        0.998674097             -6.574        0.998496703             -6.537       0.0280605795            -97.566
               576      0.0290795741            -98.451        0.998505799              -6.62        0.998943882             -6.582       0.0280212846            -97.362
               577      0.0290924242            -98.831        0.998965548               -6.6        0.998010041             -6.566       0.0278952277            -97.541
               578      0.0290345707            -98.925        0.998775334             -6.632        0.998683922             -6.666       0.0280004756            -97.143
               579      0.0288735378            -98.553        0.998855235             -6.639        0.998504439             -6.636       0.0281190083            -97.172
               580      0.0291264676            -98.395        0.998981436             -6.687        0.998493214             -6.611       0.0279825841            -97.252
               581      0.0289663496            -98.714        0.998720047             -6.665        0.998968093             -6.653       0.0279443342            -96.758
               582      0.0288270366            -98.717        0.998619403             -6.698        0.998044717             -6.691       0.0277300083            -97.384
               583      0.0287677565            -98.514        0.999109052             -6.702        0.998173404             -6.753       0.0276634279            -97.501
               584      0.0286910565            -98.455         0.99903175             -6.735        0.998348433             -6.725       0.0274977108            -97.463
               585      0.0286837508            -98.594        0.999097313             -6.758        0.998242235             -6.748       0.0275731219            -97.425
               586      0.0286525689            -98.692        0.998650595             -6.783        0.998848139             -6.717        0.027451341            -97.268
               587      0.0285397392            -98.576        0.998940682             -6.754        0.998274551             -6.788       0.0275518014            -97.072
               588      0.0284930858            -99.106        0.998595227             -6.778        0.998851982             -6.789       0.0273898394            -97.251
               589      0.0282429704            -98.511        0.999047691             -6.798        0.998901167             -6.789       0.0273564898            -96.944
               590      0.0282610423              -98.6        0.998985592             -6.883        0.998943038             -6.843       0.0273708431            -97.063
               591      0.0283759232            -98.293        0.998044717              -6.84        0.999167732              -6.86       0.0272521016            -97.495
               592      0.0283760803            -98.708        0.998256289             -6.849        0.999058007             -6.897        0.027293071            -97.822
               593      0.0282117771            -98.883        0.998974941             -6.842        0.998399705             -6.863       0.0273105499            -97.946
               594      0.0281893367            -98.963        0.998839957             -6.896         0.99858033             -6.863       0.0269144096            -97.439
               595      0.0279061549            -98.523        0.998504439              -6.96        0.998619403             -6.918       0.0268998588            -97.702
               596      0.0280617355            -98.873        0.998815047             -6.936        0.998864955             -6.929       0.0269348478            -97.243
               597      0.0278964467            -98.354        0.998868893             -7.022        0.998846813             -6.985        0.026677731            -97.621
               598      0.0279751267            -98.595        0.999091264             -6.991        0.998373308             -6.929       0.0267283446            -97.539
               599      0.0278483841            -99.145        0.999045344             -7.057        0.998159627             -6.949       0.0268658138            -97.488
               600      0.0279930358             -98.48        0.997929819             -7.034         0.99884937             -7.009       0.0266685866            -97.449
               601      0.0277716819            -99.013        0.998544634             -7.089        0.998798617             -7.028       0.0263847013            -97.867
               602      0.0276494099            -98.988        0.998598631             -7.066         0.99894969             -7.062       0.0264932884            -97.722
               603      0.0277709158            -98.695        0.998777734             -7.075         0.99882097              -7.06       0.0264539301            -97.588
               604      0.0275327759            -99.043        0.998159627             -7.092        0.999007273             -7.039       0.0262301032            -97.424
               605       0.027472615            -99.093         0.99884937             -7.111        0.997814935             -7.116       0.0264453915            -97.996
               606      0.0277228539            -99.249        0.998016994             -7.116        0.998963882              -7.11       0.0262535439            -98.115
               607      0.0275200995            -98.854        0.998504439             -7.117        0.998274551             -7.132       0.0261969059            -97.363
               608      0.0274686726            -98.892        0.998685221             -7.167        0.998857703             -7.168       0.0261148583            -97.742
               609      0.0272019476            -99.009        0.998274551             -7.148        0.998274551             -7.172       0.0260705384            -97.696
               610      0.0273126548             -99.04        0.998706589             -7.164         0.99890978              -7.17       0.0261435112            -97.805
               611      0.0271305172            -99.015        0.998481385             -7.203        0.998969025             -7.248       0.0258975138            -98.208
               612      0.0272301479            -99.378        0.998389489              -7.25        0.998389489             -7.255       0.0257810143            -97.736
