!{251R14S1R9}
!Johanson Technology Inc.
!www.johansontechnology.com
!Test Board Conditions:
!Substrate Type  RO4350B
!Substrate Thickness        20 mil
!Substrate Dk      3.66
!TL Type: GCPW 
!TL Trace Width  36 mil
!TL Gap  12 mil
!Electrode orientation      Horizontal
!DUT TOPOLOGY	SERIES
!Mounting Pad LxW         26x36 mil
! Created Wed Mar 11 15:47:03 2020
# mhz S ma R 50
! 2 Port Network Data from SP1.SP block
! freq  magS11  angS11  magS21  angS21  magS12  angS12  magS22  angS22  
!     
               500       0.873288558            -33.115        0.481235625             56.448        0.482900628             56.573        0.872986987            -33.189
               501       0.872846811            -33.198        0.482434136             56.447        0.483657615             56.452        0.872545393            -33.236
               502       0.872383974            -33.244        0.483067343             56.357        0.484013727             56.389        0.872183123            -33.301
               503        0.87208213            -33.306        0.483512145             56.269        0.485073319             56.343        0.871780976            -33.411
               504       0.871984356            -33.338        0.484851444             56.203        0.485521754             56.294        0.870479792            -33.447
               505       0.871690628            -33.456        0.485637681             56.198        0.486421067             56.206        0.870587398            -33.504
               506       0.870784968            -33.506        0.486307451             56.147        0.487372391             56.169        0.870584486            -33.533
               507        0.87071599            -33.533        0.486773044             56.062        0.488457205             56.147        0.869513882            -33.624
               508       0.869980521            -33.549         0.48759532             56.011        0.489057056             56.125        0.869680092            -33.681
               509       0.869532633            -33.734        0.488580226             55.944        0.490044913             55.915        0.869132291            -33.789
               510       0.869146394            -33.709        0.489488996             55.911        0.490617384             55.991        0.868946289            -33.789
               511       0.868627537             -33.85        0.490155176             55.867          0.4912851             55.868        0.868727547            -33.817
               512       0.868488551            -33.856        0.490923812              55.75        0.491885587             55.835        0.867888827            -33.937
               513       0.867942209            -33.879        0.491859211             55.766         0.49253921              55.81        0.867742381            -33.937
               514         0.8676981            -33.975        0.492230643             55.649        0.493706274             55.717        0.866599923            -34.031
               515       0.867249579             -34.02        0.492826551             55.624          0.4944178             55.665        0.866251696            -34.059
               516       0.866792422            -34.114        0.494100286             55.513         0.49484035             55.573        0.865894748            -34.157
               517       0.866506409            -34.108        0.494734025             55.496        0.495931597             55.559        0.865110891            -34.213
               518       0.865798074            -34.229        0.495526193             55.411        0.496611321             55.484        0.865299824            -34.264
               519       0.865308828            -34.237        0.496045066             55.377        0.497532133             55.432        0.864910431             -34.35
               520        0.86476304            -34.357        0.497332819              55.26        0.498135071             55.372        0.864862605            -34.441
               521       0.864687421             -34.37        0.497747562              55.19        0.498837554             55.267        0.863294832            -34.519
               522       0.864234765            -34.441        0.498461629             55.167        0.499610702             55.241        0.863140972             -34.52
               523       0.863558896            -34.501        0.499277463             55.143        0.500601288             55.192        0.863260685            -34.583
               524       0.863141082            -34.553        0.500013567             55.064        0.501108521             55.127        0.862445753            -34.612
               525       0.862685952            -34.608        0.500671334             54.971          0.5018255             55.045        0.862288762            -34.752
               526       0.861862746            -34.623        0.501635322             54.987        0.502502364             55.031        0.862160474            -34.727
               527       0.861863689            -34.751        0.502213733             54.902        0.503487374             54.922        0.861268541            -34.812
               528        0.86136604            -34.794        0.503370483             54.848        0.503950344             54.854        0.860771235            -34.868
               529       0.860824462            -34.836        0.503807467             54.775        0.505027003             54.804        0.860428129            -34.963
               530       0.860097332            -34.961        0.504949098             54.651        0.505588982             54.738        0.860097332            -35.005
               531       0.860630728            -34.982        0.505494981             54.661        0.506193831             54.688        0.858750193            -35.058
               532       0.859645723            -35.018        0.506080387             54.581        0.507305425             54.646        0.858755451            -35.123
               533        0.85936852            -35.066        0.506674959             54.529        0.507901436             54.605        0.858379705            -35.177
               534       0.858449949            -35.152        0.507650688              54.44        0.508586677             54.523        0.858252307            -35.234
               535       0.858200554              -35.2        0.508029335             54.413         0.50978704             54.473        0.857311778            -35.273
               536        0.85738788             -35.24        0.509304297             54.304        0.510008413             54.424        0.857289175            -35.354
               537       0.857501224            -35.273        0.509664928             54.308        0.510898643              54.36        0.856415953            -35.408
               538       0.856659215            -35.344         0.51022072             54.238        0.511809203             54.279        0.856363387            -35.485
               539        0.85628976            -35.423          0.5111175             54.209        0.512295747             54.233        0.855994059            -35.477
               540       0.856171807            -35.444        0.511871468             54.143        0.512874283             54.195         0.85489135            -35.526
               541       0.855639316            -35.526        0.513027602             54.066        0.513263914             54.072        0.854654792            -35.643
               542       0.855123233            -35.591        0.513604365             53.969        0.514314426             54.035        0.854139303            -35.712
               543       0.854677718            -35.633        0.513809798             53.951         0.51523147             54.001          0.8536943            -35.716
               544       0.854492909            -35.701        0.514882893             53.897        0.515891608             53.938        0.853116738            -35.798
               545       0.853513274            -35.796        0.515359492             53.799        0.516785452             53.854        0.853022093            -35.849
               546       0.853250751            -35.832        0.516329191             53.722        0.517340739             53.844        0.852857905            -35.944
               547       0.853077979            -35.855        0.516997843             53.665        0.518010701              53.75        0.851409969            -36.011
               548       0.852298097            -35.942        0.517775526             53.614        0.518789907             53.735        0.851611502            -36.006
               549       0.851534342            -35.989        0.518802628              53.55        0.519579692             53.612        0.851240284            -36.134
               550       0.851477763            -36.062        0.519186403             53.537        0.520443167             53.596         0.85079183            -36.136
               551       0.850734777            -36.139        0.520048905             53.417        0.521127734             53.498        0.850440994            -36.251
               552       0.850027565            -36.186        0.520754474             53.355        0.521834766             53.465        0.850125434            -36.281
               553       0.850227296            -36.216        0.521657005             53.335        0.522197807             53.417        0.849151231            -36.323
               554       0.849758424            -36.306        0.522390751             53.295        0.523173188             53.316        0.848780667              -36.4
               555       0.849116259            -36.386        0.522657464             53.175        0.524043281             53.215        0.847846354            -36.464
               556        0.84887544            -36.364         0.52311114             53.183        0.525041907             53.278        0.847605895            -36.485
               557       0.847710432            -36.425        0.524502458             53.089        0.525469518             53.186        0.847710432            -36.567
               558       0.847988918            -36.526        0.524916442             53.077        0.526187076             53.115        0.846818187            -36.583
               559       0.847437988             -36.56        0.525663628             53.023        0.527057416             53.065        0.846365453            -36.655
               560       0.846760525            -36.647        0.526575445             52.919        0.527667813             53.027        0.846468115            -36.731
               561       0.846311162            -36.653        0.527509237             52.875        0.528177709             52.978         0.84553204            -36.762
               562       0.846057683              -36.7         0.52771565             52.837        0.528810383              52.88        0.844986895            -36.835
               563        0.84558223            -36.773         0.52839153             52.723        0.529609598             52.859        0.844414821            -36.889
               564       0.845120969            -36.841         0.52913791             52.684        0.530296642             52.734        0.844051366             -36.99
               565        0.84500945            -36.851        0.529982544              52.72        0.531143127             52.732         0.84355143            -37.009
               566       0.844488816             -36.94        0.530693664             52.575        0.531733353             52.688        0.843225832            -37.097
               567       0.843757224            -37.017        0.531639823             52.529        0.532190974             52.567        0.842689348            -37.131
               568         0.8433319            -37.083         0.53259677             52.454        0.533087536             52.509        0.842070646            -37.217
               569        0.84274321             -37.11        0.532838089              52.42         0.53388198             52.488        0.842064313            -37.249
               570        0.84261705             -37.17        0.533802057             52.368        0.534540041              52.41        0.840969495            -37.317
               571       0.842213536            -37.218        0.534345575             52.325        0.535515712             52.389         0.84076034            -37.376
               572       0.840827113            -37.283        0.535065202             52.293        0.536236914             52.318        0.841117574            -37.379
               573       0.841115286            -37.355        0.535433483             52.186        0.536914986             52.246        0.839857347            -37.478
               574       0.840882328            -37.412        0.536519147             52.179        0.537570249             52.212        0.839721408            -37.531
               575       0.839846661            -37.456        0.537279166             52.093        0.537898087             52.136        0.839363346            -37.578
               576        0.83979603            -37.526         0.53836128             52.101        0.538671275             52.067        0.839022906            -37.631
               577       0.838976894            -37.533        0.538641735             51.992        0.539696995             52.059        0.838494079            -37.699
               578       0.838976894            -37.596         0.53938641             51.975        0.540194303             52.001        0.838108027            -37.762
               579       0.837976174            -37.656        0.540171505             51.918        0.540731501             51.922        0.838072655            -37.796
               580       0.837783892            -37.734        0.540794176             51.845        0.541604178             51.846         0.83701262            -37.847
               581       0.837915067            -37.759         0.54143958             51.806        0.542312981             51.836        0.835987916            -37.915
               582       0.836614777            -37.836         0.54259468              51.74        0.542782118             51.804        0.836903784             -37.95
               583       0.836276706            -37.916        0.543000213              51.69        0.543625725             51.694        0.835795445            -38.019
               584       0.836276706            -37.947        0.543250331             51.646        0.544377291             51.668        0.834929873            -38.055
               585       0.835917168            -38.028        0.544456573             51.562        0.545146521             51.601        0.834763104            -38.151
               586       0.835410636            -38.067        0.545067139             51.549         0.54563221              51.52        0.834065197            -38.209
               587       0.834449387            -38.129        0.545820697             51.442        0.546260754             51.466        0.833681185            -38.264
               588       0.834353323            -38.204        0.546260754             51.413        0.547204928              51.36        0.833009588            -38.343
               589       0.834075127            -38.193        0.547148446              51.42        0.548094154             51.391        0.832923605            -38.346
               590       0.832997777            -38.269        0.548079858             51.294        0.548584891             51.306        0.832997777            -38.451
               591       0.832530207            -38.333        0.548466366             51.243        0.549161396             51.277        0.832338532            -38.484
               592       0.832242711            -38.394        0.549667425             51.171        0.549540874             51.259         0.83147654            -38.532
               593       0.832377311             -38.43        0.550326256             51.174        0.550516365             51.181        0.831419552            -38.604
               594       0.831093719            -38.505        0.550744286             51.116        0.550744286             51.048         0.83004187            -38.633
               595       0.831429614            -38.566        0.551665073             51.042        0.552046282             51.039        0.830090587            -38.715
               596       0.830659626            -38.585        0.552488321             50.997        0.552806451             51.051        0.829990463            -38.732
               597       0.830412509            -38.685         0.55315123             50.945        0.553406024             50.905        0.829552512             -38.85
               598       0.829468695            -38.688        0.553286406              50.89        0.553796236             50.893        0.828895916            -38.888
               599       0.828991352            -38.767        0.554178918             50.803         0.55468957             50.831        0.828228174            -38.971
               600       0.829173716            -38.838        0.554875471             50.739        0.555770546             50.787        0.827743019            -39.014
               601       0.828418903            -38.898        0.555520385             50.693         0.55616032             50.729        0.827370439            -39.057
               602       0.827997858            -38.909        0.556646155             50.683        0.556774342             50.703        0.827426095            -39.092
               603       0.827465699            -38.978        0.557506583               50.6        0.557185749             50.629        0.826608754            -39.177
               604       0.827193135            -39.055        0.557964954             50.513        0.558157701             50.579        0.826146222            -39.223
               605       0.826847687            -39.096        0.558631622              50.51        0.558760266             50.503        0.825611086            -39.264
               606       0.825847769            -39.184        0.559435472             50.453        0.559242283             50.431        0.825277491             -39.35
               607       0.825562581            -39.241        0.560015439             50.379        0.560273395             50.409         0.82537251            -39.405
               608       0.825087485            -39.298        0.560596007             50.308        0.560789663             50.331        0.824517732            -39.475
               609        0.82468744            -39.324         0.56142194             50.244        0.561745213             50.322        0.824402652            -39.525
               610       0.824344217            -39.353        0.562481957             50.252        0.562352455              50.27        0.823869823            -39.568
               611       0.824162294            -39.458        0.562293083             50.164        0.563070457             50.144        0.822929709            -39.622
               612       0.823189837            -39.506        0.563313293             50.074        0.563572768              50.13        0.822621394            -39.685
