!{251R15S2R1}
!Johanson Technology Inc.
!www.johansontechnology.com
!Test Board Conditions:
!Substrate Type  RO4350B
!Substrate Thickness        20 mil
!Substrate Dk      3.66
!TL Type: GCPW 
!TL Trace Width  34 mil
!TL Gap  10 mil
!Electrode orientation      Horizontal
!DUT TOPOLOGY	SERIES
!Mounting Pad LxW         26x52 mil
! Created Thu Mar 12 16:38:11 2020
# mhz S ma R 50
! 2 Port Network Data from SP1.SP block
! freq  magS11  angS11  magS21  angS21  magS12  angS12  magS22  angS22  
!     
               500       0.854207795            -37.907        0.516848821             52.271        0.518577334             52.318        0.851556622            -37.931
               501       0.853783551            -37.911        0.518021498             52.222        0.519036361             52.316        0.851133694            -37.994
               502       0.852965902             -37.99        0.518598994             52.206        0.520093792             52.239        0.851200109            -38.024
               503       0.852929925            -38.059        0.519952118             52.093         0.52019162             52.218        0.850380616            -38.062
               504       0.852305782            -38.117         0.52046968             52.003        0.521309254             52.137        0.850149756            -38.178
               505        0.85178874            -38.188        0.521413048             51.962        0.521893508             52.074         0.84982968            -38.222
               506       0.851307656            -38.218        0.522079378             51.925        0.522801156             52.041        0.849154155            -38.266
               507       0.850778777            -38.251        0.522717028             51.897        0.523499954             51.962        0.849115264             -38.34
               508       0.850571176            -38.361        0.523311961             51.765        0.524276826             51.893        0.847931289            -38.419
               509       0.850020576            -38.408         0.52399777             51.719        0.525326657             51.837        0.847284846            -38.466
               510       0.849402557            -38.486        0.525005151             51.699        0.525791504             51.781        0.847351425            -38.496
               511       0.848856808            -38.559        0.525574682             51.561        0.526846909             51.715        0.846709507            -38.625
               512        0.84853418            -38.611        0.526161832             51.513        0.527678429             51.628        0.846192829            -38.673
               513       0.848160532            -38.693        0.527203226             51.456        0.528296896             51.535        0.845041542            -38.753
               514       0.847484209            -38.768        0.528118785             51.371        0.528970698             51.462         0.84553505            -38.842
               515       0.847153185            -38.811        0.528824963             51.336        0.529860992              51.38        0.845204787            -38.865
               516       0.846737158            -38.892        0.529600783              51.22        0.530516162             51.331        0.844886983             -38.94
               517       0.846175969            -38.959        0.530103519             51.229        0.531080906             51.278        0.843938282            -38.994
               518         0.8455523            -39.063         0.53105619             51.112        0.532157853             51.179        0.843316262            -39.097
               519       0.845410411            -39.064        0.531395157             51.063        0.532681473             51.215        0.842398514            -39.099
               520       0.844712031            -39.163           0.532364             50.988        0.533529798             51.095        0.842672226             -39.19
               521       0.844038651            -39.235        0.533411451             50.975        0.534148895             51.019        0.842388316            -39.235
               522       0.843838326            -39.292        0.534268103             50.886        0.534698846             50.966        0.841606821            -39.297
               523       0.842976672            -39.336        0.534891327              50.82        0.535569155             50.962        0.841425281            -39.374
               524        0.84279383            -39.405         0.53563796             50.777        0.536131528             50.872        0.840468318            -39.429
               525         0.8422127             -39.46         0.53613207             50.724        0.537120572             50.809        0.839888792            -39.505
               526       0.841925435            -39.551        0.536690157             50.595        0.537927355             50.703        0.839409017             -39.61
               527       0.841486478            -39.638        0.537523111             50.557         0.53876223             50.631        0.838778214            -39.615
               528       0.840684878            -39.708        0.538620943             50.484        0.539365589             50.564        0.839137705            -39.706
               529       0.840270018            -39.761        0.538913258             50.445        0.540217772             50.503        0.837758548            -39.801
               530       0.840049497            -39.818        0.539640923             50.365        0.540635894             50.481         0.83676764            -39.851
               531       0.839447613            -39.848        0.540372947              50.34        0.541556283             50.418        0.836649583            -39.901
               532       0.838942007            -39.902        0.541479402             50.288        0.542165578              50.34        0.836241932            -39.974
               533       0.838516926            -39.973        0.542015659             50.152         0.54288999             50.311        0.835914452            -40.063
               534       0.837720412            -40.073         0.54331175              50.11        0.543436867             50.218        0.836082431            -40.105
               535       0.837332775            -40.119        0.543748523             50.052        0.544437575              50.17        0.835214625            -40.167
               536       0.836891367            -40.211        0.544526585             50.017        0.544965599               50.1        0.834582143            -40.198
               537        0.83647128            -40.231        0.545193958             49.934        0.545821997             50.046        0.833779157            -40.311
               538       0.836064863            -40.317        0.545619611             49.861        0.546688542              49.98        0.833565961            -40.339
               539       0.835518961            -40.427        0.546457398             49.799        0.547338894             49.852        0.833021691            -40.439
               540       0.835010152            -40.455        0.547257542             49.744        0.548014129             49.845        0.832610255            -40.477
               541       0.834556675            -40.518        0.547590412             49.679        0.548789552             49.823        0.831583445            -40.538
               542       0.834079771            -40.575        0.548665419             49.654        0.549360701             49.708        0.831203931            -40.613
               543       0.833703293            -40.674         0.54936567             49.604        0.549935198             49.647        0.830159452            -40.642
               544       0.833072966            -40.734        0.550532601              49.49        0.550913026             49.535        0.830774278            -40.738
               545       0.832687134            -40.747        0.551101831             49.443        0.551292208             49.615        0.829338552            -40.756
               546       0.832071888            -40.883        0.551773514             49.344        0.552345537             49.453        0.829489417            -40.855
               547       0.831742012            -40.891        0.552062997             49.318        0.553080872             49.403        0.828301864            -40.946
               548       0.830911088             -40.97        0.552528335             49.237        0.553929577             49.388         0.82833222             -41.01
               549       0.830413541             -41.01        0.553725371             49.205        0.554427065             49.304        0.828217537            -41.067
               550       0.830012121            -41.071        0.554350489             49.129        0.555180795             49.243        0.828007813            -41.115
               551       0.829573328            -41.144        0.555015076             49.061        0.555910376             49.177        0.826998612            -41.199
               552        0.82887875             -41.22        0.555892745             48.993        0.557045931             49.095        0.826972382            -41.232
               553       0.828702027            -41.272        0.556670749             48.925        0.557440349             49.039        0.825749655            -41.316
               554       0.828316179            -41.349        0.557180802             48.821        0.557951108             48.962         0.82508016            -41.442
               555       0.827576459            -41.441        0.557838043             48.807        0.558930911             48.903        0.825102928            -41.425
               556       0.827093411            -41.468         0.55892632             48.732        0.559312546             48.868        0.824811222            -41.508
               557       0.826572399            -41.539        0.559282073             48.725        0.560377771             48.784        0.824101869            -41.533
               558       0.826557861            -41.579        0.559916494             48.603        0.560626033             48.783        0.822760173             -41.61
               559       0.825577569            -41.668        0.560928988             48.532        0.561639811             48.694         0.82282577            -41.711
               560       0.825209882            -41.738        0.561583604              48.49        0.562165798             48.633        0.821891369            -41.763
               561       0.824590829            -41.802        0.562132248             48.462        0.563103855             48.516        0.822126222            -41.822
               562        0.82403913            -41.851        0.562856693             48.381        0.563764643             48.499        0.821859983            -41.874
               563        0.82379135            -41.933        0.563335639             48.299        0.564439278             48.408        0.820573009            -41.978
               564       0.823243349            -42.001        0.563933937             48.266        0.565233939              48.37        0.820404872            -41.974
               565       0.822400537            -42.095        0.564850328             48.181        0.565891779             48.279        0.820509068            -42.078
               566       0.822338199            -42.151        0.565718608             48.093        0.566239895             48.208        0.819597197            -42.158
               567       0.821522646            -42.149        0.566656063             48.035         0.56704763             48.223        0.819350154            -42.222
               568       0.821204045            -42.258        0.567546017             47.969        0.567546017             48.101        0.818843828            -42.277
               569       0.820683737            -42.275        0.567970563             47.918        0.568428478             48.076        0.818796217            -42.321
               570       0.820382378            -42.402        0.568546936             47.816        0.569201876             47.988        0.817647895            -42.389
               571        0.81957889            -42.432         0.56943055              47.78        0.570086509             47.897        0.817693911            -42.482
               572       0.819394207            -42.466        0.569761224             47.779        0.570351895             47.892        0.816945132            -42.482
               573       0.818969438            -42.539         0.57031881             47.698        0.571436129             47.766        0.816145697            -42.589
               574       0.818292401             -42.61        0.571489846             47.622        0.571884753              47.72        0.815846619             -42.66
               575       0.817550795            -42.684        0.572024652             47.557        0.573013357             47.651        0.815576578            -42.718
               576       0.817260148             -42.77        0.572875596             47.489        0.573139475             47.613        0.814817451            -42.764
               577       0.816871594            -42.787        0.573394858              47.41        0.574121478             47.552        0.814899018            -42.824
               578       0.816426995            -42.877        0.574337742              47.34        0.574337742             47.476         0.81389308            -42.925
               579       0.816088726            -42.931        0.574562633              47.29        0.575555725              47.41        0.813087675            -42.957
               580       0.815429455             -42.99        0.575620689             47.236        0.576283778             47.356        0.813085835            -42.988
               581       0.815105944            -43.041         0.57612147             47.206        0.576519578             47.273        0.812389049            -43.086
               582       0.814408601            -43.107        0.577021973             47.097        0.577487186             47.258        0.812161413            -43.127
               583       0.814144662             -43.14        0.577698952              47.06        0.577965054             47.162        0.811244153            -43.227
               584       0.813496556             -43.25        0.578037107             47.001        0.578769609             47.112        0.810878375            -43.262
               585       0.812741351            -43.295        0.579298437             46.919         0.57943184             47.043        0.811245604            -43.324
               586       0.812412963            -43.331        0.579798176             46.837        0.579998465             47.018        0.810264561            -43.423
               587       0.811961955            -43.456        0.580277432             46.716        0.581146572             46.912        0.809721518            -43.492
               588        0.81156983            -43.509        0.580799046             46.734        0.581535048             46.825        0.809330475            -43.525
               589       0.811161764            -43.503        0.581577333             46.672        0.582314321             46.815        0.808458016            -43.592
               590         0.8106006            -43.598        0.582313584             46.582        0.582850161             46.757        0.808456991            -43.643
               591       0.810261033             -43.66        0.583008589              46.51        0.583612994             46.644        0.808118322            -43.724
               592       0.809829576            -43.685        0.583436552             46.513        0.584108645             46.618        0.807037349            -43.774
               593       0.809151524            -43.751        0.584561026             46.436        0.584897623             46.572        0.806918841            -43.805
               594       0.808687357            -43.839        0.584764034             46.348        0.585774758             46.479        0.806455956            -43.902
               595        0.80828099            -43.907        0.585682658             46.296        0.586289835             46.441        0.805679595            -43.925
               596       0.807797009             -43.99        0.586411179             46.214        0.587019111             46.344        0.805289879            -44.006
               597       0.807492632             -44.03        0.586662824             46.178        0.587473889             46.291        0.805264527            -44.048
               598        0.80669003            -44.092        0.587769017             46.135        0.588378358             46.219        0.805112723            -44.083
               599       0.806483878              -44.1        0.588160277             46.065        0.588837812             46.187        0.803795721            -44.211
               600       0.806119774             -44.15        0.589046493             46.028        0.589317821             46.109        0.803525335            -44.246
               601       0.805497542            -44.256        0.589948661             45.947        0.589948661             46.026        0.803090003             -44.31
               602       0.805108718            -44.285        0.590411121             45.912        0.590479099              45.98        0.802240401            -44.387
               603       0.804751373            -44.378        0.590488884             45.824        0.591373319             45.927         0.80169971            -44.432
               604       0.804165192            -44.474        0.591555193             45.728        0.591963966             45.846        0.801392495            -44.504
               605       0.803501289            -44.498        0.591952116             45.706        0.592838743             45.827        0.801191951            -44.535
               606       0.802949018            -44.545        0.592704155             45.653        0.593591907             45.783         0.80073345            -44.579
               607        0.80285669            -44.613        0.593113803             45.656        0.593797043             45.644        0.799812212            -44.658
               608       0.802291266            -44.616        0.593925627             45.579        0.594541349             45.658         0.79952503            -44.705
               609       0.801490447            -44.725        0.594700564              45.44        0.595454182             45.567        0.799370929            -44.831
               610       0.801174211            -44.823         0.59521924             45.407        0.596316685             45.452        0.798595688            -44.851
               611       0.800485613            -44.834        0.595941364             45.337        0.596833966             45.465          0.7987365            -44.909
               612        0.80023308            -44.911        0.597057971             45.316        0.596989236             45.412        0.797473941            -44.918
