!{251R15S1R0}
!Johanson Technology Inc.
!www.johansontechnology.com
!Test Board Conditions:
!Substrate Type  RO4350B
!Substrate Thickness        20 mil
!Substrate Dk      3.66
!TL Type: GCPW 
!TL Trace Width  34 mil
!TL Gap  10 mil
!Electrode orientation      Horizontal
!DUT TOPOLOGY	SERIES
!Mounting Pad LxW         26x52 mil
! Created Thu Mar 12 16:31:33 2020
# mhz S ma R 50
! 2 Port Network Data from SP1.SP block
! freq  magS11  angS11  magS21  angS21  magS12  angS12  magS22  angS22  
!     
               500       0.957767691            -23.037        0.285601302              67.15        0.286391539             67.197        0.956005042            -22.972
               501       0.957689444            -23.103        0.286170393             67.037        0.287061335             67.106           0.956037            -23.018
               502       0.957456726            -23.175        0.286727372             66.934        0.287553829             67.082        0.956244949            -23.088
               503       0.957313734            -23.157        0.287080894             66.945         0.28797467             67.085        0.955882013            -23.122
               504       0.957344895              -23.2        0.287487142             66.899        0.288448594             67.049        0.954483502            -23.131
               505       0.957154197            -23.251         0.28812564             66.841        0.288956127             66.979        0.954732942            -23.219
               506       0.956903445            -23.297        0.288680945             66.854        0.289546366             66.959        0.954702628            -23.221
               507       0.956923535            -23.337        0.289419132             66.739         0.28978589             66.912        0.954063401            -23.281
               508       0.956458164            -23.415        0.289945237             66.719        0.290580173             66.862         0.95546763            -23.307
               509       0.956436344            -23.405        0.290473201             66.683        0.291209857             66.824        0.954456348            -23.376
               510       0.956094613            -23.472         0.29120637             66.638         0.29164254             66.773        0.955324402            -23.413
               511       0.956161751            -23.483        0.291159769             66.623         0.29223442             66.713        0.953743007            -23.462
               512       0.955975558            -23.572        0.292009371              66.53        0.292682522              66.66        0.954106355            -23.525
               513       0.955794963            -23.601        0.292357835             66.509        0.293234279             66.651        0.953706489            -23.548
               514       0.955486162            -23.731         0.29307205             66.451        0.293815296              66.51        0.954386751             -23.61
               515       0.955423727            -23.701        0.293424263             66.461        0.294371677             66.548        0.953226313             -23.62
               516       0.955227696            -23.786        0.294074188             66.324          0.2950237             66.445        0.953359956            -23.746
               517       0.955088862            -23.801        0.294743191             66.332        0.295218644             66.435        0.953440905            -23.763
               518       0.954970732            -23.877          0.2952841             66.242        0.295896659              66.37        0.952884059            -23.818
               519       0.954690174            -23.877        0.295673534             66.271        0.296389253             66.403        0.953152634            -23.793
               520        0.95458486             -23.92        0.296322441             66.228        0.296800441             66.304        0.953376718            -23.848
               521       0.954493843            -23.953        0.296601355             66.165        0.297285092             66.286        0.952408212            -23.933
               522       0.954281172            -23.984        0.297218854             66.115         0.29817852             66.225         0.95197678            -23.982
               523       0.954195536            -24.124        0.297568791             66.022         0.29849522             66.202        0.951672195            -23.961
               524       0.953945197            -24.104        0.298348203             66.041         0.29900154             66.125        0.951970358            -24.065
               525       0.953907534            -24.163        0.298611328             65.943        0.299541002              66.11        0.951056414            -24.076
               526       0.953605835            -24.186        0.299308396             65.961         0.30013656             66.061        0.951193557            -24.146
               527       0.953538118            -24.222        0.299528436             65.921        0.300599365                 66        0.950359803            -24.196
               528       0.953137258            -24.297        0.300438404             65.839        0.301269694             65.947         0.95182136            -24.247
               529       0.953106258            -24.309        0.301121192             65.838        0.301572212             65.938        0.951352187            -24.244
               530       0.952883179            -24.393        0.301362813             65.784        0.302301053              65.86        0.951020023              -24.3
               531       0.952828061            -24.409        0.302074829             65.713        0.302562109              65.83        0.950636617            -24.384
               532       0.952642339            -24.478        0.302572797             65.619         0.30313067             65.786        0.950889123             -24.43
               533       0.952564709            -24.512        0.302861792             65.605        0.303734754             65.736        0.949498947            -24.457
               534       0.952015425            -24.541        0.303769373             65.568        0.304259386             65.724        0.951467558            -24.484
               535       0.952074439            -24.552        0.303963128             65.575        0.304944571             65.665        0.950212863            -24.521
               536       0.952108604            -24.647        0.304394282              65.41         0.30534196             65.573         0.94882581            -24.634
               537       0.951690284            -24.691        0.305207805             65.453        0.305946603             65.572         0.94993882            -24.626
               538        0.95127297            -24.743        0.305847656             65.443        0.306446847             65.509        0.950506643            -24.667
               539       0.951448435            -24.763        0.306256459             65.378        0.306927114             65.478        0.949041614             -24.72
               540       0.951380782            -24.817        0.306763987             65.319        0.307400362              65.39        0.948428016            -24.773
               541       0.951106958            -24.859        0.307347269             65.271        0.307949397             65.386        0.949028727            -24.808
               542       0.951096366            -24.911         0.30766247             65.213        0.308265216             65.352        0.948144482            -24.824
               543       0.950724195            -24.973        0.308428532             65.143        0.309175126              65.28         0.94886526            -24.906
               544        0.95042321            -24.991        0.308863817             65.157        0.309718419             65.269        0.949001794            -24.917
               545       0.950296976            -25.003        0.309499069             65.101        0.310034017              65.25        0.949094261             -24.97
               546       0.950203983            -25.085        0.310039371              65.03        0.310539498             65.186        0.947800311            -25.072
               547       0.949676176            -25.129        0.310760308             65.033        0.311225765             65.142        0.949238934            -25.025
               548       0.949854704            -25.208        0.311105134             64.947        0.311642858             65.056        0.948106618            -25.114
               549       0.949662589              -25.2        0.311292982             64.914        0.312190246             65.048        0.947696616             -25.19
               550       0.949475734            -25.294        0.311985112             64.892        0.312848351             64.973        0.947401068            -25.183
               551       0.949458372            -25.303        0.312518642             64.807        0.313094853             64.912        0.946947558            -25.298
               552       0.949278158            -25.376        0.312927325             64.767        0.313612589             64.928         0.94676782            -25.259
               553       0.949012832             -25.42        0.313524934              64.67        0.314247683             64.883        0.946503196            -25.393
               554       0.948827904            -25.438        0.314222622             64.677        0.314584593             64.824        0.946863658            -25.421
               555       0.948705129            -25.493        0.314688772             64.594        0.315414205             64.775        0.946632146            -25.428
               556       0.948550283            -25.549        0.314963594             64.571        0.315798715             64.749        0.945824061            -25.476
               557        0.94815357            -25.547        0.315557629             64.604        0.316540063             64.754        0.946190721             -25.48
               558       0.948285822            -25.659        0.315965203             64.487        0.316730041             64.617        0.944798635            -25.575
               559       0.947816115            -25.618        0.316864867             64.514        0.317302934             64.632        0.946289647            -25.616
               560       0.947760772            -25.714        0.317284407             64.493        0.317796221              64.54        0.945472125            -25.635
               561       0.947635161            -25.734        0.317425028             64.419        0.318413275             64.517        0.944911569            -25.702
               562       0.947460045            -25.814        0.318427748              64.32        0.318794562             64.455        0.945498632            -25.746
               563       0.947380888            -25.853         0.31873123             64.271        0.319355661             64.362        0.944875568            -25.823
               564       0.947182621            -25.889        0.319141823             64.276        0.319840695             64.384        0.944677825            -25.785
               565        0.94693077            -25.917        0.319829286             64.177        0.320492764             64.356        0.944861665            -25.877
               566       0.946761527            -26.019        0.320214211             64.156        0.321100219             64.239        0.944257844             -25.92
               567       0.946655503            -26.024        0.320842553               64.1         0.32128612             64.243        0.944260807            -25.972
               568        0.94646078            -26.053        0.321404995              64.06        0.322034664             64.194        0.943849222            -26.013
               569       0.946351767            -26.104        0.321923438             63.975        0.322405615             64.143         0.94352323            -26.086
               570       0.945990229            -26.154        0.322393777             63.994        0.323025383             64.091        0.944031858            -26.121
               571       0.945819556            -26.225        0.322781243             63.898         0.32352533             64.065        0.943970211            -26.166
               572       0.945765532            -26.294         0.32324624             63.909        0.323916807             63.965        0.942938748            -26.196
               573       0.945472948            -26.284          0.3241523             63.841        0.324637815             63.961        0.943515648            -26.249
               574       0.945269083             -26.32        0.324530451             63.797        0.325166244             63.901         0.94363807             -26.31
               575       0.945166052            -26.379        0.324831483             63.758        0.325542815             63.887        0.942558066            -26.354
               576       0.945006337            -26.355         0.32552528             63.765         0.32597532             63.908        0.942941437            -26.314
               577       0.944467925              -26.5        0.326052259             63.674        0.326803887             63.747         0.94370708            -26.424
               578       0.944718844            -26.503         0.32651458             63.651        0.327041283             63.729        0.941895188            -26.451
               579        0.94434368            -26.554        0.327099649             63.606        0.327815948             63.664         0.94249722            -26.524
               580       0.944273102            -26.615        0.327791448             63.492        0.328017957             63.667        0.942426781            -26.554
               581       0.944150251            -26.633        0.328088579             63.516        0.328617822             63.577        0.941545069            -26.611
               582       0.943617091            -26.661        0.328772738             63.462        0.329378918             63.562        0.942856931             -26.64
               583       0.943706609            -26.736        0.329069019             63.396        0.329751664             63.535        0.941211005            -26.699
               584        0.94349617            -26.739        0.329905945             63.373        0.329981917             63.497        0.941976658            -26.729
               585       0.943518423            -26.818        0.330369834             63.324          0.3303318             63.415        0.940481776            -26.765
               586       0.943242042            -26.857        0.330615454             63.316        0.330958203             63.375        0.940639366            -26.828
               587       0.942955175            -26.907        0.331429413              63.23        0.331505737             63.359         0.94111143            -26.866
               588       0.942701816            -26.947        0.331913062             63.236        0.332295411             63.262        0.941183584              -26.9
               589       0.942704705            -26.984        0.332181678             63.172        0.332564336              63.28        0.940103511            -26.925
               590       0.942618155            -27.016        0.332533804             63.096        0.333108565             63.213        0.939692585            -26.995
               591       0.942282468             -27.07        0.333373528             63.068        0.333680717             63.174        0.940007049            -27.042
               592       0.942027451            -27.138        0.333667232             62.982        0.334551944             63.123        0.940077284            -27.083
               593        0.94189469            -27.174        0.334735943             62.965        0.334427782             63.078        0.940053019            -27.118
               594        0.94160591             -27.23        0.334941666             62.921        0.335404724             62.973        0.940305932            -27.201
               595       0.941544426            -27.245        0.335267006             62.901        0.335730515             63.002         0.93927079            -27.218
               596       0.941429801            -27.279        0.335921609             62.909        0.335998967             62.902        0.938724044            -27.279
               597       0.941180793            -27.377        0.336490692             62.784        0.336645688             62.882        0.939124252            -27.309
               598       0.940916396            -27.379        0.336861235             62.786        0.337326948             62.848        0.939184759            -27.345
               599       0.940660492            -27.429        0.337662556             62.754        0.337662556              62.82        0.939253677            -27.362
               600       0.940706499            -27.462        0.337912412             62.696        0.338029143             62.792        0.938002821            -27.418
               601       0.940358165            -27.444        0.338488018             62.628         0.33895598             62.751        0.938951802            -27.497
               602       0.940158568            -27.575        0.339157252             62.617        0.339235355             62.662        0.938428326            -27.512
               603       0.940076486            -27.609        0.339518302             62.535        0.339596488             62.622        0.938022357            -27.598
               604       0.939947657            -27.655        0.339823704             62.511        0.340293512              62.57        0.937677877            -27.603
               605       0.939770631            -27.712        0.340582139             62.438         0.34066057             62.493        0.937825136            -27.675
               606       0.939438517            -27.752        0.340814734             62.418        0.341482429             62.527        0.937062077            -27.696
               607       0.939145744            -27.769        0.341611903             62.349        0.341769257             62.463        0.938389186            -27.741
               608       0.939182418            -27.836        0.342215719              62.33        0.342176322             62.375        0.936590943            -27.815
               609       0.938992142            -27.854        0.342579963             62.315         0.34281669             62.383        0.936616831            -27.795
               610       0.938801891            -27.907        0.343260599             62.226        0.343063059             62.287        0.936966268            -27.909
               611       0.938531195            -27.957        0.343596485             62.208        0.343833915             62.312        0.936588266            -27.889
               612       0.938254882            -28.006        0.344207899             62.174        0.344406099             62.214        0.936528144            -27.984
