!{251R15S750}
!Johanson Technology Inc.
!www.johansontechnology.com
!Test Board Conditions:
!Substrate Type  RO4350B
!Substrate Thickness        20 mil
!Substrate Dk      3.66
!TL Type: GCPW 
!TL Trace Width  34 mil
!TL Gap  10 mil
!Electrode orientation      Horizontal
!DUT TOPOLOGY	SERIES
!Mounting Pad LxW         26x52 mil
! Created Thu Mar 12 17:16:15 2020
# mhz S ma R 50
! 2 Port Network Data from SP1.SP block
! freq  magS11  angS11  magS21  angS21  magS12  angS12  magS22  angS22  
!     
               500      0.0249581917            -98.615        0.998682446               -4.9        0.999059299             -4.874       0.0239449049            -94.107
               501       0.024754012            -98.667        0.999170256             -4.902        0.998420862             -4.932       0.0235285735            -93.836
               502        0.02471763            -98.798        0.998994797             -4.889        0.998750078             -4.907       0.0237906784            -94.215
               503      0.0245878343              -98.7        0.999155717             -4.947        0.998436106             -4.951       0.0235109554            -94.272
               504      0.0245835063            -98.788        0.998834248             -4.956        0.998781352             -4.978       0.0233342488            -94.272
               505      0.0242957225            -99.065        0.998657503             -5.009        0.999038487             -4.994       0.0230956303            -93.845
               506      0.0241212606            -98.546        0.998504439             -4.992        0.998504439             -5.012       0.0230807544             -93.94
               507       0.024065256            -98.968         0.99831084             -5.061        0.999217972             -5.035       0.0229556972             -94.23
               508      0.0239008453            -99.151        0.999074582             -5.057        0.998704738              -5.03       0.0228856504            -94.061
               509      0.0236156935            -99.526        0.999185227             -5.061        0.998506058             -5.074       0.0228008325            -94.103
               510      0.0237273917            -98.682        0.998274551             -5.057        0.999152202             -5.075       0.0226125739            -94.085
               511       0.023325018            -99.321        0.998325094             -5.108        0.999250876             -5.114       0.0224580471            -94.437
               512      0.0235065232            -99.465        0.998509493             -5.089        0.998893985             -5.155       0.0223557064            -94.969
               513      0.0232420607             -99.39        0.997871528             -5.147        0.999228198             -5.184       0.0220609714            -94.906
               514      0.0232643288            -99.665        0.998891867             -5.141        0.998572673             -5.168       0.0222428548            -94.949
               515      0.0231206479            -99.636        0.998389489             -5.197        0.999025676             -5.149       0.0218876936            -93.949
               516      0.0228798454            -99.577        0.999199908             -5.199        0.998517625             -5.195       0.0218299673            -94.064
               517      0.0228782545            -99.967        0.999166323             -5.251        0.998212233             -5.211       0.0217431713            -94.395
               518      0.0226167018           -100.158        0.998606461             -5.237         0.99891842               -5.3       0.0216560513              -94.8
               519      0.0224810866            -99.944        0.998544213             -5.308        0.999147714             -5.273        0.021353413            -94.045
               520      0.0223079432           -100.172         0.99913743               -5.3        0.998296455             -5.259       0.0213530309            -94.734
               521      0.0223829274            -99.867        0.998658231             -5.291         0.99900241             -5.286       0.0212259377            -94.438
               522      0.0221384185           -100.473        0.998807843             -5.307        0.998537648             -5.353       0.0209385495            -95.008
               523      0.0220260921           -100.284        0.999245501             -5.364        0.997885476             -5.358       0.0210057142            -94.968
               524      0.0219349679           -100.124        0.998996123             -5.389        0.998496743             -5.332       0.0208658943             -95.08
               525       0.021687026           -100.408        0.998988986              -5.38        0.998619403             -5.397       0.0207730373            -94.799
               526      0.0218324036           -100.636        0.998048282              -5.47        0.999095922             -5.409        0.020497531            -94.865
               527      0.0215512078           -100.736         0.99888495             -5.433        0.998376878             -5.439        0.020315224            -95.259
               528      0.0213757078           -101.301        0.998542958              -5.49        0.998531117             -5.433       0.0201706783            -95.648
               529      0.0213232504           -101.249        0.999165793             -5.464        0.997822763             -5.491       0.0202024205            -94.939
               530      0.0213215906           -101.193        0.998806131             -5.496        0.998349259             -5.495        0.020103404            -95.429
               531      0.0208259964            -101.66        0.998890972             -5.506        0.998495675             -5.507       0.0200542206            -95.007
               532      0.0209800733           -101.223         0.99875508             -5.541        0.998636422             -5.492       0.0198978889            -95.139
               533      0.0208868208           -101.219        0.999070397             -5.518        0.998325905             -5.557       0.0197547865            -94.708
               534      0.0208564183           -101.122        0.998280594              -5.53        0.998996298             -5.571       0.0197033344            -95.266
               535       0.020540295           -101.138        0.998489788             -5.558        0.999017227             -5.611        0.019483038            -94.974
               536      0.0205719671           -102.017        0.999025218             -5.638        0.998037871             -5.615       0.0194906275            -95.158
               537      0.0202642478           -101.997          0.9984013             -5.638        0.998737457              -5.66       0.0191218756            -95.611
               538      0.0203961575           -102.128        0.998230437             -5.659        0.998758901             -5.625       0.0192286307            -95.762
               539      0.0201511163           -102.285        0.998750842             -5.664        0.998200214             -5.692       0.0188972718            -95.794
               540      0.0198367204           -101.727        0.998945459             -5.713        0.998495523             -5.699        0.018811346             -95.25
               541      0.0198729059           -102.685        0.998752148             -5.719        0.998149346             -5.699       0.0186943933            -95.821
               542      0.0194681365            -102.52        0.999031497             -5.722        0.997936328             -5.727       0.0184129928            -95.583
               543      0.0197148254           -102.161        0.998488196             -5.692        0.998603158             -5.742       0.0183629704            -95.761
               544      0.0197858298           -102.268        0.998534715              -5.73        0.998504366             -5.755       0.0181219225            -95.266
               545      0.0195508556           -102.782        0.998864937             -5.758        0.998253217             -5.804       0.0181913851            -94.973
               546      0.0194153069           -102.121        0.998365604             -5.809        0.998835847              -5.79       0.0180071201            -95.442
               547      0.0190279587           -102.657        0.998879385             -5.852        0.998673556             -5.837       0.0181652843            -94.901
               548      0.0193109146           -103.075        0.998810935             -5.812        0.998233277             -5.886       0.0179846853            -95.295
               549      0.0189141266           -102.605        0.998628465             -5.837        0.998954807             -5.849       0.0178787146              -94.6
               550      0.0188869249           -102.554         0.99865574             -5.887        0.998691152             -5.905       0.0177198994            -95.509
               551      0.0187343568           -103.635        0.999021392             -5.883        0.997818813             -5.882       0.0175929548            -95.369
               552      0.0188266316           -102.901        0.998716613             -5.922        0.998507139             -5.932       0.0173549203             -95.12
               553      0.0184042207           -102.768        0.998883142             -6.013        0.998573033             -5.935       0.0174007286            -95.453
               554      0.0185741042           -103.242        0.998752496              -5.92        0.998465303             -5.977         0.01711228             -94.96
               555      0.0184055812           -103.608        0.998675132             -5.974         0.99860063             -6.005       0.0170686642            -94.846
               556      0.0183790406           -103.375        0.998687436             -6.009        0.998327044             -5.997       0.0169345178            -95.845
               557      0.0179956005           -102.784        0.999131712             -6.042        0.998197192             -6.066        0.016885594            -95.468
               558      0.0180512089           -103.236        0.998920538             -6.063         0.99817409             -6.024       0.0167053774            -95.779
               559      0.0177949756           -103.258        0.998543289              -6.05        0.998855665             -6.053       0.0167744155             -95.61
               560       0.017845004           -103.569        0.998694478             -6.058        0.998599625             -6.098       0.0165526163            -95.361
               561      0.0176019087           -102.758        0.998411936             -6.111        0.999134176             -6.096        0.016285825            -94.731
               562      0.0175052151           -103.327        0.998749445             -6.138        0.998592847             -6.106       0.0162336976            -95.706
               563      0.0174361483           -103.075        0.998805797             -6.136        0.998582853             -6.112       0.0162143877            -95.883
               564      0.0174657174           -103.133        0.999166074             -6.131        0.998243359             -6.163       0.0161245064            -94.744
               565      0.0172404296           -103.728        0.998735493             -6.184         0.99866892             -6.178       0.0160711918             -95.52
               566      0.0171894623            -104.15        0.998302807             -6.211        0.998974706             -6.166       0.0157511509            -94.728
               567      0.0170176662           -102.955         0.99884937             -6.218        0.998619403             -6.206       0.0159257539            -94.149
               568      0.0168030356           -104.019        0.999117573             -6.245        0.998674355             -6.256       0.0156688725             -93.83
               569      0.0170553242           -104.661        0.998990086             -6.229        0.998334957             -6.253        0.015660657            -94.303
               570      0.0169063556           -103.141        0.998997382             -6.266         0.99873438             -6.274       0.0156170859            -94.681
               571      0.0168265057            -103.91        0.999210758               -6.3        0.998214068             -6.261       0.0153901884            -94.051
               572      0.0166153238           -103.895        0.999247357             -6.328        0.998064959             -6.306       0.0152671794            -94.652
               573      0.0164479488           -103.944        0.999049822             -6.354        0.998610772             -6.356       0.0152058866            -94.635
               574      0.0164320917           -103.822        0.998507426             -6.393        0.999039821              -6.32       0.0149552215            -94.552
               575      0.0162453362           -104.551          0.9989737              -6.38        0.998498128             -6.334       0.0149685146            -94.899
               576      0.0159601562           -104.034        0.998650764             -6.408        0.999193358             -6.356       0.0149000299             -94.31
               577      0.0160253363           -104.516        0.999229973             -6.426        0.997971417             -6.367       0.0146607826             -94.88
               578      0.0158632112           -104.308         0.99917166             -6.435        0.998607118             -6.464        0.014631576             -94.06
               579      0.0157286476           -104.536        0.999253855             -6.443        0.998547164             -6.456        0.014678828             -94.04
               580      0.0157907686           -103.736        0.999267975             -6.506        0.998499425             -6.419       0.0144478515            -94.011
               581      0.0156228655           -104.674        0.998860394              -6.47        0.999171742             -6.475       0.0145081051            -93.213
               582      0.0155426335            -104.73          0.9993517              -6.51         0.99798636             -6.491       0.0143457945            -94.512
               583      0.0154393747             -104.2        0.999213417              -6.52        0.998572742             -6.549       0.0140954747            -94.023
               584      0.0153595451           -104.366        0.999217207             -6.549        0.998322948             -6.541       0.0138381602             -94.18
               585      0.0152069839           -104.554        0.999279861             -6.559        0.998415201             -6.554       0.0139892066            -94.306
               586      0.0151957315           -104.488        0.998956927             -6.597        0.998973373             -6.526       0.0137664389             -93.34
               587      0.0150045713           -105.001        0.999335214             -6.585         0.99855868             -6.621       0.0138332298            -93.271
               588      0.0148908555           -105.855        0.999008305             -6.603        0.998860291             -6.617       0.0136810569            -93.353
               589      0.0147016639           -103.961        0.999195086             -6.614        0.999171504             -6.624       0.0135836502            -92.901
               590      0.0147503301           -104.394        0.999069016               -6.7        0.999231211             -6.637       0.0135972706             -92.75
               591      0.0145785598            -104.21        0.998758117              -6.67        0.999241982             -6.678        0.013332593            -94.115
               592      0.0146997547           -105.044        0.998653753             -6.659        0.999222212             -6.696       0.0134589162            -93.838
               593      0.0144317762           -105.397        0.999286883             -6.676        0.998511536             -6.682       0.0134313537            -94.369
               594      0.0144689351           -105.071        0.999241745             -6.712        0.998495976             -6.665       0.0129698982            -93.415
               595      0.0141709837           -104.463         0.99873438             -6.769        0.998939761             -6.744       0.0128159263            -93.399
               596       0.014133398           -105.191        0.999053831             -6.743        0.999071429              -6.77          0.0128114            -92.815
               597      0.0139422263           -104.569        0.999145481             -6.851        0.999071979             -6.798        0.012712534            -93.496
               598      0.0138397537            -104.67        0.999326403             -6.813        0.998795465             -6.752       0.0125307874             -93.03
               599      0.0138975497            -106.65        0.999178164             -6.882        0.998795402             -6.767       0.0126426535            -92.631
               600      0.0138165623           -105.005        0.998619403             -6.863        0.998978175             -6.851       0.0124680921            -92.541
               601      0.0135730687           -105.941        0.998814175              -6.92        0.999039701             -6.863       0.0120594652            -93.472
               602      0.0135384846           -105.709        0.998988307             -6.876        0.999093089             -6.899       0.0122171542            -93.165
               603      0.0135389252           -105.241        0.998955029              -6.91        0.999059118             -6.871       0.0120402135            -93.155
               604      0.0133798117           -106.221        0.998619403              -6.92        0.998986801             -6.878       0.0119550115            -92.555
               605      0.0133090324           -106.329        0.999451288             -6.949        0.998151542              -6.97       0.0120183952            -93.395
               606      0.0134682014           -106.582        0.998424549             -6.941        0.999071915             -6.937       0.0117330143            -93.842
               607      0.0131886396           -106.189        0.999233648             -6.954        0.998274551             -6.958       0.0117327549            -92.535
               608      0.0130560247           -106.075         0.99871015             -6.994         0.99917179             -7.009       0.0115627454            -93.482
               609      0.0126308838           -106.899        0.999038307             -6.994        0.999130441             -6.977       0.0113915741            -92.511
               610      0.0127374076           -106.643        0.998855114             -7.013        0.999105265             -6.992       0.0113875697            -93.562
               611      0.0126055118           -106.812        0.998939491             -7.029        0.999059335             -7.076       0.0112670568            -93.458
               612      0.0126065758            -107.76        0.998842793             -7.097        0.998991149             -7.074       0.0110343598            -92.569
