!{251R15S1R6}
!Johanson Technology Inc.
!www.johansontechnology.com
!Test Board Conditions:
!Substrate Type  RO4350B
!Substrate Thickness        20 mil
!Substrate Dk      3.66
!TL Type: GCPW 
!TL Trace Width  34 mil
!TL Gap  10 mil
!Electrode orientation      Horizontal
!DUT TOPOLOGY	SERIES
!Mounting Pad LxW         26x52 mil
! Created Thu Mar 12 16:36:02 2020
# mhz S ma R 50
! 2 Port Network Data from SP1.SP block
! freq  magS11  angS11  magS21  angS21  magS12  angS12  magS22  angS22  
!     
               500        0.90782053            -31.097        0.413428108              58.61        0.414333454             58.637        0.905732601            -30.979
               501       0.907298097            -31.142        0.414095013             58.543        0.414906272              58.61        0.905732601            -31.004
               502       0.907089208            -31.165        0.414762993             58.471        0.415575561             58.581        0.905107159            -31.117
               503       0.907602574             -31.23        0.415715023              58.41        0.416721319             58.542        0.905619404            -31.169
               504       0.906775965            -31.314         0.41624593             58.358        0.417445708             58.434        0.905836883            -31.216
               505       0.906775965            -31.322         0.41701339             58.297        0.417974705             58.421        0.904690438            -31.263
               506       0.906358401            -31.415        0.417830333             58.244        0.418889973             58.362        0.905002887            -31.315
               507       0.906271929            -31.519        0.418657165             58.187        0.419429071             58.284        0.904812368            -31.395
               508       0.905882658            -31.513        0.419055887             58.138        0.420312151             58.252        0.903903246            -31.425
               509       0.904065716             -31.54        0.419855648             58.063        0.420290913             58.217        0.904586287            -31.486
               510       0.904378023            -31.605        0.420436101             58.037        0.421162796             58.159        0.903441425            -31.521
               511         0.9047946             -31.68         0.42111431              57.93        0.422182279             58.084        0.903129441            -31.631
               512       0.904586287            -31.757        0.422085079             57.897        0.422911992             58.022         0.90302547            -31.695
               513       0.903649474            -31.818        0.422619956             57.844         0.42354543             57.948        0.902817565            -31.755
               514       0.903129441            -31.873        0.423058086             57.798        0.423886905             57.874        0.902298011            -31.789
               515       0.903482354            -31.933        0.424345572              57.76        0.424981157             57.839        0.902235008            -31.828
               516       0.902817565            -31.921        0.424570681             57.663        0.425304522             57.834        0.901363567             -31.87
               517       0.902817565            -32.042        0.425157652             57.622        0.426235875             57.718        0.900948569            -31.968
               518       0.902090273            -32.079        0.426088684             57.598         0.42692344             57.715          0.9012598            -31.997
               519       0.901674941            -32.142        0.426579519             57.531        0.427710587             57.633          0.9012598            -32.037
               520         0.9012598            -32.241        0.427562886             57.454        0.428252592             57.532          0.9012598            -32.133
               521       0.901441108            -32.268        0.428338744             57.411        0.429079098             57.529        0.900300226            -32.134
               522       0.901156044            -32.295        0.428894029             57.336        0.429635343             57.443        0.899394029            -32.264
               523       0.900637446            -32.384        0.429486977             57.305         0.43057618             57.426        0.899601146            -32.277
               524       0.899911911            -32.462        0.430031234             57.197        0.430972938             57.301        0.898979938            -32.346
               525       0.900119147            -32.478        0.431072184               57.2        0.431668144             57.271        0.898772964            -32.404
               526        0.90019496            -32.588        0.431605109             57.118        0.432600062             57.204        0.898227976            -32.477
               527       0.899774185            -32.647        0.432099266             57.082         0.43324497             57.156         0.89791149            -32.473
               528         0.8994467            -32.669         0.43268858             57.021        0.433985713             57.121        0.897688027            -32.561
               529       0.898566038            -32.695         0.43341107              56.96        0.434260172              57.06        0.896912342            -32.654
               530        0.89815203            -32.765        0.434560108             56.929        0.435210992             57.031         0.89815203            -32.667
               531       0.897842171            -32.829        0.435060846             56.836        0.435762647             56.928        0.896912342            -32.744
               532       0.898313928            -32.855        0.435640385             56.822        0.436343121             56.922         0.89655747              -32.8
               533       0.897428795            -32.931        0.435862996             56.744        0.437320665             56.867        0.895570955            -32.812
               534       0.897414553            -33.009        0.437011744             56.688        0.437968734             56.808        0.896072415            -32.891
               535       0.897152561            -33.054        0.437941701             56.635        0.438648149              56.73        0.895707686            -32.998
               536       0.895983475            -33.096        0.438783209             56.572        0.439035866             56.706        0.896189807            -33.013
               537       0.896509089            -33.093        0.439040614             56.547        0.440002047             56.655        0.894550158            -33.075
               538       0.895925774            -33.257        0.439665138             56.426        0.440729408             56.539        0.894585862            -33.135
               539        0.89585516            -33.231        0.440643938             56.435        0.441456382             56.543        0.894000578            -33.195
               540       0.895640057            -33.333        0.441197974             56.346        0.441706214             56.445        0.893271564             -33.23
               541       0.895019128            -33.369        0.442162918               56.3         0.44277421             56.397        0.893680573             -33.34
               542       0.894959385            -33.444        0.442489864             56.241        0.443203648             56.335        0.893106657            -33.381
               543       0.894563151            -33.473        0.443211484             56.167        0.443722044             56.299        0.892505713            -33.417
               544       0.894025693            -33.547        0.443353356             56.141         0.44458008             56.256        0.891969491            -33.445
               545       0.893511639            -33.593        0.444426773             56.036        0.445605163             56.212        0.892689063             -33.57
               546       0.893091004            -33.624        0.445139071             56.052        0.446113858             56.143        0.892577047            -33.588
               547       0.893291613            -33.701        0.445649329             55.966         0.44683096             56.092        0.891031908            -33.636
               548       0.892463375            -33.754        0.446673721              55.91        0.447548806             56.037        0.891744424            -33.712
               549       0.892757894            -33.879        0.447078411             55.851        0.448005865             55.916        0.890192025            -33.756
               550         0.8923975            -33.889        0.448031289             55.776        0.448754013              55.89        0.889627799             -33.85
               551       0.891045744             -33.94         0.44874539             55.773        0.449055479             55.846        0.890635496            -33.858
               552       0.891760594            -34.007        0.449364001             55.631        0.450037058             55.849        0.889299969            -33.944
               553       0.891222304             -34.04        0.450076199             55.636        0.450646546             55.754        0.889582123            -33.999
               554        0.89087342            -34.136         0.45067763             55.564        0.451404622             55.682        0.889233881             -34.05
               555        0.89002048            -34.165        0.451336025             55.499        0.452012037             55.626        0.889405888            -34.107
               556       0.890272371            -34.219        0.451879766              55.47        0.452660809             55.559        0.888429346            -34.177
               557       0.889870756            -34.313        0.452612907              55.38        0.453551842             55.519        0.888028563            -34.222
               558       0.889538493            -34.352         0.45312158             55.396        0.454218424             55.433        0.887696988             -34.25
               559       0.889149717            -34.403        0.453758627               55.3        0.454804648             55.349        0.887309017            -34.356
               560        0.88838251            -34.479        0.454150713             55.203        0.455407313             55.333        0.886747556            -34.387
               561       0.888548187            -34.525        0.455125307             55.167        0.456174479              55.31        0.886912927            -34.452
               562       0.888169084            -34.575        0.455507626             55.106        0.456925769              55.26        0.886228377             -34.48
               563       0.887769049            -34.631         0.45656225             55.082         0.45724609             55.188        0.886135224            -34.522
               564       0.887499079            -34.697        0.457422909             55.015        0.458108037             55.143        0.886069752            -34.617
               565       0.887451641            -34.772        0.457872644             54.945        0.458611242             55.077        0.885002906            -34.664
               566       0.886909221            -34.825        0.458542052             54.887        0.459175989             55.008        0.884767518            -34.691
               567       0.886033209            -34.842        0.459145149              54.86         0.45977992              54.97        0.884708093            -34.755
               568       0.886033209            -34.892        0.459674064             54.773        0.460680681              54.91        0.884606243            -34.892
               569       0.885523315            -34.986        0.460468578             54.766        0.461211364             54.834        0.884097169            -34.861
               570       0.885013713            -35.008        0.461105179              54.66        0.462008536             54.799        0.883893622            -34.945
               571       0.885033566            -35.074        0.462178504             54.623        0.462391394             54.732         0.88360821            -35.008
               572       0.884097169            -35.112        0.462327791             54.603        0.463126892             54.685        0.883690121            -35.031
               573       0.883384958            -35.155        0.462647266             54.538        0.463713778             54.637        0.882571705            -35.128
               574       0.883588388            -35.266        0.463767168             54.447        0.464568758             54.553        0.882368509            -35.192
               575       0.882673321            -35.284        0.464247956             54.451        0.464675741             54.514        0.881759201            -35.192
               576       0.883181575            -35.372        0.465264589             54.321        0.465800553              54.42        0.881759201            -35.302
               577       0.882876587            -35.405        0.465746929             54.319         0.46649823              54.38        0.881454704            -35.326
               578       0.882571705             -35.48        0.466444525             54.277        0.466981849              54.31        0.880440476            -35.401
               579       0.882436008            -35.518        0.467232691             54.169        0.467663226             54.289        0.880507828            -35.462
               580       0.881860723            -35.561         0.46816614             54.113        0.468327867             54.237        0.880643228            -35.542
               581       0.881150313            -35.689        0.468273951             54.026        0.469191353             54.175        0.879629934            -35.539
               582       0.881113729            -35.678        0.469009855             54.014        0.469820506             54.105        0.879998574            -35.643
               583       0.880643228            -35.723         0.46994821             53.994        0.470272951             54.071        0.879731211            -35.683
               584         0.8799338            -35.748        0.470327096             53.967        0.470652099             54.028        0.879022517            -35.704
               585         0.8799338            -35.861        0.470868892             53.834        0.471628455             53.922        0.878718966            -35.824
               586       0.879629934            -35.885        0.471302778             53.826        0.472389244             53.872        0.878011087             -35.87
               587       0.878415519            -35.958        0.472117393             53.773        0.472552429              53.83        0.877606841            -35.924
               588       0.878617805                -36        0.472498028             53.677        0.473369203             53.809        0.877202781            -35.955
               589       0.878516656            -36.025        0.473587248             53.648        0.473914504             53.746        0.877202781            -36.022
               590       0.878516656            -36.164        0.473914504             53.568        0.474678979             53.686         0.87659704            -36.042
               591       0.877606841            -36.173        0.474624333             53.579        0.474897628             53.627        0.876092576            -36.087
               592       0.877707885            -36.218        0.475663689             53.493        0.475718455             53.567        0.875588401            -36.178
               593       0.877101795            -36.247        0.476376139             53.435        0.476485841              53.54        0.876092576             -36.25
               594        0.87659704            -36.311        0.476760207              53.44        0.477034732             53.506        0.875689213            -36.234
               595        0.87659704            -36.426        0.477529274             53.298        0.477859253             53.409        0.875588401            -36.358
               596       0.875689213            -36.428        0.477584254              53.31         0.47813441             53.404        0.874379567            -36.333
               597       0.875386813            -36.502        0.478960832             53.239        0.479015978              53.31        0.875286036            -36.425
               598       0.875185271            -36.531        0.478740314             53.154        0.479457371             53.249        0.873574604            -36.501
               599       0.875084517            -36.599         0.47967822              53.12        0.480341378              53.17        0.873574604            -36.543
               600       0.874379567            -36.664        0.480396683             53.067        0.480507311             53.133        0.873272934            -36.595
               601       0.873976993            -36.745        0.481337835             52.979        0.481060834             53.107        0.872971368             -36.66
               602       0.873876378            -36.787        0.481892315             52.935        0.482114285             53.064        0.872971368            -36.692
               603       0.874345874            -36.824        0.482539939             52.921        0.482873381             52.997         0.87253582            -36.761
               604       0.872569443            -36.861        0.483170043             52.889        0.483114419             52.916        0.872368549            -36.813
               605       0.872669907            -36.904        0.483670946             52.796        0.483893736             52.893        0.872368549            -36.889
               606       0.872569443            -36.961        0.484172368             52.735        0.484841739             52.878        0.871866518            -36.926
               607       0.871966901            -37.016        0.484730113             52.687        0.485176771             52.739        0.870763066            -36.991
               608       0.871565438            -37.068        0.485456142             52.587        0.485735673             52.761        0.870362157            -37.054
               609       0.871766147              -37.1        0.486239236             52.618        0.486687285             52.712        0.870562589            -37.055
               610        0.87116416            -37.145        0.487079666             52.563        0.487023593             52.646        0.870061597             -37.14
               611       0.870362157            -37.188        0.487753057             52.508        0.487696906             52.572        0.870061597            -37.238
               612       0.869961433            -37.272        0.488033911             52.439        0.488539856             52.479        0.869560893            -37.287
