!{251R15S390}
!Johanson Technology Inc.
!www.johansontechnology.com
!Test Board Conditions:
!Substrate Type  RO4350B
!Substrate Thickness        20 mil
!Substrate Dk      3.66
!TL Type: GCPW 
!TL Trace Width  34 mil
!TL Gap  10 mil
!Electrode orientation      Horizontal
!DUT TOPOLOGY	SERIES
!Mounting Pad LxW         26x52 mil
! Created Thu Mar 12 17:13:44 2020
# mhz S ma R 50
! 2 Port Network Data from SP1.SP block
! freq  magS11  angS11  magS21  angS21  magS12  angS12  magS22  angS22  
!     
               500      0.0746585928            -92.737        0.995588336             -2.314         0.99684997             -2.292       0.0739911538            -92.977
               501      0.0743875063            -92.659        0.995520024             -2.343         0.99655208             -2.327       0.0736037599            -92.861
               502      0.0740798339            -92.504        0.995978584              -2.39        0.996896336             -2.363       0.0737224908            -92.938
               503      0.0741990695            -92.882        0.996548544             -2.357        0.996433819             -2.421       0.0734934202            -92.967
               504      0.0736766008            -92.723        0.996849466             -2.407        0.996390506             -2.398        0.073228406            -93.013
               505      0.0735614024            -92.698         0.99655208              -2.46        0.996666819             -2.393       0.0730550092            -92.983
               506      0.0733596819            -92.902        0.996683892             -2.472        0.996569151             -2.458       0.0727289704            -93.006
               507      0.0730397091            -92.767        0.995999304             -2.511        0.997146651              -2.48       0.0725953887            -92.953
               508      0.0729940353            -92.861        0.996867352             -2.515        0.996523106             -2.536       0.0723914662            -93.071
               509      0.0728760587            -93.099        0.996402657             -2.524        0.996517378             -2.582       0.0720501479            -93.286
               510      0.0725404801            -92.889        0.996736645             -2.557        0.996736645             -2.559       0.0720328214            -93.169
               511      0.0723368623             -93.02        0.996918526             -2.598        0.996459534             -2.558       0.0717645006            -93.104
               512      0.0722728079            -93.016         0.99649455             -2.572        0.996838786             -2.603       0.0714043924            -93.091
               513      0.0721041396            -93.018        0.996690225             -2.633         0.99680498             -2.593       0.0714677647            -93.147
               514      0.0717308637            -92.935        0.996107156             -2.657        0.997139821             -2.649       0.0710895983            -93.258
               515       0.071633212            -93.014        0.996241032             -2.675        0.997044231             -2.676       0.0710991527            -93.374
               516      0.0714904122            -93.044        0.996202899             -2.697        0.997120858             -2.722       0.0708431398            -93.294
               517      0.0712301304            -93.098        0.997042658             -2.743        0.996468879             -2.696       0.0709355172            -93.367
               518       0.070964468            -93.032        0.996990342             -2.764        0.996760803             -2.765       0.0703219575            -93.346
               519      0.0708490782            -93.022        0.996630569             -2.783        0.997204441             -2.776       0.0704343002            -93.288
               520      0.0706302378            -93.272        0.996760155              -2.78        0.996874917             -2.789        0.070216741            -93.379
               521      0.0703433552            -93.097        0.996834544             -2.796          0.9970641              -2.82       0.0698752025            -93.382
               522      0.0703916516            -93.181        0.995912435             -2.814        0.997289289             -2.813        0.069746297            -93.347
               523      0.0700519598            -93.239        0.996598639             -2.862        0.997057695             -2.905       0.0694656797            -93.568
               524      0.0697787497            -93.222        0.996720024             -2.891        0.997064339             -2.884       0.0692425708            -93.558
               525      0.0696529296            -93.217        0.997101541             -2.912        0.996413006             -2.918       0.0688794051            -93.706
               526      0.0693357781            -93.147        0.997028089             -2.939        0.997028089             -2.949       0.0687396622            -93.576
               527      0.0692388746            -93.054        0.997011115             -2.946        0.997011115             -2.973       0.0686989343            -93.527
               528      0.0690893708             -93.28        0.995775043              -2.99        0.997381337             -3.046       0.0680473532            -93.537
               529      0.0688731585            -93.356        0.996666819             -3.012        0.997240712             -3.055       0.0682495827            -93.621
               530      0.0688880517            -93.525        0.996882339              -3.03        0.996767575             -3.027       0.0680681429            -93.729
               531      0.0686079907             -93.36        0.996953037             -3.047         0.99718262             -3.056       0.0678851373            -93.522
               532      0.0682758813            -93.466        0.996936082             -3.114        0.997165661             -3.071       0.0677512504            -93.669
               533      0.0681076307            -93.434        0.996198245             -3.124        0.997460652             -3.116       0.0674676794            -93.656
               534      0.0679006136            -93.455        0.997065523             -3.137        0.997180321             -3.132       0.0672626075            -93.649
               535      0.0681536677            -93.529        0.995953891             -3.154        0.997330803             -3.133       0.0670639659            -93.786
               536      0.0675305576            -93.452        0.997011886             -3.184        0.997126677             -3.201       0.0670734022            -93.987
               537      0.0674763212             -93.61        0.996325846             -3.181        0.997473569             -3.215       0.0669347116            -93.718
               538      0.0673007361            -93.502        0.996941821             -3.214        0.997286212             -3.199       0.0667912874             -93.86
               539      0.0670733503            -93.592        0.997011115             -3.276        0.997125907             -3.268        0.066481376             -93.67
               540      0.0669299309            -93.519        0.996713583             -3.233        0.997517163             -3.265       0.0664768415             -93.78
               541      0.0667136013            -93.633        0.996929358             -3.286        0.997273745             -3.304       0.0660715333             -93.97
               542      0.0667421204            -93.624        0.996781571              -3.33         0.99735553             -3.313       0.0659477526              -93.7
               543      0.0665151723            -93.781        0.996599627             -3.349        0.997288291             -3.355       0.0655270656            -94.019
               544      0.0663721992            -93.625        0.997323858             -3.368        0.997094242             -3.328       0.0656275525            -93.884
               545      0.0660465292            -93.623        0.997011115             -3.418        0.997011115             -3.427       0.0653506633             -93.98
               546      0.0656901116            -93.797         0.99655208             -3.418        0.996207943              -3.42       0.0650429155            -93.877
               547      0.0658659615            -93.621        0.996692147             -3.465        0.997495709             -3.425       0.0649024418            -94.034
               548      0.0654664796            -93.793        0.997513972             -3.425        0.996939922             -3.464       0.0648065627            -93.937
               549      0.0652484709            -93.871        0.997402238             -3.506        0.997057807             -3.489       0.0646428266            -94.108
               550      0.0653068198            -93.693        0.996686408             -3.486        0.997719673             -3.541        0.064670845            -93.879
               551      0.0651661673            -93.895        0.997062032             -3.572        0.997406465             -3.512       0.0642942565            -94.029
               552      0.0650374317            -93.792        0.996009275             -3.535        0.997615947             -3.569       0.0639239176            -94.223
               553      0.0646389918            -93.823        0.996424904             -3.585        0.997687598             -3.545       0.0640021515            -94.213
               554      0.0646917986            -93.922        0.997583427             -3.595        0.997124129             -3.596        0.063907117            -93.897
               555      0.0644088633            -93.974        0.997460335             -3.627        0.996771552             -3.625       0.0633498564            -94.271
               556      0.0640938269            -93.988        0.997622425             -3.649         0.99693353              -3.67       0.0634623577             -94.23
               557      0.0640841893            -94.135        0.996324695             -3.665        0.997702119              -3.64       0.0633943999            -94.173
               558       0.063857041            -94.021        0.996916514             -3.718        0.997720258             -3.737       0.0631769696            -94.154
               559      0.0638524189            -94.182        0.997418351             -3.762        0.996844356             -3.677       0.0628749068            -94.421
               560      0.0633982962            -94.055        0.997189246             -3.722        0.997533723             -3.755       0.0627736796            -94.399
               561      0.0632679273            -94.248        0.997547552             -3.772        0.997203071             -3.772       0.0627528721            -94.307
               562      0.0630397221            -94.203         0.99692914             -3.791        0.997618032             -3.748       0.0624042676             -94.42
               563      0.0631482623            -94.248        0.997496555             -3.807        0.997152092             -3.826       0.0624254102            -94.436
               564      0.0625748763            -93.971        0.996666819             -3.807        0.997470361             -3.874        0.062008325            -94.388
               565      0.0626148035            -94.241         0.99718795             -3.885        0.997647278             -3.839       0.0620050443            -94.423
               566      0.0625536871            -94.183        0.997132596             -3.905        0.997591898             -3.893       0.0617238367            -94.574
               567      0.0624628133            -94.129        0.996486778             -3.874         0.99774955             -3.821       0.0615774274            -94.606
               568      0.0621979921            -94.224        0.996956857             -3.909        0.997645768             -3.936       0.0613375415            -94.665
               569      0.0618182498            -94.114        0.997853317              -3.94        0.997049466             -3.964       0.0612514967            -94.587
               570       0.061616922            -94.322        0.997011115             -3.948        0.997700064             -4.005       0.0609958096            -94.487
               571      0.0616227648            -94.187        0.997564946              -4.01        0.997679802             -4.016        0.061008617            -94.556
               572      0.0617667391            -94.581        0.996792298             -3.996        0.997595942             -3.971       0.0606044722             -94.52
               573      0.0614300449            -94.459         0.99685234             -4.089        0.997770897             -4.043       0.0604687279            -94.599
               574      0.0610495988            -94.554        0.996856888             -4.065         0.99789033             -4.035       0.0605316921             -94.52
               575      0.0611430805            -94.356        0.997349364             -4.089        0.997579039             -4.084       0.0602001142            -94.749
               576      0.0609716614             -94.38        0.997190262             -4.109        0.997649591               -4.1       0.0599760734            -94.794
               577      0.0607190697            -94.523        0.997413194             -4.158        0.997528032             -4.131       0.0598652925            -94.836
               578      0.0605370476            -94.668        0.997519137             -4.134          0.9974043             -4.143       0.0599337203            -94.851
               579      0.0604231352            -94.707        0.997707543             -4.185         0.99690381             -4.167       0.0595118232            -94.896
               580      0.0604413249            -94.833        0.996744793             -4.209        0.997663252             -4.153       0.0593791499            -94.886
               581      0.0601535513            -94.704        0.997496251             -4.202        0.997381417             -4.192       0.0593282137            -94.941
               582      0.0599706673            -94.538        0.997674522             -4.268        0.997215182              -4.24        0.058984633            -95.056
               583      0.0597567393            -94.672        0.997555097              -4.28        0.997325428             -4.276       0.0589843628            -95.206
               584      0.0597157468            -94.484        0.997444794             -4.264        0.997559635             -4.242       0.0587271422            -95.085
               585      0.0595270178            -94.607         0.99784739             -4.301        0.997273148             -4.319       0.0587170361            -94.939
               586      0.0596112724            -94.689        0.996731978             -4.316        0.997880168             -4.302        0.058489565            -94.904
               587      0.0592632171            -94.829        0.997666118             -4.341        0.997436423             -4.366       0.0585309028            -95.044
               588      0.0592623872            -94.585        0.996963231             -4.348        0.997767013             -4.363       0.0580402322            -95.189
               589      0.0589300484            -94.945         0.99675127             -4.329        0.997784603             -4.401       0.0580212122            -95.259
               590      0.0587684878            -94.868        0.997113315             -4.406        0.997802335             -4.399       0.0578421618            -95.135
               591      0.0585323904            -94.733        0.996314063             -4.382        0.998036123             -4.427       0.0576296869             -95.23
               592      0.0585047749            -94.661        0.997794975             -4.464        0.997220764             -4.435       0.0575494679            -95.387
               593      0.0582832073            -94.937         0.99779987              -4.48        0.997340472             -4.468       0.0576757756             -95.28
               594      0.0578949999            -94.913        0.997449824             -4.524        0.997679521             -4.507        0.057159847            -95.465
               595      0.0580324909            -94.946        0.997886304             -4.528        0.996945029             -4.477        0.057150655            -95.373
               596      0.0575864602            -95.016        0.997976659             -4.539        0.997172708             -4.562        0.056966611            -95.276
               597      0.0576614509            -94.821        0.997781773             -4.574        0.997781773             -4.551       0.0568506672            -95.124
               598      0.0574487738            -95.082        0.997770739             -4.609        0.997196542             -4.575       0.0568173225             -95.65
               599      0.0571739337            -95.044        0.997580781             -4.597        0.997810509             -4.593       0.0565780628            -95.366
               600        0.05728567            -95.124        0.997576011             -4.618        0.997805738             -4.652       0.0562854311            -95.089
               601      0.0570525835             -94.93        0.997643358              -4.66        0.997758223              -4.67       0.0563735411            -95.605
               602      0.0569501072            -95.204        0.996654303             -4.663        0.997917288              -4.62       0.0560653511            -95.712
               603      0.0566122614            -95.171        0.997724193             -4.658        0.997609332             -4.674       0.0558998321            -95.497
               604      0.0567340443            -95.174        0.997111541             -4.723        0.997915442             -4.698        0.055679297              -95.5
               605      0.0566169624            -95.025        0.997462472             -4.733        0.997807043             -4.733       0.0555579951            -95.585
               606      0.0560925133            -95.232        0.997596461             -4.764        0.997941078             -4.803        0.055412137            -95.479
               607      0.0559595695            -95.111        0.997873558             -4.817        0.997526323             -4.758        0.055147314            -95.726
               608      0.0560001743            -95.417        0.997675665              -4.82         0.99756081             -4.771       0.0552763527            -95.712
               609       0.055794688             -95.45        0.997913398             -4.843        0.997224302             -4.809       0.0549911566            -95.694
               610      0.0557007848            -95.486        0.997266691             -4.846         0.99784093             -4.811       0.0546841309            -95.649
               611       0.055459775            -95.312        0.997420072             -4.864        0.997994398             -4.848       0.0546170329            -95.617
               612      0.0554755017            -95.383        0.996096097             -4.906        0.998235794             -4.891       0.0544316173            -95.606
