!{201R07S1R4}
!Johanson Technology Inc.
!www.johansontechnology.com
!Test Board Conditions:
!Substrate Type  RO4350B
!Substrate Thickness        10 mil
!Substrate Dk      3.66
!TL Type: GCPW 
!TL Trace Width  21 mil
!TL Gap  20 mil
!Electrode orientation      Horizontal
!DUT TOPOLOGY	SERIES
!Mounting Pad LxW         16x21 mil
!Agilent Technologies,N5230A,MY45001966,A.07.50.67
!Agilent N5230A: A.07.50.67
! Created Mon Mar  9 16:23:09 2020
# mhz S ma R 50
! 2 Port Network Data from SP1.SP block
! freq  magS11  angS11  magS21  angS21  magS12  angS12  magS22  angS22  
!     
               500       0.917425797            -25.356        0.390724773             64.071        0.392031485             64.176         0.91732018            -25.586
               501       0.917385827            -25.347        0.391428124             64.055        0.392330459             64.168        0.916857889            -25.599
               502       0.916530162            -25.372        0.392009653              64.06        0.393275382              64.11        0.917057911             -25.64
               503       0.916625009            -25.457         0.39268264             63.958        0.393859842             64.026        0.916202984            -25.704
               504       0.915956099            -25.493         0.39343651             63.912        0.394615972             64.014        0.916483518            -25.768
               505       0.916242655            -25.541        0.394239837             63.843        0.395194149             63.968        0.915399153            -25.805
               506       0.916189147            -25.648        0.394807271             63.809        0.395945255             63.883        0.915134952            -25.868
               507       0.915189161            -25.623        0.395695278             63.779        0.396333578             63.866        0.915399915            -25.884
               508       0.914908979            -25.642         0.39653168             63.751        0.396988467             63.839        0.915225032            -25.947
               509       0.914639599            -25.768        0.397100103             63.651        0.397374505             63.743        0.914323748            -25.983
               510       0.914352627            -25.741        0.397753232              63.65        0.398303128             63.734        0.914457902            -26.024
               511       0.914239805            -25.805        0.398116453             63.592        0.399080149             63.683        0.914134555            -26.088
               512       0.914023929            -25.877        0.398664501             63.526        0.400089879             63.628        0.913392761            -26.119
               513       0.913488592            -25.891        0.399349485               63.5        0.400454454             63.601        0.913698955            -26.176
               514       0.913000377            -25.985        0.400378692             63.433         0.40097838              63.53        0.913631273            -26.232
               515       0.913200185            -26.039        0.400927634             63.364         0.40162061             63.485        0.913095055            -26.316
               516       0.912343807            -26.036        0.401521244             63.372        0.402632222             63.442        0.912974249            -26.333
               517       0.912026933            -26.134        0.402399714             63.271        0.403234482             63.383        0.912552089            -26.374
               518       0.912095645             -26.17        0.403032791             63.268        0.403868873             63.335        0.911990642            -26.396
               519       0.912445577             -26.19        0.403419578              63.21        0.404349556             63.308        0.910976073            -26.454
               520       0.911314431            -26.218        0.404220419             63.165        0.405245544             63.268        0.911734204            -26.542
               521       0.910854092            -26.334        0.404854354             63.095        0.405974554             63.204        0.911378573            -26.535
               522       0.910717554             -26.35        0.405773525              63.07        0.406147428             63.165        0.911137052            -26.582
               523       0.910570888            -26.385        0.406269071             63.013        0.407252502             63.103        0.910466061            -26.662
               524       0.910128698            -26.433        0.407148472             62.966        0.407570563             63.087        0.910547925            -26.694
               525       0.909661393            -26.489        0.407548936              62.96        0.408582502             63.002        0.910289982            -26.733
               526       0.909805773            -26.549        0.408271146             62.881         0.40935367             62.976        0.909596306            -26.793
               527       0.909312616            -26.545        0.408708073             62.857        0.410216587              62.93        0.909522017            -26.887
               528       0.909004829            -26.636        0.409653048             62.797         0.41064467             62.893        0.909318842            -26.891
               529       0.909232614            -26.637        0.410274954             62.756        0.411078729             62.846        0.908186424            -26.927
               530       0.908761668            -26.706        0.410960423             62.729        0.411812951             62.795        0.908238693            -26.959
               531       0.907652866            -26.789        0.411736894             62.669         0.41240107             62.714        0.908698442            -27.021
               532        0.90755936            -26.776        0.412358584             62.642        0.413166442             62.705        0.908081943            -27.051
               533       0.907159525            -26.841        0.413127081             62.514         0.41355537             62.683        0.907995434            -27.142
               534       0.906880367            -26.913        0.413856709             62.528        0.414238061             62.626        0.907507034            -27.163
               535       0.906998676            -26.914        0.414292101             62.507        0.415055959             62.594        0.907207544            -27.201
               536       0.906501663            -26.971        0.414924047              62.45         0.41568907             62.512        0.907023638            -27.273
               537       0.905822121            -26.998        0.415520947             62.387        0.416478822             62.478        0.906865587            -27.332
               538       0.906087567            -27.078        0.416409061             62.315        0.416936744              62.45         0.90619189            -27.358
               539       0.905924346            -27.086        0.416621743             62.305        0.417726408             62.407        0.905820054            -27.407
               540       0.905549206             -27.16        0.417361183             62.256        0.418467808             62.347        0.905653468            -27.463
               541       0.905541457            -27.165        0.418175262              62.21        0.418946279             62.318        0.904811971            -27.497
               542        0.90511029            -27.255        0.419036161              62.18           0.419374             62.269         0.90479773            -27.495
               543       0.904443865            -27.253        0.419354799             62.121        0.420369906             62.259        0.904860473            -27.582
               544       0.903987869             -27.34         0.42049671             62.032        0.420738837              62.18        0.904508396            -27.637
               545       0.904168278            -27.357        0.420725917             61.966        0.421695791             62.116        0.903439898             -27.72
               546       0.903604782            -27.456        0.421335954             61.931        0.422453119             62.041        0.903396743            -27.734
               547        0.90327547            -27.466        0.422153327             61.911         0.42288299             62.019         0.90327547            -27.775
               548        0.90277633            -27.521        0.422649309             61.871        0.423477328             61.977        0.903296159            -27.813
               549       0.903052082            -27.563         0.42365545             61.824        0.424241156             61.946        0.902428491             -27.88
               550       0.902414164            -27.661        0.424283266             61.749        0.424820928             61.883        0.902621976            -27.932
               551       0.902008127            -27.671        0.424972131             61.748        0.425363725             61.859        0.902527514             -27.96
               552       0.901307788            -27.671        0.425229243             61.685        0.426651349             61.866        0.902138305                -28
               553       0.901407026            -27.793        0.426207354             61.605        0.426649203             61.794        0.901718414            -28.016
               554       0.901709517            -27.768        0.426301297             61.572        0.427333218              61.74        0.900775683            -28.114
               555       0.901309619            -27.909        0.427242066              61.55         0.42837489             61.646        0.900583542            -28.137
               556       0.901019864            -27.895        0.427990733             61.459        0.428779848              61.62        0.900294021            -28.255
               557       0.900382543             -27.94        0.428673924             61.483        0.429513745             61.588         0.90048621            -28.244
               558       0.899911436            -28.004        0.428992571             61.378        0.430130037             61.538        0.899807836            -28.248
               559       0.899479666            -28.037        0.430369366             61.324        0.430617178             61.481        0.899686803            -28.357
               560       0.899509347            -28.103        0.430631387             61.288        0.431574405             61.457        0.899198721            -28.381
               561       0.899450331            -28.118        0.431595776             61.288        0.431943742             61.397        0.898622288            -28.425
               562       0.898755699            -28.153        0.432157105              61.23        0.432405946             61.357        0.898859178            -28.483
               563       0.898090191            -28.255        0.432334559             61.177        0.433480887             61.264        0.898710784            -28.522
               564       0.898085378            -28.224        0.433079499             61.174        0.433927951             61.282         0.89818878            -28.532
               565       0.898072279            -28.318        0.433871668             61.111         0.43457155             61.194        0.897762149            -28.622
               566       0.897650634            -28.382         0.43491796             61.004        0.435068201             61.126        0.897237346            -28.702
               567       0.897423089            -28.417        0.435208369             60.965        0.435810048             61.127        0.896906639            -28.704
               568       0.896520926            -28.457         0.43597384             60.933        0.436275104             61.086        0.897347033            -28.758
               569         0.8968052            -28.501          0.4363632             60.887        0.437167751             61.057        0.896495508            -28.797
               570       0.896318804            -28.544        0.437585082             60.827        0.437534706             60.952         0.89600928            -28.885
               571       0.895467854            -28.566        0.437975684             60.817        0.438379261             60.931        0.895983475            -28.913
               572       0.895891517            -28.593         0.43843521             60.767        0.438990806             60.885        0.895169804            -28.956
               573       0.895362349            -28.677        0.439186344             60.671        0.439489828              60.84        0.895259273            -29.027
               574        0.89456726            -28.748        0.439909154             60.671        0.440314512             60.768        0.895391566            -29.052
               575       0.894810127            -28.785        0.440434054             60.585        0.440839895             60.715        0.894398147            -29.117
               576       0.894114223            -28.804        0.440750693             60.547        0.441665019             60.737        0.894526073            -29.123
               577       0.893849388            -28.855        0.441788439             60.563        0.442093721              60.62        0.894055228            -29.161
               578       0.893586273            -28.873         0.44242177             60.523        0.442829443              60.64         0.89410081            -29.228
               579       0.893360707            -28.918        0.442666694             60.482        0.443687146             60.575        0.893360707            -29.243
               580       0.893192046            -29.006        0.443603381             60.382        0.444012143             60.503        0.892883602            -29.315
               581       0.892681888            -28.992        0.444065183             60.396        0.444576726             60.479        0.892784668            -29.327
               582       0.892587985            -29.087        0.444734721             60.319        0.445144525             60.412        0.892279749            -29.379
               583       0.891661469            -29.152        0.445656248              60.29        0.445810199             60.333        0.892483098            -29.444
               584       0.891737875            -29.169        0.445694436              60.28         0.44667044              60.31         0.89214863            -29.485
               585       0.890748924            -29.223        0.446791916             60.182          0.4473066             60.241        0.892083088            -29.587
               586       0.891010997            -29.224        0.447283692              60.11        0.447541244             60.269        0.891421418            -29.602
               587       0.890509885            -29.315        0.448062652             60.083        0.448320651             60.191        0.891227841            -29.633
               588       0.889918018            -29.346        0.448952092             59.981        0.448642074              60.13        0.890635496            -29.733
               589       0.890144299            -29.383         0.44937656             60.029         0.44937656             60.134         0.89055432            -29.692
               590       0.889567075            -29.488        0.449809579             59.946         0.45032774             59.999         0.89028427            -29.795
               591       0.889819405            -29.523        0.450455478             59.904        0.450974383             60.013         0.88961454            -29.813
               592       0.888854872            -29.534        0.451056408             59.901        0.451627998             59.926        0.889571493            -29.852
               593       0.888787997             -29.59        0.452010143             59.814        0.452062186             59.904        0.889197393            -29.931
               594       0.888894052            -29.601        0.452324384             59.807        0.452689061             59.881        0.888484795            -29.968
               595       0.887871263            -29.654        0.452741182             59.713        0.453314906             59.851        0.887871263            -29.994
               596       0.887564657            -29.744        0.453419298             59.649        0.453889358             59.793        0.888177976            -30.028
               597       0.887550741            -29.759        0.454457412             59.619        0.454405094             59.762        0.887959568            -30.098
               598       0.886892751            -29.806        0.455114954             59.575        0.455114954             59.658        0.887709986             -30.18
               599       0.886893307            -29.869        0.455272457             59.547        0.456111873             59.624        0.887199682            -30.192
               600       0.886357822            -29.863        0.456151473             59.552         0.45646668              59.67        0.887378866            -30.188
               601       0.886696366            -29.964        0.456851367             59.448        0.457114427             59.584        0.886390165             -30.27
               602       0.885695532            -30.002        0.457387671             59.413        0.457861845             59.487        0.886511663            -30.347
               603       0.885360948            -30.008        0.458057883             59.407        0.458268875              59.48        0.886074752            -30.323
               604       0.885184786            -30.065        0.458547089             59.339        0.459022465              59.46        0.885898448            -30.394
               605       0.884515978            -30.108        0.459151157             59.283        0.459627159             59.376        0.885738827            -30.479
               606        0.88447808            -30.169        0.459713306             59.253        0.460507889              59.33        0.884987373            -30.479
               607       0.883673306            -30.207        0.460459817             59.178        0.460884111              59.26        0.884996873            -30.573
               608       0.884541732            -30.257        0.460965399             59.162        0.461443282             59.237        0.883829163             -30.58
               609       0.883691804            -30.278        0.461318453             59.085        0.462169016             59.196        0.883793548            -30.637
               610        0.88319902            -30.361        0.462390155             59.067        0.462869515              59.12        0.883809323            -30.704
               611        0.88300459            -30.364        0.462820898             59.075        0.463194038             59.108        0.883411322            -30.677
               612       0.882368509            -30.401        0.463553645             58.995         0.46398079             59.078          0.8830799             -30.77
