!{251R15S3R6}
!Johanson Technology Inc.
!www.johansontechnology.com
!Test Board Conditions:
!Substrate Type  RO4350B
!Substrate Thickness        20 mil
!Substrate Dk      3.66
!TL Type: GCPW 
!TL Trace Width  34 mil
!TL Gap  10 mil
!Electrode orientation      Horizontal
!DUT TOPOLOGY	SERIES
!Mounting Pad LxW         26x52 mil
! Created Thu Mar 12 16:40:34 2020
# mhz S ma R 50
! 2 Port Network Data from SP1.SP block
! freq  magS11  angS11  magS21  angS21  magS12  angS12  magS22  angS22  
!     
               500       0.691034929            -52.628        0.718869404             37.133         0.71969751             37.157        0.691353236             -52.54
               501       0.690001445            -52.734        0.718621158             37.096         0.72011192             37.038        0.689524973            -52.586
               502        0.68968376            -52.788        0.719863245             36.977        0.720692496             37.038        0.689286861            -52.637
               503       0.689128165            -52.811        0.720277751             36.917        0.721356584             36.962        0.688097532             -52.73
               504       0.687859912            -52.927        0.720526569             36.842        0.722270704             36.858        0.687464062            -52.817
               505        0.68738492            -53.019        0.721938163             36.734        0.723019483             36.743        0.686831176            -52.955
               506       0.686831176            -53.079        0.722187555             36.652        0.724019061             36.718        0.685882939            -52.988
               507       0.686198872            -53.133        0.723269248             36.572        0.724936556             36.659        0.685567151            -53.091
               508       0.685409311            -53.199        0.723435806             36.526        0.725020022             36.582        0.684147903            -53.147
               509       0.685014871            -53.312        0.724936556             36.475        0.725688098             36.495        0.683832914            -53.188
               510       0.683518069            -53.339        0.725270478             36.436        0.726524058             36.451         0.68320337            -53.241
               511       0.682888816             -53.46        0.726691366             36.311        0.726858712             36.375        0.682574406            -53.333
               512       0.682181598            -53.534        0.726273169             36.233        0.728366562             36.296        0.681475112            -53.389
               513       0.681475112            -53.607        0.727528482             36.181        0.728953793             36.218        0.681475112            -53.475
               514       0.681161354            -53.644        0.728031214             36.121        0.729289566              36.16        0.680142636            -53.565
               515       0.680299262            -53.725        0.729205608             36.008        0.729793515             36.092        0.679360043            -53.661
               516       0.679438262            -53.796        0.729289566             36.016        0.730381896             36.019        0.678812764            -53.645
               517       0.678344019            -53.884        0.730297813              35.92        0.730970752             35.954        0.677953645            -53.744
               518       0.677953645            -53.952         0.73046599             35.844        0.732149888             35.901        0.677173571            -53.811
               519       0.677095613            -53.981        0.731391654             35.791        0.732655813             35.791        0.676628054            -53.875
               520       0.675927319            -54.099        0.731475863             35.649        0.732993292             35.759        0.674916429            -53.934
               521       0.676082975            -54.188        0.733415358             35.634        0.734006659             35.649        0.675227311            -54.019
               522       0.675382806            -54.237        0.733753186             35.517        0.734852202             35.583         0.67437273            -54.177
               523       0.674217468            -54.264        0.734513868             35.522        0.735359995             35.517        0.673751895            -54.172
               524       0.673596776            -54.341        0.735275339             35.419        0.736122343             35.493        0.673209134            -54.243
               525       0.672589371            -54.451        0.735952864             35.326        0.736715827             35.346         0.67243452            -54.367
               526        0.67243452            -54.543        0.736800649             35.275        0.737649411             35.319        0.671583473            -54.384
               527       0.671583473            -54.554        0.737140037             35.224        0.737989189             35.278        0.670887963            -54.439
               528       0.670887963            -54.648        0.737564491             35.159        0.738924387              35.16        0.670193174            -54.539
               529       0.669653279            -54.753        0.738584178             35.055        0.739775595             35.102        0.670270337            -54.637
               530       0.668882756            -54.815         0.73909455             34.983        0.740031149             35.021        0.668959769            -54.739
               531       0.668574795             -54.88        0.739775595              34.87        0.741054246             34.959        0.668190043            -54.774
               532       0.668190043            -54.968        0.740116353             34.804        0.741993328             34.883        0.667037116            -54.853
               533       0.666730005            -55.037        0.740968934             34.737        0.742677044             34.804        0.666499764            -54.925
               534       0.666116206            -55.064        0.741993328             34.665        0.742506056             34.777        0.665809519            -54.998
               535       0.666039521            -55.179        0.741822497             34.654        0.743618182             34.673        0.664737225            -54.987
               536       0.665119989            -55.234          0.7429336             34.551        0.744046366             34.628        0.664048806            -55.101
               537       0.664201726            -55.324         0.74336139             34.508        0.744646238              34.54         0.66374307            -55.167
               538       0.663361099            -55.368        0.744303395             34.438        0.745675716             34.524        0.663437476            -55.251
               539       0.662979348            -55.454        0.745504038             34.371        0.746448758             34.407        0.662445265            -55.326
               540       0.661911612            -55.495        0.745504038             34.332        0.746362825             34.361        0.661378389            -55.324
               541       0.661378389            -55.553        0.746105085             34.256        0.747825035             34.319        0.661302249            -55.468
               542       0.660389257             -55.63        0.746190989             34.113        0.748169501             34.211        0.659705341            -55.527
               543       0.660085207            -55.712        0.747222602             34.105        0.748772697             34.133        0.659325693            -55.588
               544       0.659325693             -55.76        0.748341793             34.027        0.749203849             34.058        0.658718711            -55.651
               545       0.658112288             -55.84        0.747997248              33.97        0.749980549             34.007        0.657809286            -55.737
               546       0.657355044            -55.905         0.74954895             33.904        0.749894209             33.925        0.657657837            -55.823
               547       0.658112288             -55.99        0.750326007             33.815        0.751017402             33.888        0.656523083            -55.884
               548        0.65637193            -56.049        0.750326007             33.749        0.751449846             33.808        0.655767667            -55.973
               549       0.655918681            -56.146        0.751622894             33.693         0.75248873             33.738        0.655541212             -55.99
               550       0.655465745             -56.18        0.751969109             33.583        0.753268835               33.7        0.654485456            -56.101
               551       0.654033509            -56.251        0.752055687              33.56        0.753095409             33.571        0.653506633            -56.185
               552       0.653280959            -56.307        0.752748675             33.496        0.754310234             33.561        0.653205751            -56.207
               553       0.653055363            -56.392        0.753876143             33.407        0.755527019             33.493        0.652604404            -56.264
               554       0.652153756            -56.496        0.754223396             33.342        0.755440041             33.398         0.65170342            -56.335
               555       0.651628394            -56.531        0.754657687             33.271        0.756397352             33.328        0.651253395            -56.435
               556       0.650653844            -56.588        0.755353072             33.237        0.756484441             33.281        0.650578939            -56.438
               557       0.650728758            -56.646        0.755788014             33.156        0.756832895              33.22        0.648634434            -56.544
               558       0.649605959            -56.722        0.756049099             33.086        0.758315617             33.146        0.649232123            -56.669
               559       0.649007925            -56.808        0.757617504             33.032        0.758752264              33.04        0.648485097            -56.699
               560        0.64796269            -56.828        0.757791972             32.942        0.758577575             33.074        0.646770198            -56.706
               561       0.647738931            -56.928        0.758664915             32.919        0.759801244             32.945        0.646844664              -56.8
               562       0.646026004            -56.965        0.758926993             32.864        0.759626313             32.928        0.645802914            -56.859
               563       0.645728567            -57.067        0.759626313             32.736        0.760063715             32.813        0.645208381            -56.947
               564       0.645208381            -57.095        0.760238746             32.706        0.761202139             32.756        0.644837076            -57.009
               565       0.644688614            -57.122        0.761026886             32.623         0.76172814             32.703        0.643798559            -57.075
               566       0.643798559            -57.234        0.760851673             32.596        0.762517824             32.601        0.642983754            -57.118
               567       0.643131824            -57.312         0.76207901             32.533        0.763132589             32.549        0.642687717             -57.19
               568       0.642096053            -57.396        0.762693421             32.444        0.763747849             32.504        0.642022133            -57.277
               569       0.641652661            -57.415        0.762781234             32.397        0.764275609             32.437        0.641135759            -57.332
               570       0.641209577             -57.51        0.764011684             32.297        0.765156021             32.352        0.640914357            -57.412
               571       0.640398049            -57.573        0.764451611              32.25        0.765596607             32.304        0.639882157            -57.454
               572       0.639513917            -57.609        0.765067934               32.2        0.765772912             32.253        0.638925174            -57.523
               573       0.638557485            -57.697        0.765067934             32.095         0.76586108             32.199        0.638263486            -57.609
               574       0.638557485            -57.746        0.766125645             32.092        0.767096498             32.086        0.637896178            -57.652
               575       0.636795521            -57.804         0.76647854             31.998         0.76744984             32.027        0.637235556            -57.756
               576       0.636722211            -57.904         0.76744984             31.919        0.768422371             31.973        0.636429057            -57.796
               577       0.635769955            -57.958        0.768068581             31.833        0.769041896             31.906        0.636282531            -57.914
               578       0.635330932            -57.984        0.767803345             31.841        0.769573315             31.849        0.634672966            -57.927
               579       0.634453796             -58.08         0.76948472             31.708         0.76966192              31.78         0.63474604            -58.006
               580       0.633650818            -58.155         0.76930756             31.669        0.769927798             31.708        0.633286164            -58.066
               581       0.633140362            -58.147        0.770725982              31.62        0.770814721             31.691        0.633432001            -58.121
               582        0.63226625            -58.219        0.770725982             31.545        0.770992228             31.645         0.63226625            -58.163
               583       0.631756909            -58.335        0.770903469             31.482        0.772147021             31.527        0.631829647            -58.249
               584       0.631320657            -58.374        0.772058129             31.428        0.772324834             31.494        0.630812078            -58.314
               585       0.630594241            -58.436        0.772769548             31.365        0.772680585             31.432        0.630013709              -58.4
               586       0.630013709            -58.556        0.773303543             31.264         0.77401611             31.351        0.629506183            -58.448
               587       0.629071486            -58.553        0.773748821             31.273        0.773927003              31.26        0.628564718            -58.468
               588       0.628564718            -58.624         0.77437264              31.18         0.77437264             31.263        0.627986055            -58.536
               589       0.627841473              -58.7        0.774996962             31.089        0.775175432             31.161        0.627986055            -58.653
               590       0.627046864            -58.762        0.775532496             31.013          0.7760684             31.133        0.627407925            -58.666
               591       0.626036998             -58.82        0.775979057             30.962         0.77687295             31.018        0.626758164            -58.791
               592       0.625748763            -58.891        0.776604674             30.943        0.777141319              30.97        0.625676726             -58.83
               593       0.624956803            -58.965        0.776962396             30.861        0.777767873             30.882        0.625316661            -58.896
               594       0.624956803            -58.996        0.778394933             30.792        0.778484554             30.877        0.624309581            -58.924
               595       0.623878472            -59.086        0.778574185             30.727        0.778484554             30.785        0.624022142             -59.02
               596       0.623591232            -59.134        0.778843142             30.643        0.779560813             30.729        0.622945424            -59.107
               597       0.622228644            -59.224        0.779201895             30.615        0.779471068             30.646        0.622228644            -59.116
               598       0.621727389            -59.279        0.779919897             30.549        0.779560813             30.579        0.621512689              -59.2
               599       0.621155021            -59.295         0.78072844             30.458        0.780279146             30.546         0.62072609            -59.293
               600       0.620583179            -59.372         0.78081833             30.421        0.781267935             30.457        0.619940487            -59.332
               601       0.619797757            -59.462        0.781627805             30.396        0.781807802              30.39        0.619797757            -59.384
               602       0.618942066            -59.441        0.782348042             30.317        0.782077875             30.373        0.619441075            -59.475
               603       0.618657098            -59.547        0.782618302             30.257        0.783068943             30.308        0.618301073            -59.535
               604       0.617945252             -59.61        0.782438118             30.184        0.784151541              30.21        0.617376366             -59.61
               605       0.616950045            -59.666        0.783610055             30.137        0.783700277             30.184        0.616950045            -59.582
               606       0.616027358            -59.761        0.783339452             30.033        0.784151541             30.092         0.61595644            -59.687
               607       0.615460237            -59.783          0.7846934             29.971        0.784332119             30.088        0.615531099            -59.741
               608       0.614964435            -59.838        0.784964471             29.907        0.785235635             30.025        0.614893639            -59.834
               609       0.614681298            -59.917        0.785506892             29.916        0.786411761             29.934        0.614681298            -59.816
               610       0.613550056            -60.027        0.785959197             29.791         0.78659286             29.846        0.613832671            -59.972
               611       0.613267571            -60.098         0.78659286             29.718        0.787317673             29.766        0.612985216            -60.038
               612       0.612632454            -60.085         0.78749898             29.715        0.787952431             29.745        0.612632454            -60.069
