!{201R07S2R7}
!Johanson Technology Inc.
!www.johansontechnology.com
!Test Board Conditions:
!Substrate Type  RO4350B
!Substrate Thickness        10 mil
!Substrate Dk      3.66
!TL Type: GCPW 
!TL Trace Width  21 mil
!TL Gap  20 mil
!Electrode orientation      Horizontal
!DUT TOPOLOGY	SERIES
!Mounting Pad LxW         16x21 mil
!Agilent Technologies,N5230A,MY45001966,A.07.50.67
!Agilent N5230A: A.07.50.67
! Created Mon Mar  9 16:28:02 2020
# mhz S ma R 50
! 2 Port Network Data from SP1.SP block
! freq  magS11  angS11  magS21  angS21  magS12  angS12  magS22  angS22  
!     
               500       0.791354948            -40.352        0.603283326             48.801         0.60390875             48.866        0.790626418            -40.786
               501       0.789950721            -40.381        0.604157262             48.735        0.604365966             48.854        0.790132635            -40.817
               502       0.790041673            -40.475        0.604226822             48.708        0.605689437             48.715        0.788769302            -40.882
               503       0.789132627            -40.537        0.605340875             48.623        0.606038201             48.705        0.788678497            -40.922
               504        0.78904178            -40.596        0.605759174             48.585        0.607225498             48.638        0.787952431            -40.976
               505       0.787952431            -40.719        0.606526806             48.483        0.608275046             48.533        0.787317673            -41.092
               506       0.787227035            -40.723        0.607295412             48.419         0.60834508             48.519        0.786321227            -41.112
               507       0.787656816            -40.787        0.608116848             48.388        0.609659065              48.47        0.786026224            -41.173
               508       0.785778244            -40.827        0.608765455             48.307        0.609887876             48.367        0.785778244            -41.273
               509       0.785054848            -40.892        0.609466726             48.271         0.61059044             48.307        0.785145236            -41.327
               510       0.785416463            -40.991         0.61059044             48.183        0.611857094             48.257        0.784332119            -41.384
               511       0.784332119            -41.006        0.611223439             48.119        0.611857094             48.259        0.783519844            -41.414
               512       0.783068943            -41.104        0.611645803             48.087        0.612561927             48.091        0.783249272            -41.518
               513       0.782888656            -41.158        0.612491407             48.021        0.613691347             48.032        0.782528205            -41.575
               514       0.782798527            -41.213         0.61319697             47.936        0.614610535             48.065        0.782077875            -41.594
               515       0.782257976            -41.262        0.613903345             47.926        0.615460237             47.946        0.781357887            -41.673
               516       0.781447849            -41.319        0.615106052             47.827         0.61595644             47.896         0.78081833            -41.723
               517        0.78081833            -41.393        0.615460237             47.757        0.616524018             47.808        0.780099501             -41.79
               518       0.780099501            -41.502        0.616453042             47.671        0.617376366               47.7        0.778932815             -41.88
               519       0.779291609            -41.516        0.616665994             47.613        0.617874113             47.709        0.779022498            -41.931
               520       0.778663827            -41.598        0.617802982             47.553        0.618443458             47.602        0.778215721            -42.024
               521       0.779291609            -41.619        0.618514663             47.536        0.619940487             47.625        0.777678334            -42.064
               522       0.777678334            -41.694        0.619155878              47.49        0.620368874             47.501        0.777320283            -42.102
               523       0.777499288            -41.754        0.620154644             47.414        0.621441139             47.459        0.776694089            -42.142
               524       0.777488519            -41.847        0.621146418             47.367        0.622220026             47.385        0.776415121            -42.246
               525       0.776336491            -41.874        0.621655814             47.264        0.622443592             47.383        0.775532496            -42.263
               526       0.775353943            -41.935        0.621655814              47.21        0.623017147             47.288        0.774461798             -42.35
               527       0.775621787            -42.028        0.623160619             47.128        0.624093989             47.255        0.774283492            -42.432
               528       0.774907742            -42.022        0.623519442             47.113        0.624740988             47.199          0.7730365            -42.508
               529       0.773927003             -42.07        0.624597153             47.074        0.625460662             47.145        0.773481623             -42.52
               530       0.773125504            -42.172        0.625172693             46.974        0.626541727             47.057        0.772947506            -42.608
               531       0.772858522            -42.242        0.625676726             46.933        0.627046864             46.973        0.772147021             -42.64
               532       0.772058129            -42.247        0.626541727             46.873        0.627407925             46.937        0.771436174            -42.723
               533       0.771791516            -42.328        0.627263475             46.803        0.628420002             46.894        0.770903469            -42.774
               534       0.771169776            -42.354        0.627696923             46.773        0.628926653             46.847        0.769750536            -42.841
               535       0.770282445             -42.49        0.628637088             46.699        0.629941181             46.744        0.769750536            -42.879
               536       0.770016444            -42.482        0.629578662             46.659        0.630086247             46.714         0.76948472            -42.966
               537       0.769396134            -42.564        0.630231346               46.6        0.631538745             46.664        0.768599327            -43.034
               538       0.768599327            -42.652        0.630666845             46.489        0.631684179             46.557        0.767803345            -43.112
               539       0.768422371            -42.706        0.631684179             46.443        0.632994593             46.548        0.767714954            -43.124
               540       0.767008188            -42.777        0.632120682             46.416        0.633286164             46.444        0.766919888             -43.19
               541       0.767361489            -42.796        0.633213259             46.384        0.634453796             46.402        0.766302072            -43.262
               542       0.766919888            -42.869        0.634161686               46.3        0.634672966             46.358        0.765772912            -43.323
               543       0.766213854            -42.905        0.634819122             46.286        0.635696763             46.304        0.765420342            -43.345
               544       0.765067934            -42.934        0.635038419             46.163        0.636062805             46.236        0.764803735            -43.415
               545       0.764891791            -43.032         0.63598958             46.121        0.637162195             46.211        0.764363605            -43.466
               546       0.764363605            -43.131        0.636575618             46.023        0.637529081              46.14        0.763659924            -43.525
               547       0.763396211            -43.141        0.637088844             46.015        0.638190008             46.042        0.762517824             -43.59
               548        0.76319406            -43.226        0.638388392             45.896         0.63890308             46.014        0.762579246            -43.676
               549       0.762254505             -43.26        0.638483973             45.859        0.639587548             45.962        0.761465094            -43.734
               550       0.761640448            -43.314        0.639661188             45.838        0.640398049             45.901        0.761465094            -43.769
               551       0.761202139            -43.409        0.640398049             45.762        0.640766798             45.861        0.761202139            -43.789
               552       0.760501369            -43.483        0.641135759             45.669        0.641504933             45.765        0.759888724            -43.902
               553       0.759713773            -43.498        0.641283403             45.637        0.642169981             45.705        0.759101763            -43.972
               554       0.759888724            -43.544        0.642096053             45.607        0.642983754             45.695        0.758577575            -43.996
               555       0.759227639            -43.582        0.643164418             45.476         0.64353476             45.634        0.758266745            -44.093
               556       0.758141028             -43.69        0.643353992             45.445        0.644095107             45.509        0.757530285            -44.127
               557       0.757617504            -43.742        0.644391792             45.358        0.644837076             45.532        0.757443076            -44.191
               558       0.756920034            -43.772        0.644614396             45.338        0.645802914             45.434        0.756745766            -44.225
               559       0.756832895            -43.822        0.645728567             45.265        0.646174775             45.412        0.755875032            -44.309
               560       0.756049099            -43.911        0.646249172             45.168         0.64669574             45.354        0.755266114            -44.381
               561       0.756136147            -43.966        0.646397994              45.16        0.648410442             45.263        0.754223396            -44.434
               562       0.754831473            -43.992        0.647440705             45.128        0.648335795             45.235        0.753876143            -44.471
               563       0.754310234            -44.076        0.648037294             45.002        0.649082649             45.126        0.752922022            -44.567
               564       0.754197873            -44.194        0.649210153              44.97         0.65010769             45.064        0.752809868            -44.597
               565       0.753442302            -44.213        0.649905182             44.972        0.650728758             45.071        0.752575369            -44.577
               566       0.752228875            -44.216        0.650578939             44.899        0.650728758             44.988        0.752055687            -44.722
               567       0.751969109            -44.311        0.651253395             44.823         0.65170342             44.942        0.752055687            -44.769
               568       0.751562168             -44.35        0.651650766             44.748        0.652476554             44.871         0.75078383            -44.804
               569       0.750758054            -44.396        0.652078679             44.729        0.653280959             44.831        0.750412397            -44.864
               570        0.74963525            -44.516        0.652604404             44.601        0.653506633             44.698        0.748686496            -44.963
               571        0.74937638            -44.557        0.653506633             44.578        0.654184124             44.657        0.748686496            -44.999
               572       0.749290109             -44.54        0.654636174             44.555        0.654786927              44.66        0.748169501            -45.055
               573       0.748169501            -44.629        0.654485456             44.493        0.655163961              44.59        0.747480728            -45.099
               574       0.747652862            -44.747        0.655692174             44.382        0.656069729             44.513        0.747394676            -45.197
               575       0.747480728            -44.722        0.656296367             44.397         0.65637193             44.478        0.746105085            -45.209
               576       0.746878573            -44.823        0.656749877             44.293         0.65743073             44.419        0.745933308            -45.283
               577       0.745933308            -44.862        0.657052391             44.221        0.658642878             44.366        0.745332399            -45.402
               578        0.74576157            -44.904         0.65841543             44.191        0.658642878             44.275        0.745075015             -45.42
               579       0.745246594             -44.98        0.658946264             44.116        0.659933234             44.277        0.744560513            -45.449
               580       0.744217709             -45.06        0.660009216             44.079        0.659857261             44.179        0.744303395            -45.533
               581       0.743446977            -45.055        0.660313232             44.056        0.660693448             44.127        0.743104686            -45.549
               582         0.7429336            -45.132        0.660541335             43.982        0.660921683             44.071        0.742249647            -45.632
               583       0.742506056            -45.209        0.661606861             43.891        0.661987822             44.044        0.742164198            -45.692
               584       0.741395593            -45.284        0.661302249             43.838        0.662521536             43.917        0.741480954            -45.737
               585       0.741054246            -45.307        0.662292749             43.794        0.663132022             43.881        0.740201567            -45.823
               586       0.740883632            -45.341        0.663208372             43.723        0.664048806             43.881        0.740627784            -45.849
               587       0.740542521            -45.435        0.663590256             43.691        0.664890304              43.81         0.73969043            -45.856
               588       0.739945954             -45.51        0.664584182             43.611        0.665273156             43.702        0.739179647            -45.974
               589       0.738924387            -45.514         0.66481376             43.587        0.665349753             43.706        0.738074158            -46.011
               590       0.738414132            -45.575        0.665579596             43.516        0.666653249              43.62        0.737989189            -46.082
               591       0.738329124            -45.652        0.666499764             43.465        0.667190725             43.562        0.737734341            -46.122
               592       0.737734341            -45.742        0.667190725             43.378        0.667728633             43.506        0.736885482            -46.177
               593       0.736970324            -45.765        0.667805513             43.357        0.668343918             43.486        0.736037599            -46.222
               594       0.736037599            -45.826        0.668036205             43.273        0.668574795             43.392        0.735529338             -46.32
               595       0.735190692            -45.858        0.668574795             43.247        0.668959769             43.315         0.73493681             -46.33
               596       0.734852202            -45.913        0.669190859             43.204        0.670193174             43.255        0.734429309            -46.436
               597       0.734006659            -45.924        0.669422029             43.171        0.670579079             43.233        0.734006659            -46.419
               598       0.733753186            -46.066        0.670733503             43.042         0.67111972             43.137        0.733415358            -46.543
               599       0.732824533            -46.061        0.670965206             43.073        0.671428853             43.104        0.732655813            -46.542
               600       0.732318491            -46.156        0.671660796              42.94        0.672124923             43.027        0.731897056            -46.642
               601       0.732149888            -46.171        0.672279704             42.951         0.67266681             43.031        0.731475863            -46.641
               602       0.730802459             -46.24        0.672821716             42.872        0.673209134             42.941        0.731054913            -46.749
               603       0.730634205            -46.282        0.673441693             42.824        0.673984641             42.888        0.730550092            -46.784
               604       0.730297813            -46.343        0.674528028             42.763        0.675071852             42.867         0.73046599            -46.846
               605       0.729037722            -46.425        0.674528028              42.71        0.674994136              42.75        0.728869874            -46.913
               606       0.728198869            -46.457        0.675071852             42.668        0.675382806             42.732        0.728618175            -46.937
               607       0.728534294            -46.475        0.675693903             42.607        0.676472272             42.685        0.727863598            -46.998
               608       0.727779805            -46.561        0.676705958             42.542        0.677251538             42.605        0.727444727            -47.075
               609       0.726691366            -46.606        0.677251538             42.447        0.677251538             42.585        0.726775034            -47.153
               610       0.725855213            -46.646        0.677251538             42.494        0.678109767               42.5        0.726022366            -47.119
               611       0.725437497            -46.717        0.678265926             42.382         0.67842212             42.436        0.725270478            -47.218
               612       0.724686215            -46.745        0.678344019             42.309        0.678969085             42.443        0.724936556            -47.262
