!{251R15S180}
!Johanson Technology Inc.
!www.johansontechnology.com
!Test Board Conditions:
!Substrate Type  RO4350B
!Substrate Thickness        20 mil
!Substrate Dk      3.66
!TL Type: GCPW 
!TL Trace Width  34 mil
!TL Gap  10 mil
!Electrode orientation      Horizontal
!DUT TOPOLOGY	SERIES
!Mounting Pad LxW         26x52 mil
! Created Thu Mar 12 16:54:00 2020
# mhz S ma R 50
! 2 Port Network Data from SP1.SP block
! freq  magS11  angS11  magS21  angS21  magS12  angS12  magS22  angS22  
!     
               500       0.171632686            -87.083        0.982992038              3.319        0.984124401              3.307        0.170844106            -86.141
               501       0.171119696            -87.143        0.984577711              3.292         0.98435103              3.281        0.170529689            -86.339
               502         0.1704708            -87.176        0.983784555              3.235        0.984124401              3.185        0.170137482            -86.334
               503       0.169746176              -87.3        0.984464364              3.174         0.98435103              3.157        0.169824365            -86.396
               504       0.169609432            -87.254        0.983784555              3.157        0.984691071               3.14        0.169570383            -86.373
               505        0.16919986             -87.26        0.983671299              3.119         0.98435103              3.124        0.168966263            -86.365
               506       0.168869027            -87.341        0.983897824              3.091        0.984464364              3.047        0.168480639            -86.497
               507       0.168635886            -87.456        0.984917831              3.016        0.984124401              3.037         0.16828678            -86.538
               508       0.168093144            -87.422        0.984917831              3.043        0.984691071              2.998        0.168035097            -86.611
               509       0.167687234            -87.577        0.984917831              2.982        0.984577711              2.936        0.167552148            -86.599
               510       0.167417171            -87.403        0.983671299              2.942        0.984917831              2.903        0.167012893            -86.624
               511       0.167128302            -87.529         0.98435103              2.923        0.985144643              2.894        0.166647959            -86.645
               512       0.166398727            -87.546        0.984691071               2.84         0.98435103              2.847         0.16626468            -86.737
               513       0.166168998            -87.608        0.985258068               2.85        0.985484958               2.79        0.166054252            -86.697
               514        0.16584409            -87.631        0.985371507              2.777         0.98503123              2.801         0.16559606            -86.817
               515       0.165672338            -87.762        0.985371507              2.729        0.985484958              2.741        0.165367439            -86.791
               516       0.165329366            -87.829        0.985484958              2.773        0.985258068              2.707        0.164987104             -86.73
               517       0.164816239            -87.733        0.984917831              2.653        0.985938896              2.673        0.164493977             -86.86
               518       0.164153444            -87.758        0.984577711              2.667        0.985598423               2.67        0.164399314            -86.836
               519       0.164323622            -87.789        0.985371507               2.59        0.985371507              2.642        0.163945689            -86.861
               520       0.163474493            -87.876         0.98503123              2.567        0.985938896              2.572        0.163549793            -86.985
               521       0.163248801            -87.924        0.985711901              2.563        0.985144643              2.535        0.162817094            -87.004
               522       0.162929603                -88        0.984804445              2.484        0.985598423              2.506         0.16259231            -87.081
               523       0.162386529            -87.955        0.985371507              2.463        0.985144643              2.438        0.162367835            -87.068
               524       0.162293079            -88.063        0.986165943              2.442        0.986393042              2.432        0.162069018            -87.096
               525        0.16197575            -88.031        0.984917831              2.409        0.985258068              2.446        0.161621823            -87.131
               526        0.16154741            -87.997        0.985938896              2.391        0.986279486              2.415        0.161231539            -87.174
               527       0.161101654            -88.141        0.986165943              2.335        0.985484958              2.337        0.160675626            -87.233
               528       0.160546189            -88.198        0.985371507              2.314        0.985711901              2.302        0.160306082            -87.305
               529       0.160546189            -88.186        0.985598423              2.299        0.986279486              2.227        0.160140065             -87.21
               530       0.160121629             -88.24        0.986620193               2.25        0.985711901              2.231        0.159716579            -87.283
               531       0.159606289            -88.317        0.986279486              2.211        0.986847397              2.226        0.159459354            -87.268
               532       0.159459354            -88.359        0.986393042              2.185        0.985598423              2.144         0.15901936             -87.33
               533       0.159184215            -88.379        0.986279486              2.087        0.986393042              2.098        0.158763257            -87.489
               534       0.158876277            -88.418         0.98709523              2.101        0.986867969              2.106        0.158292032            -87.502
               535       0.158179428            -88.481        0.987188301              2.054        0.986279486              2.023         0.15819764            -87.464
               536        0.15823407            -88.434        0.986052413              2.046        0.986506611              2.038        0.157688492            -87.564
               537       0.157779291            -88.454        0.987188301               2.01        0.986733789              1.976        0.157325819            -87.564
               538       0.157217179            -88.539        0.987074653              1.931        0.987301962              1.992         0.15685559            -87.567
               539       0.157057484            -88.632        0.986185553              1.969        0.987548961              1.906        0.156552006            -87.635
               540        0.15644079             -88.61        0.985938896              1.919        0.986620193              1.886        0.156116929             -87.69
               541       0.156278776            -88.586        0.986165943              1.831        0.986620193              1.856        0.155865501            -87.737
               542       0.156098957            -88.684        0.986620193              1.836        0.986733789               1.85         0.15572201            -87.695
               543       0.155596563            -88.714        0.986847397              1.768        0.987301962              1.797         0.15522083            -87.733
               544       0.155381747            -88.719        0.986393042              1.746        0.986847397              1.752        0.154863832            -87.745
               545       0.155095787            -88.746        0.986733789              1.729        0.986961019              1.734        0.154561029            -87.742
               546       0.154935165            -88.743        0.987074653              1.753        0.986847397              1.702        0.154329873            -87.742
               547       0.154205548            -88.843        0.987074653              1.675        0.986961019              1.688        0.154010383            -87.876
               548       0.153850885            -88.901        0.987301962              1.631        0.986620193              1.642        0.153620792            -87.993
               549       0.153461698            -88.915        0.986620193              1.583        0.987415636              1.604        0.153126374            -87.874
               550       0.153144005            -88.965        0.987301962              1.573        0.986961019              1.544        0.153161637            -88.009
               551        0.15309112            -89.063        0.987301962              1.572        0.987301962              1.498        0.152405275            -87.884
               552       0.152580839             -89.14        0.987984202              1.486        0.987984202              1.526        0.152422823            -88.011
               553       0.152300034             -89.09        0.987301962              1.472        0.988097954              1.519        0.151949754            -88.044
               554       0.152002244            -89.116        0.987415636              1.446        0.988097954              1.454        0.151513036            -88.161
               555       0.151766002            -89.162        0.987016686              1.385        0.988381243              1.435        0.151138287            -88.083
               556        0.15140841            -89.125        0.987188301              1.417        0.987301962              1.369        0.150990631            -88.059
               557       0.151077573            -89.197        0.986506611              1.325        0.987870462              1.375        0.150522007             -88.15
               558       0.150452705            -89.274        0.987984202              1.318        0.987529323              1.356        0.150141241            -88.145
               559       0.150123956            -89.208        0.987756736              1.264        0.987870462              1.274        0.149933956            -88.184
               560       0.149899436            -89.364        0.987870462              1.241         0.98843929              1.269        0.149675253            -88.208
               561       0.149779036            -89.384        0.987076997              1.195         0.98866926              1.245        0.149176712            -88.352
               562       0.149313818            -89.381        0.987756736              1.163        0.987529323              1.226        0.149107676            -88.279
               563       0.148901818            -89.396        0.987074653              1.122        0.987756736              1.123         0.14866201            -88.405
               564       0.148816128            -89.401        0.988097954              1.113        0.987643023              1.137        0.148405501            -88.372
               565       0.148508052            -89.475        0.987415636              1.109         0.98843929              1.109        0.147910839            -88.467
               566       0.147996008              -89.5        0.987529323              1.061        0.987756736              1.098        0.147774671            -88.447
               567       0.147740648            -89.493        0.987870462              1.056        0.988097954              1.012        0.147163463            -88.427
               568       0.147740648            -89.583        0.987756736              1.012        0.988553095              0.982        0.147027983            -88.455
               569       0.147180407            -89.608        0.988211719              0.961        0.988097954              0.975        0.146672941            -88.579
               570       0.146824997            -89.646        0.988211719              0.952         0.98843929               0.92        0.146571658             -88.56
               571       0.146335602            -89.684        0.988553095              0.939        0.988553095              0.885        0.146234552            -88.577
               572       0.146352451            -89.764        0.988780744              0.836        0.988780744              0.815        0.145730347            -88.673
               573       0.145948622            -89.755        0.988780744              0.859        0.988780744               0.82        0.145529152            -88.668
               574       0.145646482            -89.763        0.987984202              0.752        0.988325498              0.821        0.144977298             -88.57
               575       0.145445403            -89.869        0.988097954              0.792        0.989008445              0.806        0.144793811            -88.703
               576       0.145194445            -89.843        0.988211719              0.746        0.988894588              0.771        0.144577263            -88.773
               577       0.144777142            -89.871        0.989008445              0.692        0.989122315              0.685        0.143995858            -88.819
               578       0.144244745            -89.972        0.987756736              0.688        0.988666913              0.686        0.143879858            -88.728
               579       0.144128544            -90.027        0.988553095              0.658        0.988325498               0.68        0.143780503            -88.824
               580       0.143681218            -90.024        0.988894588              0.608        0.988553095              0.601        0.143515894            -88.887
               581       0.143548943             -90.08        0.988780744              0.541        0.988894588              0.575        0.142807166            -88.936
               582       0.143021062            -90.033        0.987984202               0.56        0.988780744              0.572        0.142593589            -88.852
               583       0.142790725            -90.082        0.988211719              0.538        0.988780744              0.517        0.142265633            -88.904
               584       0.142560759            -90.092        0.988211719              0.488        0.988325498              0.493        0.142183762            -88.888
               585       0.142282013            -90.215        0.987984202              0.461        0.989236199              0.456        0.141758791            -88.962
               586       0.142200132            -90.265        0.988097954              0.435        0.989350095              0.457        0.141628286            -89.002
               587       0.141644593            -90.242        0.989236199              0.376        0.989122315              0.409         0.14105874            -89.066
               588       0.141237493            -90.304        0.989464005              0.332        0.989691864              0.389        0.140847778            -89.114
               589       0.141074981            -90.356        0.988780744              0.349        0.989464005              0.293        0.140410634            -89.173
               590       0.140620941            -90.375        0.988780744              0.277        0.989008445              0.382        0.140265221             -89.04
               591       0.140588566             -90.38        0.989236199              0.289        0.989236199              0.304        0.140087698            -89.161
               592       0.139910401            -90.494        0.989236199              0.246        0.989464005              0.245        0.139636836            -89.156
               593       0.139829885            -90.326        0.989236199              0.232        0.989464005              0.255        0.139379852            -89.211
               594       0.139524347            -90.444        0.989350095               0.19         0.99003375              0.223         0.13931568            -89.302
               595       0.139059288            -90.566        0.989350095              0.152        0.989350095              0.147        0.138979262            -89.301
               596        0.13873946            -90.587         0.98843929              0.127        0.989008445              0.127        0.138356638            -89.334
               597       0.138611735            -90.643        0.989577928              0.127        0.988894588              0.106        0.138070215            -89.284
               598       0.138420368            -90.669        0.989008445              0.071        0.989577928              0.093        0.138022535            -89.391
               599        0.13805432            -90.758        0.989122315               0.02        0.989464005              0.043        0.137610002            -89.416
               600       0.137831982            -90.717        0.989122315           0.004965        0.989350095              0.064        0.137420018             -89.46
               601        0.13753081            -90.745        0.989464005            -0.0093         0.99026174             -0.078        0.136961972            -89.522
               602       0.137261898            -90.808         0.99003375             -0.095        0.989691864              -0.02        0.136709911            -89.476
               603       0.136908086            -90.811        0.989074716             -0.098        0.990556153             -0.065        0.136498884              -89.5
               604        0.13678863            -90.873        0.990489783             -0.135         0.99003375             -0.088        0.136474025            -89.479
               605       0.136360619            -90.923         0.99023658              -0.15        0.990464616             -0.141        0.136078328            -89.596
               606       0.136505929            -90.953        0.989923226             -0.131        0.990379207             -0.188        0.135722395            -89.609
               607       0.135831345            -91.017        0.989919775             -0.187         0.99003375             -0.178        0.135347426            -89.596
               608       0.135909558            -91.042         0.99003375              -0.23        0.990147739             -0.177        0.135238393             -89.55
               609       0.135549084            -90.984         0.98945623             -0.255        0.990710093             -0.206        0.134848645            -89.577
               610       0.134989504            -91.087        0.989691864             -0.232         0.99003375             -0.298        0.134493099            -89.612
               611       0.135051683            -91.058        0.990375755             -0.333         0.99003375             -0.271        0.134369283            -89.721
               612       0.134384754            -91.148        0.989464005             -0.352        0.989691864             -0.354        0.134044809            -89.653
