!{251R15S510}
!Johanson Technology Inc.
!www.johansontechnology.com
!Test Board Conditions:
!Substrate Type  RO4350B
!Substrate Thickness        20 mil
!Substrate Dk      3.66
!TL Type: GCPW 
!TL Trace Width  34 mil
!TL Gap  10 mil
!Electrode orientation      Horizontal
!DUT TOPOLOGY	SERIES
!Mounting Pad LxW         26x52 mil
! Created Thu Mar 12 17:14:51 2020
# mhz S ma R 50
! 2 Port Network Data from SP1.SP block
! freq  magS11  angS11  magS21  angS21  magS12  angS12  magS22  angS22  
!     
               500      0.0519953808            -94.869         0.99773398             -3.331        0.997963743             -3.302       0.0512052821            -93.334
               501      0.0518699643            -95.083        0.997621842             -3.317        0.997799425             -3.355        0.050654257            -93.277
               502      0.0518284231            -94.956        0.997282035             -3.325        0.998086073             -3.307        0.050900025            -93.422
               503      0.0515548683            -95.029        0.997860156             -3.349         0.99774528             -3.387       0.0506197134            -93.402
               504      0.0515381424             -95.05        0.997651273             -3.375        0.997766139             -3.407       0.0504288148             -93.57
               505      0.0511643807            -95.181        0.997396229             -3.459        0.998001219             -3.408       0.0500170095            -93.468
               506      0.0509213607            -94.839        0.997700064              -3.43        0.997470361             -3.456       0.0499804314              -93.3
               507      0.0509276082            -95.061        0.997363062             -3.484        0.998167166             -3.458        0.049756896             -93.37
               508      0.0507149346            -95.062        0.997897352             -3.511        0.998012245             -3.454       0.0498408993            -93.368
               509      0.0503744609            -95.184        0.998311815             -3.492        0.997264618             -3.497       0.0497119056            -93.477
               510      0.0504489352             -94.88        0.997015715             -3.511        0.998394095             -3.498        0.049454066            -93.524
               511      0.0501079826            -95.254        0.996912217             -3.557        0.998348727             -3.595       0.0490689673            -93.546
               512      0.0502671518            -95.413        0.997549093             -3.532        0.997893694             -3.602       0.0492135029            -93.748
               513      0.0498712252            -95.182        0.996552166             -3.598        0.998366357             -3.622       0.0487640803            -93.866
               514      0.0500557036             -95.48        0.997478561             -3.552        0.997908955             -3.604       0.0489275613            -93.749
               515      0.0496562913            -95.372        0.997296465             -3.629        0.998215433             -3.599       0.0484534025            -93.518
               516      0.0494624726            -95.417        0.997759388             -3.647        0.997989157             -3.649        0.048364402             -93.61
               517      0.0494336268            -95.482        0.998311501             -3.677        0.996833155             -3.654       0.0482861383            -93.728
               518      0.0490080205            -95.569        0.997394941              -3.67        0.998250786             -3.752       0.0481800405            -93.732
               519      0.0489246197            -95.561        0.997418591             -3.755        0.998325717             -3.709        0.047970855            -93.531
               520      0.0486206441            -95.614        0.998338473             -3.748        0.997288263             -3.711       0.0479425034            -93.756
               521       0.048631648            -95.662        0.997628821             -3.749        0.998088352             -3.738       0.0476396966            -93.765
               522      0.0485609894            -95.635        0.997786277             -3.764        0.997671409             -3.817       0.0472484457            -94.119
               523      0.0482810143            -95.761        0.998315204             -3.803        0.996956905             -3.797       0.0473180006            -93.976
               524      0.0481460487            -95.651        0.997917528             -3.843        0.997839407             -3.825       0.0471911598            -94.083
               525      0.0478176496            -95.821        0.997902763             -3.855        0.997902763             -3.874       0.0469719106            -94.026
               526      0.0479379069            -95.829        0.997651978              -3.92        0.998009368             -3.884       0.0466851833            -93.965
               527      0.0476290302            -95.806        0.997635142             -3.875        0.998035384             -3.891        0.046534145              -94.1
               528      0.0474349642            -96.084        0.997237444             -3.957        0.998080629             -3.899       0.0464995315            -94.369
               529      0.0474727798            -96.005        0.998326991             -3.951        0.996998863             -3.944        0.046520531            -94.135
               530      0.0473203158            -96.265          0.9978095             -3.962        0.997579772             -3.959       0.0463284355            -94.337
               531      0.0468138294            -96.207        0.997985356             -3.975        0.997985356             -3.975        0.046235352            -93.923
               532      0.0469779488             -95.93        0.997916148             -4.002        0.998031044             -3.971       0.0460833508            -94.081
               533      0.0468599729            -96.274        0.998255893             -3.979        0.997360198             -4.034       0.0457722259            -93.886
               534      0.0468238463            -96.056        0.997165135             -4.013        0.998303021             -4.046       0.0457422039            -94.228
               535      0.0465126834            -96.189        0.997404666             -4.045        0.998323733             -4.085       0.0454748626            -93.993
               536      0.0464856277            -96.607        0.998087692               -4.1        0.997513311             -4.115         0.04555318            -94.096
               537       0.046069928            -96.567        0.997510632              -4.14        0.997986768             -4.125       0.0451666139            -94.453
               538      0.0461395712             -96.55          0.9972948             -4.132        0.997999111             -4.123       0.0450270562            -94.561
               539      0.0458776046            -96.524        0.997816621             -4.131         0.99770175             -4.149       0.0448849488            -94.539
               540      0.0457977258            -96.323        0.998048194             -4.205         0.99768608             -4.168       0.0447037456            -94.446
               541      0.0456562533            -96.755        0.997815552             -4.212        0.997470979             -4.159       0.0445092492            -94.662
               542      0.0451666138            -96.615        0.998096844             -4.197        0.997510629             -4.198       0.0441537437            -94.462
               543      0.0452583423            -96.584        0.997696945             -4.172          0.9979267             -4.234       0.0442383217            -94.548
               544      0.0455732655            -96.531        0.997723379             -4.206        0.997838253             -4.236       0.0439653109             -94.24
               545      0.0450922398            -96.838        0.998036461             -4.261        0.997589358             -4.298        0.043817925            -94.271
               546       0.044908804            -96.524         0.99765754             -4.289        0.998101686              -4.28       0.0436748568            -94.452
               547      0.0445071596            -96.855        0.998113383             -4.338        0.997883586             -4.329       0.0437703358            -94.281
               548      0.0447561091            -96.782         0.99806982             -4.299        0.997705402             -4.405       0.0435614496            -94.385
               549      0.0443804992            -96.681        0.997796975             -4.349        0.998256583             -4.353       0.0434852712            -94.296
               550      0.0442830412            -96.721        0.998015851             -4.413        0.997786076             -4.401       0.0432202664             -94.72
               551       0.044164303            -96.991        0.997985959              -4.42        0.997582866             -4.384       0.0429112713            -94.662
               552      0.0443123764            -96.875        0.997987361             -4.428        0.997757592             -4.434       0.0429709585            -94.499
               553      0.0437972219            -96.864        0.997983161             -4.508         0.99800752             -4.445       0.0428495794            -94.612
               554      0.0438757561             -96.89        0.997986378             -4.438        0.997986378             -4.479        0.042621096            -94.347
               555      0.0436888244            -97.085        0.998091504             -4.483        0.997861711             -4.537       0.0426206784            -94.443
               556       0.043609444             -97.12        0.997885127             -4.518        0.997770247             -4.505       0.0423770333            -94.789
               557      0.0433167814            -96.817        0.998366568             -4.535        0.997484555             -4.559       0.0422431387            -94.759
               558      0.0434314222            -96.909        0.998054025             -4.575         0.99759451              -4.53       0.0421360723            -95.023
               559      0.0430849795            -96.737        0.998178452             -4.565        0.997989312             -4.555       0.0420703272            -94.715
               560      0.0429149936            -97.285        0.997835732               -4.6        0.998143083             -4.607       0.0419816063            -94.605
               561       0.042769515            -96.703        0.997664056             -4.613        0.998468402             -4.603       0.0416854338            -94.663
               562      0.0426432396            -97.002        0.997815372             -4.642        0.998160065              -4.64       0.0414476766            -94.842
               563       0.042522194            -96.909        0.997506339             -4.646        0.998355039             -4.635       0.0414253002            -95.003
               564       0.042562096            -97.074        0.997982687             -4.675        0.998097591             -4.697        0.041373571            -94.749
               565      0.0421983223            -97.256        0.998147181             -4.708        0.997918754             -4.696       0.0411666175            -94.792
               566      0.0422474877            -97.306        0.997702105             -4.731        0.998276593             -4.717       0.0409120167             -94.58
               567      0.0419926529            -97.126        0.998328139              -4.73        0.998213209             -4.759       0.0410415082            -94.355
               568      0.0418139136            -97.388        0.998092557             -4.782        0.998207474             -4.773       0.0407916072            -94.533
               569      0.0419743089            -97.686        0.998109305             -4.751        0.997777151             -4.768       0.0407317955            -94.643
               570      0.0417818866            -97.126        0.998476955             -4.785         0.99778747             -4.791       0.0407040896            -94.643
               571      0.0416545151            -97.535        0.998431637             -4.802        0.997498115             -4.816       0.0403099337            -94.514
               572      0.0414640563            -97.429        0.998146034             -4.867        0.997864989             -4.834       0.0401764709            -94.953
               573      0.0412688199            -97.288         0.99775072             -4.881         0.99847616             -4.892        0.040116409            -94.763
               574      0.0410878571            -97.406        0.997271693             -4.914        0.998578801             -4.831       0.0398945428            -94.852
               575      0.0410330207             -97.49        0.998121681             -4.924        0.998006774             -4.859       0.0398917868            -95.005
               576      0.0407404693            -97.565        0.997835101             -4.947        0.998420242             -4.899       0.0397856106            -94.845
               577      0.0405881918             -97.72         0.99825824             -4.952        0.997814254             -4.889       0.0395229819            -95.002
               578      0.0405368306             -97.56        0.998560633             -4.968        0.997814454             -5.009       0.0395275403            -94.682
               579      0.0403624244            -97.578        0.998441431             -5.004        0.997992423             -5.001       0.0394255031            -94.835
               580      0.0404520689            -97.581        0.998305441             -5.039          0.9980147             -4.969       0.0392636562            -94.861
               581      0.0402425376            -97.474        0.998011071             -5.037        0.998646097             -5.012       0.0392270238            -94.437
               582      0.0401511021            -97.888        0.998559898             -5.029          0.9971201             -5.046        0.039020917            -95.159
               583      0.0399526501            -97.444        0.998597999             -5.067        0.997689937             -5.091       0.0387432092            -94.962
               584      0.0398482843            -97.522         0.99841461             -5.104        0.997914258             -5.075        0.038522071            -94.988
               585      0.0396689795            -97.576        0.998634298             -5.113        0.997587567             -5.081       0.0386012197            -95.068
               586      0.0396004146            -97.662        0.998044103             -5.147        0.998432669              -5.08       0.0383574505            -94.799
               587      0.0394790898            -97.722        0.998490717             -5.139        0.997969185             -5.165       0.0383457407            -94.928
               588      0.0393435979            -97.929        0.997870246             -5.162        0.998526335             -5.139       0.0381701682            -94.755
               589      0.0392332448            -97.621        0.998461855              -5.16        0.998334956             -5.156       0.0381376763            -94.619
               590      0.0390280113            -97.752        0.998335289             -5.243        0.998450233             -5.209       0.0379600191            -94.719
               591      0.0388901584             -97.71        0.997331903             -5.223        0.998762923             -5.239       0.0377867649            -95.186
               592      0.0390256083            -98.052        0.997706913             -5.215        0.998426688             -5.254       0.0378834638            -95.348
               593       0.038814582            -98.107        0.998440557             -5.231         0.99778889             -5.228       0.0378307467            -95.304
               594      0.0386162789             -97.87        0.998566915             -5.268        0.997861858             -5.225       0.0373181772            -94.933
               595       0.038358905            -97.825        0.998196863             -5.342        0.998426733             -5.293       0.0371848643            -95.141
               596      0.0383736697            -97.817        0.998436349             -5.307        0.998380715             -5.308       0.0371649312            -94.724
               597      0.0382955759            -97.797        0.998271344             -5.385        0.998391913             -5.346       0.0370508866             -95.14
               598      0.0381005437            -97.682        0.998508745             -5.375        0.998186342             -5.315       0.0368791729            -95.171
               599      0.0379233872              -98.4        0.998684181             -5.442        0.997716422             -5.336       0.0369919411            -95.032
               600      0.0379271317            -97.805        0.998274551             -5.421        0.998504439             -5.402         0.03672823            -94.836
               601      0.0376468868             -98.11        0.997996614             -5.478         0.99843091             -5.423       0.0362893398            -95.396
               602      0.0376234241            -98.183        0.998111175             -5.435        0.998522989             -5.462       0.0363963907            -95.062
               603      0.0375299924             -98.09        0.998234156              -5.49        0.998409894             -5.448       0.0363227295            -95.288
               604      0.0372917175            -98.476        0.997613655             -5.487        0.998705485             -5.427       0.0360505907            -95.012
               605      0.0371259825            -98.289         0.99880672             -5.515        0.997534571             -5.516       0.0361974482            -95.388
               606       0.037295433            -98.442        0.997827924             -5.506        0.998466972             -5.538       0.0359215984             -95.44
               607      0.0370112665              -98.3        0.998717125             -5.544        0.997892932             -5.555       0.0357835931            -95.063
               608      0.0369324495            -98.192        0.998063362             -5.575        0.998529645             -5.586       0.0356375724            -95.449
               609       0.036456387            -98.594         0.99832886             -5.552        0.998461161             -5.559       0.0354424411            -95.099
               610      0.0365439771            -98.465        0.998131266             -5.596        0.998443651             -5.573       0.0353765771            -95.499
               611      0.0365007563            -98.326        0.997984423             -5.618        0.998640472             -5.658       0.0352412953            -95.391
               612      0.0364842031            -98.821        0.997826113             -5.675        0.998532868              -5.67       0.0350432894            -95.296
