!{251R14S5R1}
!Johanson Technology Inc.
!www.johansontechnology.com
!Test Board Conditions:
!Substrate Type  RO4350B
!Substrate Thickness        20 mil
!Substrate Dk      3.66
!TL Type: GCPW 
!TL Trace Width  36 mil
!TL Gap  12 mil
!Electrode orientation      Horizontal
!DUT TOPOLOGY	SERIES
!Mounting Pad LxW         26x36 mil
! Created Wed Mar 11 15:48:57 2020
# mhz S ma R 50
! 2 Port Network Data from SP1.SP block
! freq  magS11  angS11  magS21  angS21  magS12  angS12  magS22  angS22  
!     
               500      0.0763572101        -84.6517702         0.99078803        0.620122519        0.989846827        0.516758077       0.0741489475        -83.8984539
               501      0.0763756529        -84.6395861        0.990764974        0.613641768        0.989823204        0.510648302       0.0741843929        -83.8915381
               502       0.076408227        -84.6373475        0.990748612         0.60662349        0.989812052        0.504589506       0.0741980759        -83.8933447
               503      0.0764408004        -84.6351089        0.990732236        0.599605212        0.989800885        0.498530709       0.0742117579        -83.8951513
               504       0.076473373        -84.6328702        0.990715844        0.592586934        0.989789703        0.492471912       0.0742254389        -83.8969579
               505      0.0765059448        -84.6306316        0.990699436        0.585568656        0.989778505        0.486413116        0.074239119        -83.8987645
               506      0.0765385159        -84.6283929        0.990683013        0.578550378        0.989767292        0.480354319       0.0742527982        -83.9005711
               507      0.0765710863        -84.6261543        0.990666575          0.5715321        0.989756064        0.474295522       0.0742664764        -83.9023777
               508      0.0766036559        -84.6239156        0.990650122        0.564513822        0.989744821        0.468236726       0.0742801536        -83.9041843
               509      0.0766362248         -84.621677        0.990633653        0.557495543        0.989733562        0.462177929       0.0742938299        -83.9059908
               510       0.076668793        -84.6194383        0.990617169        0.550477265        0.989722289        0.456119132       0.0743075053        -83.9077974
               511      0.0767013604        -84.6171997        0.990600671        0.543458987        0.989711001        0.450060336       0.0743211797         -83.909604
               512      0.0767339271         -84.614961        0.990584157        0.536440709        0.989699697        0.444001539       0.0743348531        -83.9114106
               513      0.0767664931        -84.6127224        0.990567628        0.529422431        0.989688379        0.437942742       0.0743485257        -83.9132172
               514      0.0767990583        -84.6104837        0.990551084        0.522404153        0.989677046        0.431883946       0.0743621973        -83.9150238
               515      0.0768316228        -84.6082451        0.990534526        0.515385875        0.989665698        0.425825149        0.074375868        -83.9168304
               516      0.0768641866        -84.6060064        0.990517953        0.508367597        0.989654335        0.419766352       0.0743895378         -83.918637
               517      0.0768967497        -84.6037678        0.990501365        0.501349319        0.989642958        0.413707556       0.0744032066        -83.9204436
               518      0.0769293121        -84.6015291        0.990484762         0.49433104        0.989631566        0.407648759       0.0744168746        -83.9222502
               519      0.0769618738        -84.5992905        0.990468144        0.487312762         0.98962016        0.401589962       0.0744305416        -83.9240568
               520      0.0769944348        -84.5970519        0.990451512        0.480294484        0.989608739        0.395531166       0.0744442077        -83.9258633
               521       0.077026995        -84.5948132        0.990434866        0.473276206        0.989597303        0.389472369       0.0744578729        -83.9276699
               522      0.0770595546        -84.5925746        0.990418205        0.466257928        0.989585853        0.383413572       0.0744715372        -83.9294765
               523      0.0770921134        -84.5903359        0.990401529         0.45923965        0.989574389        0.377354776       0.0744852006        -83.9312831
               524      0.0771246716        -84.5880973        0.990384839        0.452221372         0.98956291        0.371295979       0.0744988631        -83.9330897
               525       0.077157229        -84.5858586        0.990368135        0.445203094        0.989551417        0.365237182       0.0745125247        -83.9348963
               526      0.0771897858          -84.58362        0.990351416        0.438184816         0.98953991        0.359178386       0.0745261855        -83.9367029
               527      0.0772223419        -84.5813813        0.990334683        0.431166537        0.989528389        0.353119589       0.0745398453        -83.9385095
               528      0.0772548972        -84.5791427        0.990317936        0.424148259        0.989516854        0.347060792       0.0745535042        -83.9403161
               529      0.0772874519         -84.576904        0.990301175        0.417129981        0.989505304        0.341001996       0.0745671623        -83.9421227
               530      0.0773200059        -84.5746654          0.9902844        0.410111703        0.989493741        0.334943199       0.0745808195        -83.9439293
               531      0.0773525593        -84.5724267         0.99026761        0.403093425        0.989482163        0.328884402       0.0745944758        -83.9457358
               532      0.0773851119        -84.5701881        0.990250807        0.396075147        0.989470572        0.322825606       0.0746081313        -83.9475424
               533      0.0774176639        -84.5679494         0.99023399        0.389056869        0.989458966        0.316766809       0.0746217858         -83.949349
               534      0.0774502152        -84.5657108        0.990217158        0.382038591        0.989447347        0.310708012       0.0746354395        -83.9511556
               535      0.0774827658        -84.5634721        0.990200313        0.375020313        0.989435714        0.304649216       0.0746490924        -83.9529622
               536      0.0775153158        -84.5612335        0.990183454        0.368002034        0.989424067        0.298590419       0.0746627443        -83.9547688
               537      0.0775478651        -84.5589949        0.990166581        0.360983756        0.989412407        0.292531622       0.0746763955        -83.9565754
               538      0.0775804137        -84.5567562        0.990149695        0.353965478        0.989400733        0.286472826       0.0746900457         -83.958382
               539      0.0776129616        -84.5545176        0.990132795          0.3469472        0.989389045        0.280414029       0.0747036951        -83.9601886
               540      0.0776455089        -84.5522789        0.990115881        0.339928922        0.989377344        0.274355232       0.0747173437        -83.9619952
               541      0.0776780556        -84.5500403        0.990098953        0.332910644        0.989365629        0.268296436       0.0747309914        -83.9638018
               542      0.0777106015        -84.5478016        0.990082012        0.325892366          0.9893539        0.262237639       0.0747446383        -83.9656083
               543      0.0777431469         -84.545563        0.990065058        0.318874088        0.989342159        0.256178842       0.0747582843        -83.9674149
               544      0.0777756915        -84.5433243         0.99004809         0.31185581        0.989330403        0.250120046       0.0747719295        -83.9692215
               545      0.0778082355        -84.5410857        0.990031109        0.304837531        0.989318635        0.244061249       0.0747855739        -83.9710281
               546      0.0778407789         -84.538847        0.990014114        0.297819253        0.989306853        0.238002452       0.0747992174        -83.9728347
               547      0.0778733216        -84.5366084        0.989997106        0.290800975        0.989295058        0.231943656       0.0748128601        -83.9746413
               548      0.0779058637        -84.5343697        0.989980084        0.283782697         0.98928325        0.225884859       0.0748265019        -83.9764479
               549      0.0779384051        -84.5321311         0.98996305        0.276764419        0.989271428        0.219826062        0.074840143        -83.9782545
               550      0.0779709459        -84.5298924        0.989946002        0.269746141        0.989259594        0.213767266       0.0748537832        -83.9800611
               551      0.0780034861        -84.5276538        0.989928941        0.262727863        0.989247746        0.207708469       0.0748674226        -83.9818677
               552      0.0780360256        -84.5254152        0.989911867        0.255709585        0.989235885        0.201649672       0.0748810612        -83.9836743
               553      0.0780685645        -84.5231765        0.989894779        0.248691307        0.989224012        0.195590876       0.0748946989        -83.9854808
               554      0.0781011027        -84.5209379        0.989877679        0.241673028        0.989212125        0.189532079       0.0749083359        -83.9872874
               555      0.0781336404        -84.5186992        0.989860566         0.23465475        0.989200225        0.183473282        0.074921972         -83.989094
               556      0.0781661774        -84.5164606         0.98984344        0.227636472        0.989188313        0.177414486       0.0749356074        -83.9909006
               557      0.0781987137        -84.5142219        0.989826301        0.220618194        0.989176387        0.171355689       0.0749492419        -83.9927072
               558      0.0782312495        -84.5119833        0.989809149        0.213599916        0.989164449        0.165296892       0.0749628756        -83.9945138
               559      0.0782637846        -84.5097446        0.989791984        0.206581638        0.989152498        0.159238096       0.0749765086        -83.9963204
               560      0.0782963191         -84.507506        0.989774807         0.19956336        0.989140535        0.153179299       0.0749901407         -83.998127
               561       0.078328853        -84.5052673        0.989757616        0.192545082        0.989128558        0.147120502       0.0750037721        -83.9999336
               562      0.0783613862        -84.5030287        0.989740413        0.185526804         0.98911657        0.141061706       0.0750174026        -84.0017402
               563      0.0783939189          -84.50079        0.989723198        0.178508526        0.989104568        0.135002909       0.0750310324        -84.0035468
               564      0.0784264509        -84.4985514        0.989705969        0.171490247        0.989092554        0.128944112       0.0750446613        -84.0053533
               565      0.0784589823        -84.4963127        0.989688729        0.164471969        0.989080527        0.122885316       0.0750582895        -84.0071599
               566      0.0784915131        -84.4940741        0.989671475        0.157453691        0.989068488        0.116826519       0.0750719169        -84.0089665
               567      0.0785240434        -84.4918354        0.989654209        0.150435413        0.989056437        0.110767722       0.0750855436        -84.0107731
               568       0.078556573        -84.4895968        0.989636931        0.143417135        0.989044373        0.104708926       0.0750991694        -84.0125797
               569       0.078589102        -84.4873582         0.98961964        0.136398857        0.989032297        0.098650129       0.0751127945        -84.0143863
               570      0.0786216303        -84.4851195        0.989602337        0.129380579        0.989020208       0.0925913323       0.0751264188        -84.0161929
               571      0.0786541581        -84.4828809        0.989585021        0.122362301        0.989008107       0.0865325356       0.0751400424        -84.0179995
               572      0.0786866853        -84.4806422        0.989567694        0.115344023        0.988995994        0.080473739       0.0751536651        -84.0198061
               573      0.0787192119        -84.4784036        0.989550353        0.108325744        0.988983869       0.0744149423       0.0751672871        -84.0216127
               574       0.078751738        -84.4761649        0.989533001        0.101307466        0.988971731       0.0683561456       0.0751809084        -84.0234193
               575      0.0787842634        -84.4739263        0.989515637       0.0942891882        0.988959582        0.062297349       0.0751945289        -84.0252258
               576      0.0788167882        -84.4716876         0.98949826       0.0872709101         0.98894742       0.0562385523       0.0752081486        -84.0270324
               577      0.0788493124         -84.469449        0.989480871        0.080252632        0.988935246       0.0501797556       0.0752217676         -84.028839
               578      0.0788818361        -84.4672103         0.98946347       0.0732343539        0.988923061        0.044120959       0.0752353858        -84.0306456
               579      0.0789143591        -84.4649717        0.989446057       0.0662160757        0.988910863       0.0380621623       0.0752490033        -84.0324522
               580      0.0789468816         -84.462733        0.989428632       0.0591977976        0.988898653       0.0320033656         0.07526262        -84.0342588
               581      0.0789794035        -84.4604944        0.989411195       0.0521795195        0.988886431        0.025944569       0.0752762359        -84.0360654
               582      0.0790119248        -84.4582557        0.989393746       0.0451612414        0.988874198       0.0198857723       0.0752898512         -84.037872
               583      0.0790444455        -84.4560171        0.989376286       0.0381429633        0.988861953       0.0138269756       0.0753034657        -84.0396786
               584      0.0790769657        -84.4537784        0.989358813       0.0311246852        0.988849696      0.00776817897       0.0753170794        -84.0414852
               585      0.0791094853        -84.4515398        0.989341329       0.0241064071        0.988837427      0.00170938231       0.0753306924        -84.0432918
               586      0.0791420043        -84.4493012        0.989323832        0.017088129        0.988825146     -0.00434941436       0.0753443047        -84.0450983
               587      0.0791745227        -84.4470625        0.989306324       0.0100698509        0.988812854       -0.010408211       0.0753579162        -84.0469049
               588      0.0792070406        -84.4448239        0.989288805      0.00305157275         0.98880055      -0.0164670077        0.075371527        -84.0487115
               589      0.0792395579        -84.4425852        0.989271273     -0.00396670536        0.988788234      -0.0225258044       0.0753851371        -84.0505181
               590      0.0792720746        -84.4403466         0.98925373      -0.0109849835        0.988775907       -0.028584601       0.0753987465        -84.0523247
               591      0.0793045908        -84.4381079        0.989236175      -0.0180032616        0.988763568      -0.0346433977       0.0754123551        -84.0541313
               592      0.0793371064        -84.4358693        0.989218609      -0.0250215397        0.988751218      -0.0407021944        0.075425963        -84.0559379
               593      0.0793696214        -84.4336306        0.989201031      -0.0320398178        0.988738856       -0.046760991       0.0754395702        -84.0577445
               594      0.0794021359         -84.431392        0.989183442      -0.0390580959        0.988726483      -0.0528197877       0.0754531766        -84.0595511
               595      0.0794346498        -84.4291533        0.989165841       -0.046076374        0.988714098      -0.0588785844       0.0754667824        -84.0613577
               596      0.0794671631        -84.4269147        0.989148229      -0.0530946521        0.988701702       -0.064937381       0.0754803874        -84.0631643
               597      0.0794996759         -84.424676        0.989130605      -0.0601129302        0.988689295      -0.0709961777       0.0754939917        -84.0649708
               598      0.0795321882        -84.4224374         0.98911297      -0.0671312083        0.988676876      -0.0770549744       0.0755075954        -84.0667774
               599      0.0795646999        -84.4201987        0.989095323      -0.0741494865        0.988664446       -0.083113771       0.0755211983         -84.068584
               600       0.079597211        -84.4179601        0.989077666      -0.0811677646        0.988652005      -0.0891725677       0.0755348005        -84.0703906
               601       0.079608583        -84.4381694        0.989100262      -0.0880685152        0.988675227       -0.095857773       0.0755469639        -84.1022469
               602       0.079610896        -84.4679993        0.989140118       -0.094918897        0.988713742       -0.102811439       0.0755585116        -84.1469816
               603      0.0796132094        -84.4978292        0.989179981       -0.101769279        0.988752263       -0.109765105         0.07557006        -84.1917163
               604      0.0796155233        -84.5276591        0.989219851       -0.108619661        0.988790791       -0.116718771       0.0755816093        -84.2364511
               605      0.0796178377         -84.557489        0.989259727       -0.115470042        0.988829326       -0.123672437       0.0755931593        -84.2811858
               606      0.0796201526        -84.5873189        0.989299609       -0.122320424        0.988867866       -0.130626103       0.0756047102        -84.3259205
               607       0.079622468        -84.6171488        0.989339497       -0.129170806        0.988906413       -0.137579769       0.0756162617        -84.3706552
               608      0.0796247838        -84.6469787        0.989379392       -0.136021188        0.988944966       -0.144533436       0.0756278141        -84.4153899
               609      0.0796271001        -84.6768086        0.989419292       -0.142871569        0.988983524       -0.151487102       0.0756393672        -84.4601247
               610      0.0796294168        -84.7066385        0.989459199       -0.149721951        0.989022089       -0.158440768        0.075650921        -84.5048594
               611       0.079631734        -84.7364684        0.989499111       -0.156572333        0.989060659       -0.165394434       0.0756624756        -84.5495941
               612      0.0796340516        -84.7662983        0.989539029       -0.163422715        0.989099236         -0.1723481        0.075674031        -84.5943288
