!{251R15S0R6}
!Johanson Technology Inc.
!www.johansontechnology.com
!Test Board Conditions:
!Substrate Type  RO4350B
!Substrate Thickness        20 mil
!Substrate Dk      3.66
!TL Type: GCPW 
!TL Trace Width  34 mil
!TL Gap  10 mil
!Electrode orientation      Horizontal
!DUT TOPOLOGY	SERIES
!Mounting Pad LxW         26x52 mil
! Created Thu Mar 12 16:28:57 2020
# mhz S ma R 50
! 2 Port Network Data from SP1.SP block
! freq  magS11  angS11  magS21  angS21  magS12  angS12  magS22  angS22  
!     
               500       0.986415123            -16.164        0.163327653             73.948        0.163779568             74.083        0.985166696            -16.025
               501       0.986362677            -16.158        0.163714306             73.953        0.163997275             74.091        0.985341174             -16.03
               502       0.986342622            -16.213        0.163880696             73.858         0.16439091             74.069        0.984754106             -16.05
               503       0.986228064            -16.206        0.164277224             73.841        0.164788673             74.032        0.985320132            -16.114
               504        0.98625651            -16.258        0.164641716              73.81        0.164964267             73.973        0.984668133            -16.143
               505        0.98620962            -16.273        0.164861495             73.787        0.165317654             73.941        0.984167988             -16.17
               506        0.98615336            -16.316        0.165327256             73.773        0.165593947             73.896        0.984905265            -16.173
               507       0.986123103            -16.326        0.165665141             73.798        0.165798705             73.845         0.98396836            -16.208
               508       0.986072294            -16.391        0.165751992             73.669        0.166229752             73.829        0.983804391            -16.231
               509       0.986004957            -16.417         0.16610362             73.607        0.166601573             73.828        0.983963749            -16.274
               510       0.985973071            -16.436        0.166442816             73.678        0.166749697             73.765        0.983592149            -16.289
               511       0.985930396            -16.494        0.166876912             73.608        0.167030683             73.718        0.983662819            -16.306
               512       0.985833022            -16.501        0.167014186             73.604         0.16759203             73.672        0.983226016            -16.386
               513       0.985798451            -16.547        0.167451149             73.575        0.167779205             73.672        0.983531178            -16.371
               514        0.98570297            -16.546        0.167685714             73.503         0.16824651             73.648        0.984228791            -16.443
               515       0.985713062            -16.617        0.167899929             73.497        0.168209497              73.64         0.98265374            -16.468
               516       0.985650224            -16.607        0.168295624             73.504         0.16864475              73.59        0.983496514            -16.462
               517       0.985590192            -16.609        0.168556837             73.416        0.169023221             73.584        0.983549842            -16.529
               518       0.985516929            -16.704         0.16918587             73.366        0.169322273             73.571        0.983476731            -16.549
               519       0.985429281            -16.715        0.169443714              73.35        0.169892991             73.477        0.984182102            -16.575
               520       0.985403941            -16.769        0.169712681             73.348        0.170064746             73.428         0.98359043             -16.61
               521       0.985362757            -16.779        0.169979342             73.302        0.170351571             73.417        0.983209675            -16.643
               522       0.985307504            -16.819        0.170263592             73.291        0.170616799             73.404        0.982701887            -16.671
               523       0.985247535            -16.853        0.170508234             73.215        0.170960334              73.42        0.982868365            -16.693
               524       0.985203866            -16.855        0.171149686             73.215        0.171129983             73.344         0.98293796            -16.747
               525       0.985113568            -16.918        0.171271973             73.183        0.171686561             73.369        0.982734722            -16.733
               526       0.985084111            -16.976        0.171483885             73.103        0.171978166             73.259        0.982252888            -16.805
               527       0.984969946                -17        0.171918645             73.038         0.17239433             73.263        0.983610099            -16.877
               528        0.98494237            -17.015        0.172310134             73.082        0.172627834             73.256         0.98335611            -16.827
               529       0.984866784            -17.027        0.172495389             73.096        0.172952757             73.216        0.983393856            -16.861
               530       0.984827214            -17.093        0.172806487             72.998        0.173324534             73.158        0.983127945            -16.906
               531       0.984783359            -17.132         0.17305761             72.993        0.173516469             73.131        0.982631544            -16.958
               532       0.984708351             -17.17        0.173583172             72.976        0.173843165             73.082        0.983235659            -16.982
               533       0.984694286            -17.187        0.173900735             72.936        0.174121106             73.058        0.982655791            -16.975
               534       0.984611361            -17.197        0.174206695             72.864        0.174568083             73.029        0.982686167            -17.079
               535       0.984532699            -17.243         0.17463454             72.795        0.174714981             73.103        0.982720792            -17.112
               536       0.984511053            -17.294        0.174711139              72.89         0.17511389             72.946        0.982472937            -17.052
               537       0.984393132             -17.27        0.175113075             72.814        0.175536961             72.984         0.98326046            -17.127
               538       0.984381597            -17.343        0.175474287             72.811        0.175777582             72.875        0.982004518            -17.191
               539        0.98430107            -17.382        0.175702507             72.735        0.176168379             72.893        0.982376483            -17.212
               540        0.98421979            -17.421         0.17603219             72.754         0.17631615             72.883        0.982634693            -17.231
               541        0.98424528            -17.414        0.176544154             72.695        0.176584809             72.778        0.981981579            -17.268
               542       0.984107339            -17.431        0.176661727             72.686        0.177130142             72.842        0.981957001            -17.317
               543       0.983999267            -17.496        0.177049529             72.699        0.177314714             72.856        0.982640761            -17.266
               544       0.984000425            -17.553        0.177172081             72.571        0.177723675             72.768        0.981737287            -17.388
               545       0.983984593             -17.56        0.177782209             72.612          0.1778641             72.675        0.981721491            -17.391
               546       0.983890495            -17.603        0.177990476             72.535         0.17833918             72.699        0.982419026            -17.389
               547       0.983790012            -17.588        0.178362031             72.522        0.178629182             72.665        0.982771173            -17.472
               548        0.98376349            -17.663        0.178624366             72.446        0.178953708             72.659        0.981952999            -17.506
               549       0.983737105            -17.783        0.178784166             72.393        0.179340779             72.565        0.980909753            -17.503
               550       0.983658707            -17.744        0.179182025             72.481        0.179533063             72.531        0.981170406            -17.558
               551       0.983566049            -17.736        0.179578165             72.397        0.179992135              72.56        0.981642899              -17.6
               552       0.983568729            -17.804        0.179971905             72.258        0.180241467             72.462        0.981758596            -17.677
               553       0.983484933            -17.857         0.18035065             72.275        0.180496054             72.495        0.981110019            -17.659
               554       0.983355218            -17.876        0.180555377             72.345        0.180992436              72.44        0.981545478             -17.66
               555       0.983324944             -17.86        0.181049386              72.25        0.181257947             72.437        0.981402265            -17.751
               556       0.983314204            -17.904        0.181172515             72.277        0.181527452             72.369        0.980939702            -17.715
               557       0.983170277            -17.978        0.181626302             72.191        0.181898342             72.373        0.981925957            -17.747
               558       0.983191176            -17.962        0.181797527              72.16        0.182174662             72.336        0.980591156            -17.824
               559       0.983092587            -18.054        0.182282267             72.108        0.182492248             72.306        0.980944466            -17.848
               560       0.983008378            -18.057        0.182623734             72.123        0.182792015             72.252        0.981199277            -17.897
               561       0.982999322            -18.064        0.182769287             72.053        0.183211706             72.207         0.98039981            -17.957
               562       0.982911057            -18.154        0.183068752             72.034        0.183448524             72.216        0.980650425            -17.931
               563       0.982862702            -18.151        0.183312827             72.017        0.183756561             72.193        0.980376415            -17.975
               564       0.982815772            -18.236        0.183620902             71.952        0.184044192             72.105        0.980442474            -18.024
               565       0.982694858            -18.218        0.184106314             71.911        0.184509479             72.128        0.980886334            -18.067
               566       0.982357716            -18.264        0.184424944             71.921         0.18476498              72.12        0.981905427            -18.079
               567       0.982538594            -18.306        0.184756454             71.885        0.185118413             72.018        0.981182104            -18.119
               568       0.982437066            -18.296        0.185014063             71.886        0.185504624             72.003        0.981419628            -18.123
               569       0.982474669            -18.393        0.185469013             71.786        0.185661289             71.955         0.98066655            -18.186
               570       0.982393968              -18.4        0.185945506             71.791        0.185881294             71.958         0.98047311            -18.202
               571       0.982352911            -18.406        0.186130497             71.769        0.186216233             71.892        0.980657911            -18.256
               572       0.982305213            -18.445        0.186421693             71.718        0.186636443             71.875        0.980158812            -18.284
               573       0.982200086            -18.507        0.186745424             71.723        0.186960546             71.825        0.980392472            -18.298
               574        0.98210255            -18.541        0.187178878              71.65        0.187265096             71.815        0.980746662            -18.339
               575       0.982085929            -18.597        0.187434481             71.572        0.187628795             71.719        0.980842981            -18.398
               576       0.981950858            -18.605        0.187689404              71.56        0.188013812              71.73        0.980933924            -18.424
               577        0.98190887            -18.643        0.187875947             71.546        0.188395785             71.669        0.980779056            -18.438
               578       0.981916567            -18.628        0.188288843             71.547        0.188592574             71.682        0.979996642            -18.471
               579       0.981807979            -18.673        0.188832419             71.501          0.1889194             71.623        0.980791192            -18.488
               580       0.981792234            -18.742        0.188851132             71.451        0.189286479             71.582        0.979872552            -18.542
               581       0.981687149            -18.763         0.18928801             71.438        0.189418811             71.583        0.980444706             -18.55
               582       0.981698673            -18.821        0.189661073             71.364        0.189792132             71.458        0.979891982            -18.648
               583       0.981597331            -18.788        0.189903675             71.357        0.190122435             71.511        0.979903635            -18.677
               584       0.981606271            -18.869        0.190102279             71.256        0.190430858             71.465        0.979235894              -18.7
               585       0.981501466            -18.867        0.190432449             71.267        0.190871441             71.427        0.979469581             -18.74
               586       0.981465417            -18.939        0.190776555             71.229          0.1910623             71.388        0.978982664            -18.765
               587       0.981317948            -18.914        0.191165599             71.251         0.19136378             71.397        0.979963143            -18.776
               588       0.981327317             -18.96        0.191497844             71.178         0.19169637             71.284          0.9799725            -18.839
               589       0.981271706            -19.005        0.191729649             71.154         0.19203893             71.291        0.979353042            -18.842
               590       0.981166897            -19.045        0.192173229             71.146        0.192372455             71.198        0.980037937             -18.88
               591       0.981178907             -19.08        0.192419111             71.056        0.192685131             71.169        0.979598708            -18.916
               592       0.981028489            -19.125        0.192855318             70.999        0.193144177             71.174        0.979899688            -18.958
               593       0.980971113            -19.167        0.193155117             71.019        0.193266338              71.14        0.979504011            -18.989
               594       0.980935442            -19.195        0.193481937             70.928        0.193593346             71.091        0.979806748            -19.041
               595        0.98094557            -19.228        0.193751427             70.888        0.193818358             71.026        0.979140264            -19.089
               596       0.980878618            -19.218        0.193827443             70.938        0.194207174             71.024         0.97839735            -19.091
               597       0.980769577            -19.268        0.194342142              70.93        0.194566016             70.956        0.979190036            -19.113
               598       0.980727385            -19.281        0.194692088             70.866        0.194804194             71.028         0.97835913            -19.121
               599       0.980616008            -19.357         0.19493911             70.777         0.19523109             70.919        0.979600456            -19.188
               600       0.980578263            -19.382        0.195246052             70.775        0.195583522             70.883        0.978999031            -19.215
               601       0.980518272            -19.401        0.195549041             70.691        0.195887034             70.882        0.978826438            -19.288
               602       0.980471514            -19.446        0.195764969             70.693        0.196080759             70.866         0.97844176            -19.289
               603       0.980259694             -19.46        0.196264226             70.687        0.196580822             70.826        0.979695573            -19.277
               604       0.980352254            -19.535        0.196508867             70.617        0.196735237             70.725        0.978548041            -19.382
               605       0.980312691            -19.576        0.196614084             70.589        0.197067327             70.696        0.977945438            -19.395
               606       0.980269789            -19.558        0.197058702             70.583         0.19737658             70.666        0.978465728            -19.385
               607       0.980188753            -19.604        0.197382986             70.476        0.197769682             70.664        0.977821799            -19.477
               608       0.980186924            -19.659        0.197609994             70.449        0.197792083             70.599        0.977482306            -19.497
               609       0.980041853            -19.625        0.198059019             70.513        0.198355672             70.599        0.978125594            -19.507
               610       0.979974573            -19.664        0.198319221             70.474        0.198639131             70.615        0.977720694            -19.524
               611       0.979968736            -19.715        0.198637948             70.395        0.198958373              70.53        0.977602314            -19.531
               612       0.979875184            -19.801        0.199053931             70.355         0.19919148              70.51        0.977734093             -19.57
