!{251R15S1R9}
!Johanson Technology Inc.
!www.johansontechnology.com
!Test Board Conditions:
!Substrate Type  RO4350B
!Substrate Thickness        20 mil
!Substrate Dk      3.66
!TL Type: GCPW 
!TL Trace Width  34 mil
!TL Gap  10 mil
!Electrode orientation      Horizontal
!DUT TOPOLOGY	SERIES
!Mounting Pad LxW         26x52 mil
! Created Thu Mar 12 16:37:17 2020
# mhz S ma R 50
! 2 Port Network Data from SP1.SP block
! freq  magS11  angS11  magS21  angS21  magS12  angS12  magS22  angS22  
!     
               500       0.879039522            -35.803        0.474305763             54.301        0.475727658             54.342        0.876311279            -35.915
               501       0.878653193            -35.816        0.475190218             54.251        0.476230813             54.346        0.875825311            -35.979
               502       0.877944904            -35.888         0.47584692             54.204        0.477328386              54.27        0.876026537            -36.032
               503       0.877931153            -35.974         0.47677169             54.106        0.477485799             54.242        0.874904117            -36.073
               504       0.877309053            -36.027        0.477917145             54.033        0.478412602             54.149        0.875492865            -36.158
               505       0.876904953            -36.097        0.478632873             53.994        0.479018761             54.093        0.874988858            -36.203
               506       0.876519537            -36.111        0.479139086              53.96        0.479801499             54.069        0.874402922             -36.26
               507       0.876155156            -36.145        0.479822955              53.89        0.480486313             53.997        0.874341357            -36.348
               508       0.875824433            -36.247        0.480304944             53.817        0.481190514             53.952        0.873307232            -36.393
               509       0.875336159            -36.304        0.481032998              53.76        0.482197405             53.885        0.872920854            -36.445
               510       0.874843157            -36.373        0.482036805             53.736        0.482647654              53.83        0.872931568            -36.478
               511       0.874512304            -36.459        0.482354044             53.587        0.483632997             53.755        0.872099272            -36.606
               512       0.874071883            -36.478        0.483166873             53.569         0.48439221             53.692        0.872262396            -36.638
               513       0.873819438            -36.584        0.483917916             53.495        0.485033462             53.583        0.870706329             -36.74
               514       0.873376758             -36.64        0.484676129             53.417        0.485905294             53.513         0.87096686            -36.793
               515       0.873098831            -36.685        0.485527023             53.377        0.486478226             53.429        0.870890206            -36.839
               516       0.872653938            -36.772         0.48634231             53.272        0.487239011             53.375         0.87064689            -36.906
               517       0.872183016            -36.861        0.486751867             53.299        0.487649323             53.322        0.869676281            -36.942
               518       0.871688332            -36.909         0.48770952             53.167        0.488777531             53.253        0.869283093            -37.054
               519       0.871572181            -36.934        0.488037687             53.125         0.48916273             53.259         0.86826713            -37.067
               520       0.870882655            -37.038        0.489057182             53.071        0.489902483             53.153         0.86907977            -37.132
               521       0.870371238            -37.094        0.489953124             53.036        0.490630487             53.096         0.86876943            -37.176
               522       0.870222808             -37.16        0.490546816             52.951        0.491168449             53.047        0.867322198            -37.259
               523       0.869473994            -37.212        0.491254562             52.898        0.492103662             53.008        0.867674025            -37.321
               524       0.869495737            -37.251        0.491832765             52.822        0.492626145             52.936        0.866697326            -37.382
               525       0.868797767            -37.327        0.492570838             52.815        0.493422212              52.87        0.866400504             -37.44
               526       0.868643188            -37.408         0.49322084             52.685        0.494130223             52.743        0.866046914            -37.552
               527       0.868188074            -37.487        0.493700783             52.629        0.495066815             52.711        0.865294246            -37.566
               528       0.867649906            -37.539          0.4948169             52.565        0.495558037             52.644        0.865754035            -37.651
               529       0.867276792            -37.578        0.495116871              52.52        0.496315371             52.615        0.864485524            -37.733
               530        0.86700959            -37.641         0.49593402             52.446        0.496848406             52.575        0.863522983            -37.783
               531       0.866409332            -37.681        0.496847515             52.395        0.497763585              52.51        0.864018659            -37.839
               532       0.866099569            -37.722        0.497757511             52.369        0.498273537             52.449        0.863411487             -37.88
               533       0.865584841            -37.814        0.498264151             52.285        0.498953004             52.397        0.863295828            -37.952
               534       0.864971244            -37.877          0.4994611             52.204          0.4994611             52.338        0.863379374             -38.03
               535       0.864718126            -37.952        0.499717504             52.143        0.500465982             52.261        0.862431404            -38.092
               536       0.864485148            -38.048        0.500331143               52.1        0.501022854             52.177        0.861603662             -38.12
               537       0.863846692            -38.034        0.501171856             52.056        0.501749183             52.161        0.861363916            -38.232
               538       0.863515034            -38.167        0.501729807             51.955         0.50265488             52.044        0.861231494             -38.27
               539       0.863017031            -38.239        0.502538531              51.87        0.503291234             51.969        0.860933023            -38.374
               540       0.862683564             -38.29        0.503270557             51.864        0.503618324             51.943        0.860501286            -38.375
               541       0.862338629            -38.329        0.503532888             51.783        0.504577454             51.929        0.859365355            -38.448
               542       0.861997539            -38.405        0.504435945             51.774        0.505133331             51.795        0.858728795            -38.511
               543       0.861590113             -38.45        0.505068992             51.724        0.505767253             51.793        0.858026511            -38.539
               544       0.861093302             -38.53         0.50617444             51.599        0.506407595             51.682        0.858816166            -38.644
               545        0.86074915            -38.554        0.506788327             51.565        0.506963395             51.727         0.85748514            -38.651
               546       0.860270929            -38.654        0.507557497             51.463        0.507849755             51.608        0.857502208            -38.748
               547       0.859837449            -38.717        0.507769203             51.465         0.50858829             51.507        0.856774153             -38.83
               548       0.859137768            -38.764         0.50840851             51.363        0.509521848             51.515        0.856767159            -38.897
               549       0.858964175            -38.797         0.50924298             51.337        0.510005725             51.416         0.85639683            -38.951
               550       0.858397601            -38.868        0.510197698             51.273        0.510667824             51.366        0.856423341             -38.99
               551       0.858013872            -38.907        0.510792262             51.213         0.51143955             51.328         0.85574488            -39.056
               552       0.857624379            -39.009        0.511207383              51.13        0.512385838             51.237        0.855159486            -39.117
               553       0.857398263             -39.07        0.512191774             51.043        0.512840836              51.16        0.854245303            -39.209
               554       0.857033271            -39.122        0.512681542             50.946        0.513390328             51.115        0.853586784            -39.324
               555       0.856421117            -39.226        0.513082695             50.929        0.514443124             51.036        0.853763074             -39.31
               556       0.856155406            -39.248         0.51416511             50.881        0.514698145             50.996        0.853301685            -39.373
               557       0.855478586            -39.325        0.514587394             50.891        0.515714263              50.92        0.853118074            -39.387
               558       0.855402386            -39.361        0.515490252              50.75        0.515905856             50.927        0.851962457            -39.481
               559       0.854660857            -39.463        0.516349563             50.681         0.51676586             50.817        0.851812118            -39.595
               560       0.854349032             -39.49        0.516993796             50.661        0.517351046             50.793        0.851207285            -39.609
               561       0.853883082            -39.583        0.517664531             50.611        0.518260857             50.646        0.851428942            -39.673
               562       0.853427072            -39.609        0.517984084             50.558        0.519058629             50.658        0.851072221              -39.7
               563       0.853289154            -39.685        0.518437282              50.45        0.519692232              50.57        0.849662058            -39.817
               564       0.852672388            -39.737        0.519376385             50.391        0.520393903             50.562        0.849928122            -39.836
               565       0.852155777            -39.847        0.519899013             50.325         0.52097753             50.432        0.849804434            -39.946
               566       0.852068566            -39.879        0.520564495             50.256        0.521344197             50.395        0.848837473             -40.01
               567       0.851201968            -39.887        0.521594038             50.242        0.522134775             50.408        0.848853256            -40.045
               568        0.85105753            -40.002         0.52252722             50.125         0.52264755             50.264        0.848611512            -40.124
               569       0.850637838            -40.015         0.52299158             50.106        0.523352975             50.256        0.848290683            -40.146
               570       0.850338999            -40.143        0.523590909             50.007        0.524194062             50.137        0.847504665            -40.217
               571       0.849664739            -40.154        0.524321414             49.947        0.525167202             50.091        0.847417826            -40.316
               572        0.84930112            -40.203        0.524942454             49.955        0.525123794             50.082        0.847152696            -40.319
               573       0.848993877            -40.265         0.52541753             49.892        0.526265086             49.956        0.846261451            -40.417
               574       0.848552796            -40.333        0.526294545             49.808        0.526658222             49.911        0.845919174            -40.494
               575       0.847784244            -40.414        0.527090684             49.716        0.527880161             49.833         0.84593178            -40.566
               576       0.847735235            -40.479        0.527485146             49.695         0.52803199             49.811         0.84490958            -40.572
               577       0.847238019             -40.53        0.528269377             49.603         0.52887792             49.731        0.845289425            -40.642
               578       0.846956073            -40.591        0.529067259             49.558         0.52931096             49.668        0.843841513            -40.725
               579       0.846508487            -40.636        0.529518718             49.482          0.5301287             49.625         0.84378406             -40.79
               580       0.846227854            -40.697        0.530258106             49.432         0.53086894             49.573        0.843407223            -40.786
               581       0.845717736            -40.746        0.530854421               49.4        0.531160093               49.5        0.843092912            -40.898
               582       0.845232987            -40.823        0.531528356             49.299        0.532201921             49.448        0.842706683            -40.949
               583       0.844901655             -40.85        0.532360913             49.272         0.53260613             49.366        0.842085445            -41.035
               584        0.84425124            -40.964        0.532931888             49.218        0.533361554             49.307        0.842018643            -41.061
               585       0.843815738            -40.986        0.533761962             49.115        0.534069309             49.269        0.842068887             -41.14
               586       0.843403834            -41.035        0.534423529             49.059        0.534546599             49.225        0.841270327            -41.227
               587        0.84287443            -41.145        0.535011207             48.923        0.535565853             49.142        0.841226372            -41.306
               588       0.842675352            -41.193        0.535439358              48.96        0.535871045             49.062        0.840543688            -41.324
               589       0.842265904            -41.225        0.536165938             48.882        0.536783577             49.017        0.839651794            -41.409
               590       0.841947108            -41.293        0.536765766             48.807        0.537322231             48.971        0.839527273            -41.442
               591       0.841629223            -41.357        0.537243051             48.747        0.538047734             48.862        0.839113691            -41.529
               592       0.841240913            -41.377        0.538109161             48.739         0.53829505             48.843        0.838629984            -41.558
               593       0.840687805            -41.428        0.538932963             48.663        0.539243287             48.809        0.838464631            -41.593
               594       0.840281432            -41.522        0.539044683               48.6        0.540100733             48.713        0.837769927             -41.68
               595       0.839906128            -41.581        0.539983824             48.547        0.540605861             48.673         0.83720295            -41.711
               596       0.839477153            -41.637         0.54064088             48.465        0.541263674              48.62        0.836968053            -41.782
               597       0.839182945              -41.7         0.54107398             48.424        0.541697273             48.534        0.837060116             -41.83
               598       0.838522875            -41.749        0.542144323             48.359        0.542581416              48.48        0.836979681            -41.876
               599       0.838431694            -41.778        0.542335067             48.297        0.543022327             48.413        0.835733261            -42.004
               600       0.838070796            -41.832        0.543351296             48.246        0.543476421              48.35        0.835469706            -42.037
               601       0.837585192            -41.956        0.544100331              48.19        0.544100331             48.237        0.834985609            -42.092
               602       0.837156654            -41.964        0.544636488             48.152        0.544636488             48.223        0.834462325             -42.16
               603       0.836967788            -42.033        0.544827153             48.088        0.545266409             48.185        0.833889958            -42.184
               604        0.83644781            -42.142        0.545743848             47.987         0.54599523               48.1        0.833563805            -42.251
               605       0.835847018            -42.163        0.546105811             47.955        0.546860805             48.083        0.833540675            -42.296
               606       0.835339689            -42.178        0.547032483              47.93        0.547410491             48.055        0.833322515            -42.331
               607       0.835235598            -42.278        0.547279267             47.894        0.548035884             47.884         0.83225995            -42.429
               608       0.834816924            -42.288         0.54807658             47.802        0.548644771             47.917        0.831842767             -42.47
               609       0.834322014            -42.376        0.548698411             47.696        0.549393735             47.826        0.831924095            -42.564
               610        0.83371812            -42.482        0.549501953             47.663        0.550198295             47.708        0.831704862            -42.608
               611       0.833294068            -42.491        0.549918449             47.603        0.550678715             47.723        0.831473266            -42.662
               612       0.833107427            -42.533        0.550935815             47.607        0.550808972             47.715         0.83013936            -42.639
