!{251R15S121}
!Johanson Technology Inc.
!www.johansontechnology.com
!Test Board Conditions:
!Substrate Type  RO4350B
!Substrate Thickness        20 mil
!Substrate Dk      3.66
!TL Type: GCPW 
!TL Trace Width  34 mil
!TL Gap  10 mil
!Electrode orientation      Horizontal
!DUT TOPOLOGY	SERIES
!Mounting Pad LxW         26x52 mil
! Created Thu Mar 12 16:48:05 2020
# mhz S ma R 50
! 2 Port Network Data from SP1.SP block
! freq  magS11  angS11  magS21  angS21  magS12  angS12  magS22  angS22  
!     
               500      0.0183651152           -101.761        0.998785486             -5.757        0.998884002             -5.709       0.0174338642            -95.398
               501      0.0183447984           -101.915        0.998990076             -5.756        0.998546041             -5.771       0.0170240523            -94.921
               502      0.0183200318           -101.962        0.998505643             -5.726        0.999059315             -5.736       0.0173710561            -95.308
               503      0.0181386874           -101.802        0.999068134             -5.761        0.998596541             -5.777       0.0171911867            -95.328
               504      0.0181927119           -102.142        0.998808991             -5.796        0.998829805             -5.824        0.017066617            -95.046
               505       0.017891713            -102.62        0.998588412             -5.847        0.999038665              -5.82       0.0168636633            -94.785
               506      0.0179184319           -101.568        0.999063977             -5.819         0.99873438             -5.857       0.0168306156             -94.64
               507      0.0178535427           -102.224        0.998505833             -5.888        0.999062554             -5.878       0.0166753288            -95.148
               508      0.0177498459           -102.084        0.999143432             -5.882        0.998789546             -5.852       0.0168129758            -94.479
               509      0.0174544035           -102.755        0.999145478             -5.894        0.998405149             -5.884       0.0166592334            -95.288
               510      0.0176307212           -101.629        0.998435645             -5.919        0.999380629             -5.917       0.0166828436            -94.655
               511      0.0173136569           -102.412        0.998032783             -5.919        0.999338358             -5.967       0.0164168113            -95.344
               512      0.0176484006           -102.236        0.998142282             -5.915         0.99917372             -5.977       0.0164780324            -95.749
               513      0.0173414532           -102.314        0.997437029             -5.959        0.999374899             -6.004       0.0161616422            -95.867
               514      0.0174770099           -102.777        0.998765103              -5.93        0.998730995             -5.986       0.0164879679            -95.829
               515      0.0172684276           -102.733        0.998625826             -5.993        0.999113882             -5.969       0.0162014093            -94.689
               516      0.0171906649           -102.415        0.999063643             -6.001        0.998757204             -6.011       0.0160211127            -94.667
               517      0.0173005208           -102.747         0.99918796             -6.037        0.998295187             -6.007       0.0161234946            -95.058
               518      0.0169794851           -103.042        0.998641053             -6.024        0.999050946             -6.091       0.0160407443            -95.177
               519      0.0168713138           -102.708        0.998584001             -6.105        0.999345942              -6.07       0.0159808142            -94.229
               520      0.0167800926           -103.383        0.998978989             -6.094         0.99869748             -6.052       0.0158396053            -95.116
               521      0.0169304181           -103.118        0.998600969             -6.093        0.999028512              -6.07       0.0157332225            -94.926
               522      0.0168229707           -103.441        0.998908683             -6.096        0.998490042             -6.141       0.0156621972            -95.803
               523      0.0166208376           -102.742        0.999357111              -6.13         0.99792432             -6.134       0.0156766372            -95.764
               524      0.0167976557            -103.26        0.998998822             -6.139         0.99843932             -6.123       0.0156818999            -95.813
               525      0.0163690969           -103.309        0.999057698             -6.157        0.998734657             -6.206       0.0154783521            -95.203
               526      0.0165928923           -103.208        0.998426144             -6.249        0.999024398             -6.207       0.0152272716             -95.54
               527      0.0163792699           -103.907        0.998545343             -6.219        0.998906342             -6.229       0.0152895443            -95.747
               528      0.0163156387           -104.556        0.998276345             -6.268        0.998808731             -6.228       0.0151044209            -96.401
               529      0.0162739531           -104.272        0.999201117             -6.263        0.997940759             -6.263       0.0151580404            -95.535
               530      0.0163388138           -104.102        0.998942803             -6.265        0.998489661             -6.274       0.0152307231            -95.648
               531       0.015983401           -104.411        0.998878223             -6.269        0.998804395              -6.29       0.0151362815            -95.121
               532      0.0160215364           -103.913        0.998789139             -6.297         0.99886101             -6.272       0.0150125394            -95.492
               533      0.0159924153           -104.791        0.999055041             -6.282        0.998406869              -6.32       0.0148495762             -94.83
               534      0.0161561614           -103.975        0.998194872             -6.291        0.999145379             -6.351        0.014891491            -95.423
               535      0.0158963476           -104.267        0.998488004             -6.323        0.999033615             -6.356       0.0148097372            -95.448
               536      0.0159817598           -104.549        0.999109641             -6.387         0.99824467             -6.388       0.0147545035            -95.256
               537      0.0157027462           -105.228        0.998367214             -6.407          0.9989077             -6.404        0.014614219            -95.829
               538      0.0157821663           -104.659         0.99847314              -6.42        0.998778342             -6.391       0.0146206478            -96.501
               539      0.0156788047           -105.124        0.998750826             -6.427        0.998469152             -6.445       0.0144182633            -96.146
               540      0.0153896664           -104.416        0.999004433             -6.479        0.998679546             -6.436       0.0144503779            -95.577
               541       0.015484523           -105.309        0.998595329             -6.479        0.998613379              -6.43       0.0142905134            -96.369
               542       0.015044776           -105.688        0.999305608             -6.468        0.997840725             -6.496       0.0141868418            -95.206
               543      0.0153978044           -104.755        0.998591807             -6.432        0.998769792             -6.503       0.0140591414            -96.008
               544      0.0155895075           -104.887        0.998611459             -6.488        0.998687457             -6.506       0.0138813721            -95.122
               545      0.0153272804            -105.24        0.998977248             -6.511        0.998481108             -6.553       0.0138457059            -94.613
               546      0.0151421347           -105.249        0.998532158             -6.544        0.998941386             -6.527       0.0138082012             -95.15
               547      0.0148843805           -105.543        0.998938758             -6.591        0.998851011             -6.563       0.0141068732            -94.889
               548      0.0150798079           -105.252        0.999054693             -6.556        0.998546075             -6.628       0.0139555131            -95.069
               549      0.0148617829           -105.495        0.998659671             -6.555        0.999105873             -6.591        0.013881005            -94.502
               550       0.014859058           -105.238        0.998804468             -6.624        0.998732486             -6.627       0.0136597036             -95.71
               551      0.0148342146           -106.079         0.99894714             -6.636         0.99837422             -6.643       0.0135414309            -95.425
               552      0.0150266078           -105.772        0.998655735             -6.642        0.998777501             -6.656        0.013503954            -94.777
               553      0.0145531482           -105.618        0.998761179             -6.745        0.998860072             -6.659        0.013548991            -95.678
               554      0.0147186617           -105.692        0.998462877             -6.649        0.999057127             -6.691        0.013372676            -94.773
               555      0.0145443152           -106.432        0.998952474             -6.681        0.998561866             -6.723       0.0133919333             -94.94
               556      0.0147761676           -105.897        0.998718184             -6.723        0.998609187             -6.718       0.0132727773            -95.581
               557      0.0144041874           -105.461        0.999167419             -6.726        0.998399062              -6.76       0.0132904218            -95.425
               558      0.0146577151           -105.284        0.999034246             -6.757        0.998426906             -6.741       0.0133295742            -95.723
               559      0.0142249023           -105.275        0.999042011             -6.787        0.998880089             -6.796       0.0132372963            -94.996
               560      0.0142821021           -106.043        0.998967325             -6.806        0.998641439             -6.821       0.0131278055            -95.318
               561      0.0141896065           -105.305        0.998835917             -6.808        0.998991288             -6.812       0.0129351167            -94.804
               562      0.0140687424           -106.096        0.998657178             -6.836        0.998966048             -6.831       0.0129257359            -95.422
               563       0.014139079           -105.967        0.998719482              -6.85        0.998872994             -6.819       0.0129560054            -95.648
               564      0.0141768749           -105.794        0.999171427             -6.835         0.99859079             -6.894       0.0129428675            -94.426
               565      0.0138910075            -106.42        0.999021989             -6.866        0.998778413             -6.867       0.0128746001             -94.72
               566      0.0140829445           -106.371        0.998598867             -6.927         0.99894176             -6.872       0.0125876155            -94.692
               567       0.013968177           -106.041        0.999010213             -6.915        0.998939021             -6.928       0.0126922824            -93.688
               568      0.0135393508           -106.754        0.998941467              -6.95         0.99914275             -6.953       0.0125891916            -93.507
               569      0.0139801429           -107.669        0.998884127             -6.903        0.998428713             -6.936       0.0126069959            -95.028
               570      0.0138784096           -106.031        0.999103896             -6.947        0.998731051             -6.976       0.0126049086            -94.309
               571      0.0138404576           -106.462        0.999051009             -6.976        0.998443279             -6.982       0.0122419457            -94.493
               572      0.0135256233           -106.995        0.999057856             -7.005        0.998526257             -7.023       0.0121634644            -94.675
               573      0.0134738555           -106.795        0.998703758             -7.027        0.999060949             -7.059       0.0123350775            -94.799
               574      0.0135117092           -107.149        0.998419808              -7.08         0.99916422              -6.99        0.012095123            -94.018
               575      0.0133570655           -107.022        0.999041787             -7.047        0.998547903             -7.031       0.0121635699            -95.324
               576      0.0132183232           -107.058        0.998673489             -7.095        0.999129692             -7.047       0.0120733104            -94.436
               577      0.0131475492           -107.839        0.999284851             -7.093        0.998058858             -7.053       0.0119893269            -94.718
               578      0.0132436059           -107.645        0.999036944              -7.11        0.998729433             -7.144       0.0119112201            -93.727
               579      0.0129458553           -107.711        0.998877084             -7.139        0.999098024             -7.126       0.0119806602            -93.847
               580      0.0133295748           -107.218        0.999091172             -7.156        0.998617901             -7.092       0.0120051142            -94.274
               581       0.013026057           -107.505        0.998878523             -7.164        0.999190682             -7.138       0.0119210079            -93.015
               582      0.0130317902           -108.357        0.999314211             -7.145        0.997939194              -7.16       0.0118019584            -94.362
               583      0.0130164462           -107.756        0.999193217              -7.18        0.998445301             -7.207       0.0116142836            -93.781
               584      0.0128534999           -107.694        0.999234454             -7.221         0.99827823             -7.208       0.0115311176            -94.616
               585      0.0128329283            -107.57        0.999237995             -7.208        0.998300226             -7.205        0.011543188            -94.729
               586      0.0127727772           -107.579        0.998916848             -7.236        0.998993904              -7.19       0.0114547427             -93.59
               587      0.0125540796           -107.802         0.99930113             -7.234        0.998688913             -7.257       0.0115567276            -93.589
               588      0.0125706131           -108.852        0.998672427             -7.256        0.999078606             -7.263        0.011363352            -93.704
               589      0.0124359376           -107.344        0.999191486             -7.276        0.998977679             -7.267       0.0113104149            -93.192
               590      0.0125114178           -108.026        0.999002387             -7.339        0.999121319             -7.312        0.011371206            -92.865
               591      0.0124245539           -107.273        0.998357776             -7.316        0.999442021             -7.338       0.0112688813            -93.744
               592      0.0125104878           -108.547        0.998521899             -7.304        0.999151498             -7.351       0.0112687111            -94.234
               593      0.0124647466           -108.567        0.999094235              -7.33        0.998558592              -7.33       0.0113706019            -94.941
               594      0.0123436094           -108.488        0.999066785             -7.365         0.99865475             -7.326        0.010831589            -93.448
               595      0.0121095007           -107.866        0.999108461             -7.418        0.999028405              -7.38       0.0110618111            -93.723
               596      0.0122133347           -108.515        0.998894932             -7.404        0.999060617             -7.399       0.0108964307            -93.109
               597      0.0120413786           -108.284        0.998652312             -7.478        0.999211588             -7.447        0.010777703            -93.948
               598      0.0119515847           -107.616        0.999306226             -7.463        0.998778174             -7.404       0.0106396047            -92.797
               599      0.0120622055           -109.785         0.99906196             -7.493        0.998766744              -7.43        0.010786405            -92.997
               600      0.0120057729           -108.208        0.998678551             -7.509        0.999333215              -7.47       0.0106841536            -92.488
               601      0.0118502395             -109.2        0.998897621             -7.547        0.998945348             -7.509       0.0105142217            -93.707
               602      0.0118965003           -109.398        0.998650725             -7.505        0.999190248             -7.526       0.0105516219            -92.919
               603      0.0118949106           -108.984        0.998682136             -7.533        0.999051742              -7.51       0.0104583021            -93.987
               604      0.0117875627           -109.756        0.998170008             -7.548        0.999333201             -7.515         0.01029613            -92.768
               605       0.011712454           -109.673        0.999449369             -7.569        0.998039887             -7.592       0.0105256251            -93.313
               606      0.0118683492           -110.726        0.997976044             -7.562        0.999180308             -7.582       0.0102456689             -93.89
               607      0.0116137927           -110.148        0.999234271             -7.572        0.998601516             -7.602        0.010231141            -92.205
               608      0.0116791103           -109.843        0.998514349             -7.613        0.999166835             -7.628       0.0101697379            -93.071
               609      0.0112436061           -110.766        0.998923946             -7.628        0.999153063             -7.633       0.0101989538            -92.291
               610      0.0113602317           -109.779         0.99883967             -7.631        0.999107772             -7.624       0.0102055682             -93.62
               611      0.0112944219           -109.686        0.998851804             -7.673        0.998998931             -7.699       0.0099784712            -94.031
               612      0.0113901495           -110.753        0.998860814             -7.709         0.99882114             -7.715      0.00985211393            -93.213
