!{201R07S0R2}
!Johanson Technology Inc.
!www.johansontechnology.com
!Test Board Conditions:
!Substrate Type  RO4350B
!Substrate Thickness        10 mil
!Substrate Dk      3.66
!TL Type: GCPW 
!TL Trace Width  21 mil
!TL Gap  20 mil
!Electrode orientation      Horizontal
!DUT TOPOLOGY	SERIES
!Mounting Pad LxW         16x21 mil
!Agilent Technologies,N5230A,MY45001966,A.07.50.67
!Agilent N5230A: A.07.50.67
! Created Mon Mar  9 16:13:13 2020
# mhz S ma R 50
! 2 Port Network Data from SP1.SP block
! freq  magS11  angS11  magS21  angS21  magS12  angS12  magS22  angS22  
!     
               500       0.997620216             -6.073       0.0592104506             84.074       0.0593196208             84.305        0.998219079             -5.746
               501       0.997794493             -6.062       0.0593488561             84.077       0.0594377489             84.324         0.99820235             -5.745
               502       0.997342557             -6.087       0.0594376665             84.142       0.0596227153             84.322        0.998186635             -5.754
               503       0.997595174             -6.107       0.0594910409             84.052       0.0597312451             84.352        0.998160702             -5.779
               504       0.998177018             -6.116       0.0596228891             84.131        0.059760334             84.224        0.997679196             -5.771
               505       0.996785087              -6.11       0.0597315015             84.112       0.0598623045             84.229        0.998193832             -5.794
               506       0.998175983             -6.138       0.0598458192             84.051       0.0600044993             84.177         0.99764646             -5.803
               507       0.997856615             -6.112       0.0600145482             84.107       0.0601944625             84.238        0.998117662             -5.787
               508        0.99709293             -6.131       0.0601446548             83.987       0.0602486107             84.196        0.998179018             -5.796
               509        0.99807359             -6.183       0.0601300914             84.004       0.0605329534             84.186        0.997695398             -5.809
               510       0.997436008             -6.197       0.0603096841             83.973       0.0605462226             84.154        0.998145846             -5.802
               511       0.997406267             -6.197       0.0604981985             83.953       0.0606725772             84.156        0.998141913             -5.853
               512       0.997336507              -6.22       0.0606741941             84.132       0.0607930618             84.096        0.998114504             -5.864
               513       0.997708198             -6.242       0.0606893667             83.952       0.0608572895             84.169        0.998096438             -5.881
               514       0.997765053             -6.235       0.0607317071             84.032       0.0609137713             84.036        0.998089619             -5.918
               515       0.997904795             -6.241       0.0608914105             84.019       0.0610809854             84.118        0.998010808             -5.891
               516       0.997802812             -6.267       0.0610645053             83.906       0.0613040043             84.096        0.998046425             -5.928
               517       0.997523053             -6.252         0.06112261             84.012        0.061334085             84.027        0.998075951              -5.95
               518       0.997826364             -6.289       0.0613254903             83.985       0.0615305829             84.072        0.997991148             -5.939
               519       0.996740581             -6.307       0.0614792471             83.898       0.0616493555             84.086        0.998080086             -5.979
               520       0.997353497             -6.332       0.0615190428             83.918       0.0616963639             84.006        0.998063032             -5.999
               521       0.996788983             -6.297        0.061618716             83.873       0.0618390266              84.03        0.998073775             -5.985
               522       0.997719686             -6.391       0.0617902911             83.898       0.0618970914             83.931        0.998055521             -5.943
               523       0.997928095             -6.329       0.0618480982             83.928       0.0621264231             84.012        0.997801149                 -6
               524        0.99763854             -6.287       0.0620178088             83.924       0.0621321551             84.076        0.998009713             -5.992
               525        0.99766024              -6.34       0.0621409873             83.833       0.0622914083             84.022        0.998019322                 -6
               526       0.995853341             -6.398       0.0621720782             83.841       0.0623871842              83.99        0.998042958             -6.006
               527        0.99721864             -6.407       0.0624200608             83.907       0.0625207512             83.944        0.998018261             -5.999
               528       0.997112321             -6.381       0.0624399408             83.858       0.0626992698             83.915        0.998011471             -6.014
               529       0.997305952             -6.394       0.0625752093             83.841       0.0628206334             83.945        0.997989934             -6.041
               530       0.997863036             -6.423       0.0626906807             83.827       0.0629655477             83.818        0.997856488             -6.093
               531       0.997890058             -6.492        0.062839547             83.815       0.0630424446             83.851        0.997841577             -6.039
               532       0.996568544              -6.43       0.0629499986             83.699       0.0631096432             83.851        0.998004213             -6.072
               533       0.997519793             -6.467       0.0629351283             83.747       0.0632183449             83.748        0.997964911              -6.08
               534       0.997614615              -6.49       0.0632423935             83.636       0.0633735883             83.867        0.997968074             -6.135
               535       0.997312273             -6.476       0.0633200812             83.675       0.0634587427             83.864        0.997970292             -6.132
               536       0.997870011             -6.503       0.0635131307             83.677       0.0637402145             83.769        0.997828998             -6.128
               537       0.996693677             -6.483       0.0635149928             83.614       0.0637494223             83.807        0.997960273             -6.114
               538       0.997071789             -6.486       0.0636713823             83.663        0.063803467             83.801         0.99795631             -6.152
               539       0.997192187             -6.532       0.0638198409             83.567       0.0639154303              83.78        0.997952378             -6.176
               540       0.997305685             -6.545       0.0639641164             83.661       0.0640820512              83.62        0.997941319              -6.17
               541       0.997498412             -6.522       0.0640052595             83.665       0.0641675803             83.802        0.997910547             -6.169
               542       0.997763768             -6.533       0.0641387481             83.577       0.0643310262             83.788        0.997852568             -6.222
               543        0.99726954             -6.584       0.0642796205             83.689        0.064479744             83.795        0.997880083             -6.175
               544       0.997509362             -6.578       0.0644340575             83.576       0.0645751584             83.773        0.997889782             -6.207
               545       0.996976697             -6.569       0.0644737175             83.622       0.0647265877             83.696        0.997888487             -6.216
               546       0.997892048             -6.596       0.0646099808             83.519        0.064751467             83.632        0.997499925             -6.267
               547       0.997381705             -6.613       0.0646563274             83.562       0.0649248616             83.707        0.997850737             -6.255
               548       0.997790327              -6.66       0.0649124034             83.608       0.0650021452             83.694        0.997702337              -6.26
               549        0.99784762             -6.635       0.0650411896             83.508         0.06518362              83.73        0.997488806             -6.265
               550        0.99675815              -6.63       0.0651056824             83.524       0.0652482541             83.692        0.997860877             -6.299
               551       0.997131287              -6.63       0.0651667682             83.584       0.0653696536             83.672          0.9978404             -6.276
               552       0.996137789             -6.668       0.0653985118             83.534       0.0653759279             83.565        0.997855983             -6.308
               553       0.997189002             -6.657       0.0654642174             83.459       0.0656453518             83.678         0.99782408             -6.353
               554       0.997391943             -6.719       0.0656741493             83.488       0.0657270977             83.603        0.997831261             -6.273
               555       0.997378441             -6.687       0.0657391336             83.461       0.0659589869             83.641        0.997793284             -6.315
               556       0.997401819             -6.709       0.0657658073             83.439       0.0659781533             83.644        0.997779452             -6.371
               557       0.996072262             -6.722       0.0659705259             83.393       0.0660541253             83.545        0.997814811             -6.361
               558       0.997410082             -6.742       0.0661986608             83.446        0.066267289              83.56        0.997782893             -6.393
               559       0.996884951             -6.725       0.0661674107             83.497       0.0663046733             83.559        0.997790213             -6.354
               560       0.997334211             -6.789        0.066253285             83.399       0.0664748578             83.504        0.997759374             -6.412
               561       0.997628036              -6.77       0.0664015757             83.365       0.0665240047             83.529        0.997761508             -6.372
               562       0.997575632             -6.816       0.0665537042              83.43       0.0667148067             83.473        0.997708522             -6.426
               563       0.996623976             -6.801       0.0666090333               83.3        0.066762583             83.557        0.997763542             -6.444
               564       0.996442306             -6.833       0.0667954081             83.288       0.0668877532             83.467        0.997758779             -6.465
               565       0.995818789             -6.822       0.0668762736             83.353       0.0669995778             83.484        0.997750757             -6.425
               566       0.997244454             -6.783       0.0671762072             83.221       0.0671607411             83.399        0.997723795             -6.444
               567       0.997047004             -6.897       0.0671377809              83.19       0.0672228596             83.456        0.997736207             -6.479
               568        0.99684118             -6.843       0.0672546893             83.276       0.0674873803             83.451         0.99770907             -6.494
               569       0.995939385              -6.89        0.067368776              83.28       0.0674619137             83.385        0.997719952             -6.509
               570       0.997435081             -6.898         0.06745569             83.245       0.0677358506             83.392        0.997634223             -6.535
               571       0.996529236             -6.897       0.0676533715             83.273       0.0678249441             83.299        0.997694423             -6.529
               572       0.996521356             -6.925        0.067677929              83.23       0.0678495639             83.355        0.997692392             -6.526
               573       0.996390254             -6.898       0.0677728846             83.181       0.0680073686             83.369        0.997679666             -6.565
               574       0.997446424             -6.957       0.0680156304             83.185       0.0680861422              83.42        0.997658398             -6.544
               575       0.996687731             -6.965       0.0681305135             83.206        0.068161896              83.31        0.997670113             -6.608
               576       0.996341744             -6.935       0.0682546236             83.221       0.0683175174             83.362        0.997659808             -6.582
               577       0.996731681             -6.965       0.0684586393             83.165       0.0683798687             83.304        0.997652884             -6.569
               578       0.995856156             -6.998       0.0683959778             83.134       0.0685063079             83.256        0.997649553             -6.635
               579       0.996257835             -7.017        0.068536023             83.081       0.0687573135             83.308         0.99762862             -6.653
               580       0.996300565             -7.044       0.0686993419             83.248       0.0687705625              83.14        0.997628567             -6.671
               581       0.996759503             -7.041       0.0688439983             83.144       0.0688915705             83.201         0.99762135             -6.679
               582       0.996277695             -7.031       0.0689173957             83.175       0.0690206202             83.236        0.997611295             -6.662
               583       0.996803247             -7.081       0.0690342393             83.044       0.0692491654             83.136        0.997588833             -6.679
               584       0.995566032              -7.06       0.0691262695             83.107       0.0691342284              83.21        0.997603629             -6.679
               585       0.996253121             -7.081       0.0692499868             83.075       0.0694575875               83.2         0.99758091             -6.688
               586       0.995794426              -7.11       0.0694176154             83.075       0.0694735819              83.15        0.997581682             -6.712
               587       0.996452599             -7.115       0.0695777042             83.083       0.0696819177             83.197         0.99756475             -6.706
               588       0.996947489             -7.108       0.0695780549             83.046       0.0697786051             83.164        0.997546924              -6.77
               589       0.996895977              -7.18       0.0696667488             82.969       0.0698755989             83.063        0.997544419             -6.762
               590       0.996614291             -7.153       0.0698264255                 83       0.0700196298             83.159        0.997538027             -6.763
               591       0.996249409             -7.143       0.0700032296             83.025       0.0701403739             83.106        0.997535354             -6.761
               592       0.996409187             -7.186       0.0701290044             82.972       0.0702178735             83.071        0.997530247             -6.806
               593       0.995976142               -7.2       0.0702081105             82.979       0.0702485372             83.044        0.997527289             -6.821
               594       0.997060234             -7.171       0.0703795889             83.002        0.070476889             83.074         0.99750602             -6.823
               595       0.996644261             -7.208       0.0704600051             82.987       0.0706224322             83.063         0.99749728             -6.807
               596       0.996835896              -7.25       0.0707025404             82.827       0.0707432518             83.015        0.997490386             -6.834
               597       0.996752595             -7.246       0.0707836127             82.885       0.0708406806              83.01        0.997486197             -6.888
               598       0.996434255             -7.253       0.0708106611             82.779       0.0709902408             83.011        0.997472656             -6.913
               599       0.996526625             -7.269       0.0709477956              82.86       0.0711031607             82.997        0.997465897              -6.88
               600       0.997055631             -7.274       0.0712751583             82.828       0.0712341408             82.933        0.997440827             -6.841
               601       0.996791604             -7.278       0.0712860205             82.828       0.0713188565             83.037        0.997452151             -6.881
               602       0.996319114             -7.341       0.0712522301             82.797       0.0714411541              82.82        0.997435628             -6.914
               603       0.995957208             -7.301       0.0714152037             82.834       0.0715551142              82.86        0.997434381             -6.941
               604       0.996439713             -7.333       0.0715546032             82.879       0.0716782804              82.91        0.997425375             -6.921
               605       0.995597107             -7.339       0.0715704299             82.749        0.071793252             82.993        0.997417368             -6.928
               606       0.996207349             -7.302       0.0717215623             82.888       0.0718703469             82.993        0.997411213             -6.872
               607       0.996315849             -7.333       0.0718368101             82.765       0.0719858338             82.922        0.997403503             -6.987
               608       0.996601542             -7.343       0.0719898975             82.908       0.0721475445             82.858        0.997385626             -6.983
               609       0.997157443             -7.416       0.0720959361             82.659       0.0722621344             82.763        0.997305089             -6.981
               610       0.996400402             -7.424       0.0722584505             82.774       0.0723833442             82.769        0.997374669             -6.999
               611       0.996887317             -7.361       0.0724029182             82.783       0.0724529496             82.819        0.997370504             -7.021
               612       0.996565601             -7.383       0.0724662174             82.756       0.0726249075             82.859        0.997355053             -6.989
