!{251R15S161}
!Johanson Technology Inc.
!www.johansontechnology.com
!Test Board Conditions:
!Substrate Type  RO4350B
!Substrate Thickness        20 mil
!Substrate Dk      3.66
!TL Type: GCPW 
!TL Trace Width  34 mil
!TL Gap  10 mil
!Electrode orientation      Horizontal
!DUT TOPOLOGY	SERIES
!Mounting Pad LxW         26x52 mil
! Created Thu Mar 12 16:53:36 2020
# mhz S ma R 50
! 2 Port Network Data from SP1.SP block
! freq  magS11  angS11  magS21  angS21  magS12  angS12  magS22  angS22  
!     
               500      0.0102553385            -103.02        0.999327411             -6.238        0.999299914             -6.233      0.00932717231            -93.591
               501       0.010104155            -102.49        0.998969894             -6.288        0.999230082               -6.3      0.00928004324            -94.172
               502      0.0102242621            -102.04        0.999252803             -6.304        0.999249467             -6.299      0.00897701551            -94.414
               503     0.00998184741           -102.264        0.999338862             -6.307        0.999550295             -6.283      0.00923232165            -94.227
               504     0.00990728894           -103.284        0.999481889             -6.288        0.999351524             -6.293      0.00908771773            -93.419
               505     0.00983784555           -101.817        0.999223755             -6.327        0.999093078             -6.386      0.00897738809            -93.035
               506     0.00998073535           -103.117        0.998648238             -6.374        0.999624726             -6.301      0.00899523554            -94.793
               507     0.00977124719           -102.165        0.999447302             -6.353        0.999390691             -6.379      0.00887360311            -93.149
               508     0.00982200159            -100.77        0.998619403             -6.396        0.999271152             -6.403      0.00883690121            -92.799
               509     0.00961058889           -102.572        0.999351572             -6.373        0.999015324             -6.431      0.00879629934            -92.251
               510     0.00954992586           -102.667        0.999263214             -6.443        0.998619403             -6.424      0.00878718966            -93.022
               511     0.00973632107           -102.105        0.999149642             -6.458        0.999356145             -6.483      0.00840901035            -93.548
               512     0.00922890127           -103.031        0.998890655             -6.468        0.998877545             -6.479      0.00870261959            -93.446
               513     0.00927577061           -102.432        0.999590339             -6.472        0.999032462             -6.485      0.00839943358            -92.973
               514     0.00942186124           -101.904        0.999239179             -6.501        0.999539483             -6.473      0.00836347386            -93.004
               515     0.00928966387           -100.866        0.998619403             -6.573        0.999044769             -6.521      0.00831285107            -94.539
               516     0.00909494339            -102.88        0.999127011             -6.569         0.99890411             -6.526      0.00833297349            -92.413
               517     0.00912220862           -103.127        0.999487461             -6.535        0.999066047             -6.533      0.00831763771            -93.612
               518     0.00925679802            -102.73        0.998299349             -6.567        0.999724045             -6.637      0.00804749634            -92.742
               519     0.00932180868           -101.986        0.998504865             -6.552        0.999662579             -6.621      0.00801586114            -92.435
               520     0.00908970942           -103.959        0.999029586              -6.64         0.99954822             -6.599      0.00821958706            -92.331
               521     0.00903020081             -103.5        0.999310977             -6.616        0.999525338             -6.606      0.00811142969            -93.354
               522     0.00898435169           -104.145        0.998459363             -6.653         0.99972452             -6.665      0.00792294687            -92.953
               523      0.0088705388           -105.071        0.999272303             -6.651        0.999313835             -6.652      0.00782438118            -92.549
               524     0.00854377888           -102.844        0.999451444             -6.686         0.99873438             -6.656      0.00773481623            -92.099
               525     0.00875185271           -103.093        0.998863285              -6.68        0.998949767             -6.717      0.00775800401             -92.98
               526     0.00889098751           -103.429         0.99901866             -6.679         0.99943522             -6.756      0.00765244118            -91.882
               527     0.00855972022           -105.761        0.999283277             -6.747        0.999472432             -6.789      0.00763588835            -92.766
               528     0.00842849435           -104.838        0.999298418             -6.763         0.99889215             -6.775      0.00744217709            -93.228
               529     0.00857136521           -104.613        0.999622562             -6.793         0.99884937              -6.82      0.00751795982            -92.835
               530     0.00824233003           -103.265        0.999741914             -6.799        0.999071914             -6.784      0.00764187624            -92.828
               531     0.00850844116           -104.999         0.99935767             -6.816        0.998937691             -6.778      0.00733330925            -93.141
               532     0.00831946641           -103.726         0.99849403             -6.806        0.999783241             -6.835      0.00740108637            -93.542
               533      0.0082480256           -102.014         0.99891584             -6.852        0.999475033             -6.822      0.00726189558            -93.544
               534     0.00801694301           -105.813        0.998987713             -6.877        0.999666403             -6.821       0.0070951045            -92.352
               535     0.00805934969           -103.443        0.998159627             -6.865        0.999235374             -6.863      0.00741907908            -91.255
               536     0.00804637002           -104.787         0.99873438             -6.918        0.999312569             -6.908      0.00689286861             -91.69
               537     0.00782528205           -105.867        0.999465828             -6.866        0.998389489             -6.905      0.00711786915            -90.681
               538     0.00787906807            -105.97        0.999572853             -6.918        0.999497593             -6.885      0.00711909605            -91.043
               539     0.00776783514           -105.323        0.999273568             -6.927        0.998504439             -6.973      0.00669267907            -88.958
               540     0.00794968646           -104.772        0.998504439             -6.958        0.998044717             -6.953      0.00681161354            -91.934
               541     0.00775086192           -104.489        0.998619403             -6.948         0.99884937             -6.967       0.0068968376            -92.849
               542     0.00765772912           -106.043        0.999292666             -6.966        0.998619403             -7.024      0.00672124923            -92.199
               543     0.00755527019           -103.788        0.998619403             -7.084        0.999300029             -6.973      0.00666423035            -91.823
               544     0.00768776324           -107.393        0.999147256              -7.01        0.999211445             -7.034       0.0065170342            -90.938
               545     0.00789223485            -105.18        0.998389489              -7.01        0.998935851             -7.089      0.00665502973            -92.171
               546     0.00751795982           -105.355         0.99873438             -7.065         0.99873438             -7.075       0.0064253975            -90.887
               547     0.00747308634           -105.316        0.999282197             -7.087         0.99884937             -7.091      0.00636575618              -91.9
               548     0.00743875063           -105.657        0.998159627             -7.047        0.998504439             -7.135      0.00641726539            -90.581
               549     0.00738669216           -108.083        0.998389489             -7.168        0.998947812              -7.13      0.00632411851            -90.732
               550     0.00730129675           -107.401        0.999084336             -7.118        0.998972654             -7.142      0.00636062805            -90.034
               551     0.00728366562           -106.154         0.99873438             -7.152        0.999475494             -7.153      0.00629578662            -89.845
               552     0.00723723371            -106.48        0.999468123             -7.135        0.999430266              -7.14      0.00625277206            -90.989
               553     0.00694704321           -106.408        0.999163245              -7.15        0.999008998             -7.193      0.00604853224            -90.007
               554     0.00706236241           -105.057        0.999281966             -7.211        0.998869035             -7.164      0.00602074176            -91.806
               555     0.00698071649           -104.965        0.999267126             -7.193        0.998044717             -7.226       0.0058945411            -91.762
               556      0.0068084774           -105.979        0.998389489             -7.232        0.998044717             -7.213      0.00573455867            -91.328
               557     0.00702551556           -105.827        0.999287028             -7.251        0.999467553             -7.232      0.00583751756            -88.381
               558     0.00661302249           -106.651        0.998619403             -7.225        0.998998072             -7.245      0.00582639602            -89.857
               559     0.00665119989           -106.223         0.99873438             -7.312        0.998504439             -7.313      0.00580363378            -88.505
               560     0.00668036205           -107.187        0.999454321             -7.302        0.998504439             -7.294      0.00570886798             -90.35
               561     0.00671738129           -108.158        0.999652715             -7.287         0.99889721             -7.356      0.00571741873            -88.517
               562     0.00662826709           -107.992        0.999222144             -7.296        0.998903995             -7.288      0.00575439937            -91.389
               563     0.00671274269           -106.761        0.998921016             -7.336        0.999070763              -7.35      0.00537093628            -90.717
               564     0.00678266059           -107.344        0.998995967             -7.297        0.999354529             -7.347      0.00528506198            -91.834
               565     0.00648590731            -106.84        0.998918112             -7.389        0.999678203             -7.355      0.00543401381            -92.025
               566     0.00643057785           -105.919        0.999237099             -7.411        0.998619403             -7.411      0.00523962252             -90.39
               567     0.00614964435           -107.129        0.999112172             -7.412         0.99873438             -7.449      0.00530090474             -86.97
               568     0.00633577871           -108.675         0.99923871             -7.466        0.998619403             -7.441      0.00509389513            -89.402
               569     0.00637969623            -107.84        0.998044717             -7.421        0.999450984              -7.46      0.00518740313            -90.048
               570     0.00632411851           -109.993         0.99873438             -7.493         0.99885604             -7.471       0.0051487286            -87.834
               571     0.00601242954           -107.698        0.998504439             -7.449        0.999428432             -7.478      0.00521614914            -88.532
               572     0.00599514926           -108.398        0.998619403             -7.505        0.998504439             -7.465      0.00507107461            -89.583
               573     0.00606177762           -109.732        0.999334544             -7.499        0.999398746             -7.536      0.00495906728            -88.433
               574     0.00613126377           -107.041        0.998619403             -7.508        0.998619403             -7.511      0.00498597389            -91.582
               575     0.00608275046           -108.686        0.999290595             -7.548        0.998959888             -7.524      0.00483893736            -90.066
               576      0.0058938625           -108.314        0.999163821             -7.536        0.998504439             -7.564      0.00498769628            -87.721
               577       0.006076451           -109.994         0.99923779             -7.585         0.99873438             -7.557      0.00491020925            -89.786
               578      0.0056053147           -108.104         0.99884937              -7.62        0.999070878             -7.601      0.00467035615            -89.319
               579     0.00585194182           -108.445        0.998925961             -7.632        0.998924351              -7.59      0.00458036408            -89.906
               580     0.00563863233           -111.455        0.998919582             -7.646        0.999621934             -7.621      0.00447222636            -88.837
               581     0.00582840873           -110.901        0.999297038             -7.622        0.999061562             -7.671       0.0044802268            -86.971
               582     0.00568585741           -110.694        0.998725099             -7.661        0.999745399             -7.677       0.0046296266            -88.106
               583     0.00573125854           -109.556        0.998159627             -7.677        0.999448913              -7.65      0.00423447916            -88.033
               584     0.00545004389           -111.939         0.99873438             -7.733        0.999723728             -7.684      0.00444631267            -87.496
               585     0.00547330941           -109.775        0.998619403              -7.73        0.999152662             -7.664      0.00431668144            -88.337
               586     0.00562064398           -109.779        0.998965931             -7.751        0.999385347             -7.739      0.00409436049            -90.004
               587     0.00534541332           -113.421        0.999430828             -7.773        0.999395044             -7.745      0.00427692162            -87.144
               588     0.00530212546           -109.416        0.999456968             -7.794        0.999283462             -7.691      0.00409025138            -86.752
               589     0.00533027972           -112.757        0.998972539             -7.782        0.998389489             -7.772      0.00433860388            -87.309
               590     0.00537836163           -111.261        0.999181421             -7.812        0.999246303             -7.797       0.0038985221            -82.983
               591     0.00517070785           -114.596        0.999145416             -7.779        0.999234799             -7.796      0.00414095013            -86.404
               592     0.00503938211           -114.345        0.999534387             -7.832        0.999159196             -7.855      0.00385680152            -85.674
               593     0.00525109651           -110.432         0.99905052             -7.829        0.999164281             -7.882       0.0040508858            -86.082
               594     0.00504545108            -112.41        0.998159627             -7.874        0.999298073             -7.883      0.00372777765            -84.228
               595     0.00492039536           -111.909        0.998960578             -7.877        0.998619403             -7.853      0.00370083736            -86.451
               596     0.00494595317           -111.367        0.999040858             -7.945        0.998389489              -7.88      0.00382956989            -87.701
               597     0.00501591306           -113.387        0.999298763              -7.93        0.998504439             -7.916      0.00376964107            -84.615
               598     0.00507691626           -114.328        0.998274551             -7.897        0.999314525             -7.893      0.00383972393            -87.238
               599     0.00470923106           -113.878        0.999109181             -7.941        0.998982085             -7.971      0.00386990229            -80.478
               600     0.00480590966           -111.159        0.999385289             -7.958        0.999347091             -7.956      0.00356800622            -86.892
               601     0.00462647266           -115.255        0.999499198             -7.995         0.99873438             -8.003      0.00347616194            -86.543
               602     0.00455984416           -112.841         0.99936883             -7.993        0.998619403             -8.042      0.00334156567            -84.252
               603      0.0045206408           -114.526        0.999241011             -8.059         0.99873438             -8.004      0.00335196905             -80.67
               604     0.00463594352           -112.833        0.999772855              -8.02        0.998592123             -8.007      0.00353214185            -83.247
               605      0.0045666739           -115.235         0.99873438             -8.046        0.999593676             -8.013      0.00322366571            -84.996
               606      0.0045940953           -115.536        0.999275524             -8.067        0.999196606             -8.063      0.00317797151            -81.409
               607     0.00447919531            -115.39        0.998619403             -8.067        0.999048679             -8.089       0.0029390028            -81.416
               608     0.00458775271           -115.767         0.99884937             -8.074        0.999372857             -8.098      0.00316082171            -84.058
               609     0.00446105451           -118.387        0.999490521             -8.091        0.999093952             -8.099      0.00317751442            -83.746
               610      0.0041701339           -115.288        0.999181881             -8.115        0.999147946             -8.142      0.00321292065            -81.846
               611     0.00407005239            -114.92        0.998947697             -8.197        0.999345244             -8.134      0.00301023222             -83.11
               612      0.0041937255           -119.258        0.999068693             -8.207        0.999263674             -8.165      0.00307645098            -78.558
