!{251R15S5R6}
!Johanson Technology Inc.
!www.johansontechnology.com
!Test Board Conditions:
!Substrate Type  RO4350B
!Substrate Thickness        20 mil
!Substrate Dk      3.66
!TL Type: GCPW 
!TL Trace Width  34 mil
!TL Gap  10 mil
!Electrode orientation      Horizontal
!DUT TOPOLOGY	SERIES
!Mounting Pad LxW         26x52 mil
! Created Thu Mar 12 16:43:06 2020
# mhz S ma R 50
! 2 Port Network Data from SP1.SP block
! freq  magS11  angS11  magS21  angS21  magS12  angS12  magS22  angS22  
!     
               500       0.522035455            -65.356        0.848301041              24.56        0.849571627             24.554        0.520834807            -64.984
               501       0.521194711            -65.399        0.848594085             24.505        0.849767271             24.497        0.520175628            -64.997
               502       0.520355321            -65.439        0.849278246             24.423        0.850060821              24.47        0.519517283            -65.153
               503       0.520355321            -65.556        0.849962959             24.344        0.851726187             24.383        0.519158537            -65.175
               504       0.519218311            -65.626        0.850550296             24.309        0.852118511             24.286        0.518740313            -65.226
               505       0.518382104            -65.618        0.850648225             24.212        0.851726187             24.269        0.517249405            -65.303
               506        0.51736852            -65.756        0.851824251             24.124        0.852511017             24.182        0.516951738            -65.365
               507       0.517130318            -65.897        0.852118511             24.068        0.853493072             24.087        0.516000355             -65.45
               508       0.516119182            -65.847        0.852314742             24.039         0.85388621             24.072        0.515347294            -65.485
               509       0.514991428            -65.886        0.852511017              23.98        0.853591339              24.02         0.51469506            -65.526
               510       0.514339644            -65.954        0.852609171             23.924         0.85427953             23.968        0.513511294            -65.593
               511       0.513747829            -66.051        0.853984523             23.836        0.855165162              23.88        0.513156696            -65.684
               512       0.513274868            -66.125        0.854476258             23.749        0.855657576             23.802        0.512153329            -65.795
               513       0.512448233            -66.191        0.854673031             23.712        0.856347433             23.732        0.511740748            -65.851
               514       0.511387373            -66.262        0.855165162             23.692        0.855854621             23.661        0.511151924            -65.857
               515       0.510798955            -66.356        0.856051712             23.566        0.857037845              23.58        0.509800198            -65.963
               516       0.509976307            -66.318        0.856051712             23.533        0.856840528              23.58        0.509272236            -65.982
               517       0.509330871            -66.472        0.856248848             23.443        0.857235208             23.457        0.508334985            -66.096
               518       0.508276464            -66.509        0.856840528             23.416        0.858025115             23.454         0.50780854            -66.147
               519       0.507341046            -66.587        0.857333907             23.333        0.858519176             23.356        0.507633179            -66.158
               520       0.506698945            -66.674         0.85782757             23.243         0.85871688             23.277        0.506523968            -66.283
               521       0.506349051            -66.698        0.858519176             23.187        0.859805067             23.247        0.505708205            -66.308
               522       0.505591775            -66.737        0.859112425             23.125        0.859508152             23.161        0.504719402            -66.433
               523       0.504428946            -66.851        0.859211339             23.087        0.860300153              23.12        0.504138657            -66.442
               524        0.50379053            -66.937        0.859310266             22.989        0.860795524             22.992        0.503152923            -66.525
               525       0.503268792            -66.936        0.860003067             22.974        0.861092883             22.975        0.502284759             -66.59
               526       0.502689715            -67.092        0.860795524             22.867        0.861687911             22.873         0.50182235            -66.675
               527       0.502169116            -67.134        0.860993752             22.821        0.862283349             22.852         0.50101416            -66.696
               528       0.501418092            -67.137        0.861390346             22.765        0.862879199             22.796        0.500495296            -66.776
               529       0.500207271            -67.195        0.861886345             22.687         0.86248192             22.742        0.499344189            -66.889
               530       0.499516686            -67.304        0.862779862             22.666        0.863574878              22.67        0.499401681             -66.87
               531       0.498539989             -67.36        0.863077908             22.586        0.863376056             22.572        0.498253089            -66.956
               532       0.498827055            -67.374        0.863376056             22.553        0.863972661             22.554        0.497565202            -67.033
               533       0.497336118            -67.474        0.862680537             22.438        0.864768775             22.505         0.49647799             -67.07
               534       0.496992689            -67.552        0.863972661             22.389         0.86526672             22.439        0.496192277            -67.129
               535       0.496306542            -67.587        0.864569678             22.335        0.865764951             22.373         0.49522208            -67.246
               536       0.495165069            -67.642        0.865565624             22.254        0.865665282             22.329        0.494994074            -67.286
               537       0.494652263            -67.672         0.86526672             22.241        0.866263468             22.261        0.493685077            -67.327
               538       0.494424519            -67.804        0.865565624             22.143        0.867660846             22.178        0.493230586            -67.367
               539       0.493741918             -67.84        0.867461083             22.117        0.867860655              22.13        0.492776513            -67.474
               540       0.493173804            -67.911        0.867161524              22.03        0.867560959             22.043        0.491586559            -67.482
               541       0.491812995            -67.952        0.868060511             21.936        0.868060511             22.004        0.491303661            -67.654
               542         0.4914168            -68.008        0.867660846             21.889        0.867960577             21.934        0.490455941            -67.669
               543       0.490681857            -68.079        0.868060511             21.837        0.868460359             21.865         0.48955332            -67.707
               544       0.489609685            -68.165        0.867660846             21.789         0.86856035             21.828        0.488708621             -67.77
               545       0.488877444            -68.182        0.868460359             21.701         0.86976114             21.779        0.488427378            -67.843
               546       0.488371149            -68.208        0.869160538             21.706        0.870362157             21.722        0.487977727             -67.88
               547       0.488090101            -68.283        0.869260609             21.616         0.87096359             21.678        0.486631256            -67.935
               548       0.486967525             -68.39        0.869961433             21.534        0.871465101             21.571        0.486183258            -68.032
               549       0.486631256             -68.48        0.870462367             21.501        0.871565438             21.503        0.485232632            -68.065
               550       0.485791599            -68.499         0.87116416             21.419        0.871966901             21.453        0.484339624             -68.15
               551       0.484674309            -68.571         0.87096359             21.403        0.871565438             21.389        0.484005169            -68.161
               552       0.484506938            -68.673        0.872167702             21.274        0.872770382             21.349        0.483392603            -68.255
               553       0.483670946             -68.71         0.87246899             21.259         0.87287087             21.274        0.482836396            -68.336
               554        0.48328131             -68.77         0.87246899              21.18        0.873574604             21.223        0.482058783            -68.409
               555       0.481725904            -68.815        0.872368549             21.097        0.873272934              21.17        0.481393254            -68.446
               556       0.481725904            -68.853        0.873071879             21.104        0.873976993             21.086        0.480783993            -68.518
               557       0.480839348            -68.962        0.873675184             21.008        0.874480239             21.066        0.479954425            -68.563
               558        0.48028608                -69        0.874077619             20.975        0.875084517             20.974        0.479236624            -68.631
               559       0.479512574            -69.057        0.873675184             20.925        0.875487601             20.882        0.478464808             -68.68
               560       0.478574991            -69.154        0.873775775             20.809        0.875386813             20.845        0.477529274            -68.719
               561       0.478244517              -69.2        0.874782326             20.767        0.876193445             20.832        0.477254465             -68.82
               562       0.477529274            -69.252        0.874480239             20.704         0.87639522             20.767        0.476430987            -68.813
               563       0.476869998            -69.287        0.875386813             20.681         0.87659704             20.717        0.475828006             -68.87
               564       0.476211633            -69.387         0.87639522             20.584        0.877505809             20.622        0.475389954            -68.979
               565       0.475773228            -69.446         0.87659704             20.528        0.877606841              20.58        0.474241985            -69.038
               566        0.47506168            -69.486        0.877101795             20.463        0.877606841             20.511        0.473750848            -69.063
               567       0.473805393            -69.531        0.876899859             20.445        0.877303779             20.474        0.473205736            -69.128
               568       0.473641775            -69.596        0.877303779             20.345        0.878718966             20.405        0.472715671            -69.267
               569       0.472661251            -69.653        0.877505809             20.333        0.878617805             20.334        0.471900025            -69.252
               570       0.471791378            -69.672        0.877910008             20.237        0.879224943             20.309        0.471194269            -69.324
               571       0.471628455            -69.767        0.879326173             20.183        0.879629934             20.215        0.470760483             -69.38
               572        0.47048957            -69.799        0.878718966             20.157        0.879629934             20.179        0.470002318            -69.417
               573       0.469894109            -69.857        0.878718966             20.134        0.880035112             20.121        0.469137339            -69.469
               574       0.469083331            -69.948        0.879123724             19.997        0.880440476             20.066        0.468273951            -69.589
               575       0.468273951            -69.964        0.879629934              20.01        0.880339118             20.014        0.467842854            -69.564
               576       0.468112243            -70.049        0.880541846             19.887        0.881150313             19.922        0.467250742            -69.689
               577       0.467250742             -70.11        0.880846027             19.881        0.881454704             19.884         0.46671311             -69.72
               578       0.466766845            -70.186        0.881048873             19.824        0.881556192             19.805        0.465586094            -69.795
               579       0.466068767            -70.227        0.881556192              19.72        0.881962257             19.788        0.464996838            -69.856
               580       0.465532494            -70.222        0.881962257             19.692        0.882266928             19.757        0.464622246            -69.909
               581       0.464515275            -70.354        0.881962257             19.561        0.882774948             19.683        0.463660394            -69.957
               582       0.464141071            -70.355        0.882571705             19.579        0.883588388             19.609        0.463553645            -70.037
               583        0.46344692             -70.43        0.883181575              19.54        0.883588388             19.559        0.462753807            -70.067
               584       0.462700533            -70.449        0.883181575             19.516        0.883486667             19.486        0.461955349            -70.088
               585        0.46211493            -70.532        0.883384958             19.387        0.884198961             19.429        0.461317575            -70.215
               586       0.461370689            -70.576          0.8830799             19.361        0.884809955             19.363        0.460521595            -70.263
               587       0.460309566            -70.675        0.883791866             19.297        0.884300764             19.306         0.45977992            -70.327
               588       0.460150608            -70.686        0.883893622             19.217        0.885217518              19.31        0.459568232            -70.334
               589        0.45977992            -70.713        0.885013713             19.194        0.885523315             19.252        0.458669646            -70.406
               590       0.459250883            -70.833        0.884911828             19.112        0.885931207              19.21        0.458089144            -70.427
               591       0.458511254            -70.857        0.885421371             19.106        0.885727237             19.121        0.457351386            -70.497
               592       0.457825523            -70.911        0.886135224              19.05        0.886135224             19.071         0.45650969            -70.583
               593       0.456825144            -70.965        0.886441337             18.966        0.886543398             19.023        0.456299507            -70.632
               594       0.456457135            -71.007        0.886747556             18.973        0.887156012             18.999        0.455879434            -70.646
               595       0.455879434            -71.115        0.887156012             18.831        0.887462478             18.905        0.455407313            -70.752
               596        0.45498806            -71.139        0.886747556             18.808        0.887462478              18.91        0.454255297            -70.754
               597       0.454621531            -71.203        0.887871263             18.789        0.888075727             18.806        0.454255297            -70.809
               598        0.45409843             -71.22        0.887462478             18.701         0.88838251             18.752        0.453106195            -70.926
               599       0.453523713             -71.25        0.887973489              18.67        0.888587092             18.697        0.452480638            -70.915
               600       0.452636946            -71.366        0.888484795             18.613        0.888484795             18.597        0.451699906            -70.973
               601        0.45206408            -71.464        0.888996395             18.515        0.888996395              18.59        0.451180166            -71.063
               602       0.451543921            -71.491        0.889815568             18.506        0.889713131             18.563        0.451024361            -71.055
               603       0.451284066            -71.527        0.889918018             18.437        0.890122953             18.499        0.450142481             -71.15
               604       0.449883432            -71.517        0.889713131             18.411        0.889815568             18.429        0.449624533             -71.22
               605       0.449469265            -71.576        0.890430444             18.322        0.890532964             18.385        0.449521015            -71.306
               606       0.448952092            -71.657        0.890327935             18.258        0.891148335             18.372         0.44874539            -71.308
               607       0.448280657            -71.683        0.890327935             18.253        0.891045744              18.25        0.447455654            -71.328
               608       0.447455654            -71.782        0.891045744             18.124        0.890943164             18.233        0.446940798            -71.451
               609       0.447301135            -71.801         0.89145618             18.169        0.892380353              18.21        0.446632169            -71.429
               610        0.44652934             -71.85        0.891866805             18.093        0.891764131              18.16        0.445861528            -71.542
               611       0.445758876              -71.9        0.892380353             18.024        0.892585855             18.043        0.445451063             -71.64
               612       0.445143463            -71.958        0.891764131             17.979        0.892688623             17.977        0.444631267            -71.674
