!{201R07S0R9}
!Johanson Technology Inc.
!www.johansontechnology.com
!Test Board Conditions:
!Substrate Type  RO4350B
!Substrate Thickness        10 mil
!Substrate Dk      3.66
!TL Type: GCPW 
!TL Trace Width  21 mil
!TL Gap  20 mil
!Electrode orientation      Horizontal
!DUT TOPOLOGY	SERIES
!Mounting Pad LxW         16x21 mil
!Agilent Technologies,N5230A,MY45001966,A.07.50.67
!Agilent N5230A: A.07.50.67
! Created Mon Mar  9 16:18:23 2020
# mhz S ma R 50
! 2 Port Network Data from SP1.SP block
! freq  magS11  angS11  magS21  angS21  magS12  angS12  magS22  angS22  
!     
               500       0.966297594            -16.706        0.251223868             72.676        0.251976998             72.799        0.965963904            -17.069
               501       0.966367337            -16.686        0.251589344              72.66         0.25234357             72.818         0.96558885            -17.078
               502       0.965941913            -16.701        0.252029287             72.676        0.253017762             72.733        0.965608346            -17.103
               503        0.96632777            -16.762        0.252507604             72.615        0.253410415              72.72        0.964771488            -17.138
               504       0.965649903             -16.79         0.25308692             72.567        0.253845636             72.722        0.965761084            -17.202
               505       0.965886438            -16.838        0.253644861             72.524        0.254288118             72.636         0.96477506            -17.207
               506       0.965959326            -16.894        0.254014694             72.504        0.254834862             72.599        0.964514675            -17.262
               507       0.965332862            -16.864        0.254552338             72.461         0.25510977             72.579        0.964888413            -17.269
               508       0.965176264            -16.878        0.255244641             72.457        0.255656379             72.577         0.96506515            -17.331
               509       0.965406498                -17        0.255746805             72.378         0.25592353             72.491        0.964295672            -17.335
               510        0.96498511            -16.974        0.256047543             72.367        0.256578707             72.471         0.96454082            -17.385
               511       0.964670085            -17.005        0.256347338             72.339        0.257086227             72.465        0.964670085            -17.398
               512       0.964628977            -17.054        0.256809038             72.264        0.257489962             72.411        0.964295864            -17.438
               513       0.964690766            -17.088        0.257299014             72.268        0.258040647             72.377        0.964135605            -17.486
               514        0.96450971             -17.14        0.257754707             72.209        0.258497653             72.335        0.964065639            -17.531
               515       0.964285524            -17.171        0.258437569             72.199         0.25888426              72.31        0.964174513            -17.557
               516       0.964113253            -17.149        0.258748626              72.17        0.259524315              72.32        0.964002262            -17.593
               517       0.963539013            -17.241         0.25948921             72.113        0.259907794             72.248        0.964204832            -17.616
               518       0.964202922            -17.263        0.259877358             72.102        0.260356511             72.206        0.963204368            -17.643
               519        0.96438695            -17.276         0.26016647             72.056        0.260736196             72.205          0.9625013            -17.684
               520       0.963291295            -17.296        0.260619937             72.066        0.261401235             72.148         0.96373501            -17.716
               521       0.963598068            -17.378         0.26118361             71.987         0.26199676             72.118        0.962932668            -17.713
               522        0.96346973            -17.405        0.261811112             71.953        0.262203253             72.086        0.963026138            -17.772
               523       0.963124214            -17.424        0.262320542             71.942        0.262773945             72.027        0.963013336            -17.806
               524        0.96285867            -17.467        0.262852762             71.884        0.263155557             72.011        0.963080402            -17.847
               525       0.962877992            -17.507        0.263039676             71.885        0.263797855              71.96        0.962877992            -17.882
               526       0.963144866            -17.542        0.263628048             71.785        0.264235774              71.95        0.962147408            -17.943
               527       0.962578702            -17.529        0.263989254             71.837         0.26487212             71.916        0.962689529            -17.977
               528       0.962827034             -17.61        0.264544219             71.799        0.265245653             71.857          0.9620514            -17.974
               529       0.962803132            -17.582        0.264903377             71.762        0.265575186             71.864        0.961584588            -17.991
               530       0.962796782            -17.641        0.265267858              71.71        0.266216292             71.805        0.961024878            -18.041
               531       0.962239194            -17.692        0.266000861             71.715        0.266644753             71.803        0.962128418            -18.073
               532       0.961979945            -17.674        0.266419506             71.684        0.267033666             71.794        0.961979945             -18.09
               533       0.962072224             -17.73        0.266997796              71.58        0.267490077              71.76         0.96151857            -18.161
               534       0.961612278            -17.777        0.267546947             71.586        0.267793481              71.74        0.961722994            -18.178
               535       0.961810302            -17.782        0.267910309             71.609        0.268404272             71.703        0.961478162            -18.178
               536       0.961876015            -17.807        0.268206374             71.552        0.268979446             71.654        0.960990502            -18.255
               537       0.961141131            -17.838        0.268804889              71.52        0.269455568             71.603        0.961473155            -18.291
               538       0.961571318            -17.883        0.269390019             71.467        0.269731396             71.616        0.960796695            -18.292
               539       0.961243967            -17.919        0.269515426             71.435        0.270292271              71.53          0.9608014            -18.349
               540       0.961116709            -17.978        0.270038774             71.443        0.270879493             71.495        0.960784808            -18.356
               541       0.961273041            -17.938         0.27073647             71.393        0.271329343             71.516        0.960056435            -18.404
               542       0.961068896            -18.019        0.271146824             71.359        0.271427922             71.476        0.960294678              -18.4
               543       0.960528844            -18.038         0.27155663              71.33        0.272088641             71.412        0.960528844            -18.462
               544       0.960652506            -18.089        0.272249017             71.266        0.272688184               71.4         0.95998914            -18.489
               545       0.960829113            -18.089         0.27245586             71.235        0.273272641             71.366        0.959281687            -18.563
               546       0.960317392             -18.16        0.273032782             71.171        0.273788243             71.301        0.959654257            -18.597
               547           0.96019            -18.186        0.273657389             71.159         0.27397263             71.267        0.959637429            -18.618
               548       0.959913009            -18.189        0.274019757              71.17        0.274651438             71.299        0.959802501            -18.613
               549       0.960267137            -18.209        0.274689505             71.133         0.27494262             71.292        0.959272659            -18.681
               550       0.959837578            -18.302        0.275041196             71.043        0.275484868             71.216        0.959395658            -18.722
               551       0.959591374            -18.319        0.275445914             71.054        0.275922004             71.184        0.959480903            -18.739
               552       0.958677777            -18.282        0.275945083             71.026        0.276676747             71.235        0.959782131             -18.75
               553       0.959225521            -18.418        0.276548129             70.957        0.276834827             71.148        0.959115092            -18.739
               554       0.959428248            -18.381        0.276829585             70.912        0.277339993             71.132        0.958544988            -18.838
               555       0.959356424            -18.497        0.277319232             70.935        0.277990521              71.02        0.958473231            -18.859
               556       0.959402195            -18.469        0.277619973             70.842        0.278356077                 71        0.957746796            -18.957
               557       0.958900134             -18.49        0.278210412             70.885        0.278819651             70.992        0.958458646             -18.93
               558        0.95864861            -18.547        0.278521963              70.79        0.279453432             70.973        0.958096926            -18.935
               559        0.95859064            -18.544        0.279436533              70.76        0.279855073             70.929        0.957928697             -19.03
               560       0.958610905            -18.609        0.279667735             70.746         0.28034471             70.914        0.957728398            -19.021
               561       0.958616803            -18.598        0.280378713             70.747         0.28063707             70.905         0.95751379            -19.061
               562       0.958157817            -18.638        0.280761172              70.68        0.281052237             70.843         0.95771667            -19.114
               563       0.957571519            -18.714        0.281106715             70.629        0.281592589             70.764         0.95790231            -19.142
               564       0.957627848            -18.694        0.281641577             70.648        0.282095895             70.783        0.957627848            -19.139
               565       0.957938421            -18.757        0.282057461               70.6        0.282642582             70.735        0.957166725            -19.224
               566       0.957722484            -18.802        0.282904388             70.518        0.282839254             70.664        0.956840795            -19.279
               567       0.957748674            -18.848        0.283009855             70.514        0.283433748             70.668         0.95664666            -19.261
               568       0.957136523            -18.854        0.283578884             70.509        0.283970933             70.658        0.957246724            -19.298
               569       0.957144165             -18.92        0.283973201             70.428        0.284365795             70.579        0.956703486            -19.337
               570       0.957224607            -18.928        0.284684521             70.391        0.284684521             70.528         0.95623328             -19.42
               571        0.95656631            -18.919        0.285078904             70.405        0.285177384             70.557        0.956896753            -19.416
               572       0.957091432            -18.951        0.285366789             70.376        0.285892938             70.496        0.955770074            -19.471
               573       0.956581523            -19.022        0.285905156             70.286        0.286201554             70.442        0.956141103            -19.516
               574       0.956365109            -19.079        0.286499404             70.305        0.286796418             70.413        0.956255009            -19.516
               575       0.956509277            -19.114        0.286839652             70.226        0.287103962             70.361        0.955628704            -19.577
               576       0.955934531            -19.102         0.28726198             70.205        0.287725365             70.411        0.956044593            -19.574
               577        0.95615942            -19.132        0.287859329              70.22        0.288224111             70.316        0.955389157             -19.62
               578       0.955609716             -19.15        0.288224276               70.2        0.288556297             70.325        0.955939829            -19.641
               579       0.955710368            -19.183         0.28858669             70.188        0.289185356             70.277        0.955490333            -19.665
               580       0.955650815            -19.262        0.289233927             70.106        0.289500444             70.225        0.955210823            -19.707
               581       0.955673543             -19.25        0.289507329             70.098        0.290007723             70.194        0.954573916            -19.717
               582        0.95544476            -19.306        0.290038455             70.021        0.290339138             70.147        0.954565168            -19.774
               583        0.95495773            -19.354        0.290793134             70.033        0.290960576             70.083        0.954847792            -19.799
               584       0.954787179            -19.364        0.290841636             69.984        0.291478535             70.075         0.95489711            -19.868
               585        0.95418798            -19.429        0.291429789             69.958        0.291967117              70.01        0.955177187            -19.923
               586       0.954427912            -19.416        0.292006912             69.878        0.292242337             70.048        0.954647702            -19.938
               587       0.954312135            -19.471        0.292577178             69.878        0.292779353             70.001        0.954531899            -19.952
               588       0.954162928            -19.501        0.293104536             69.789        0.293104536              69.94        0.954162928             -20.02
               589       0.954377443            -19.522        0.293406794             69.814        0.293474361             69.963        0.953938037            -19.996
               590       0.953826846            -19.605        0.293879669             69.762        0.294150467             69.863        0.954156343             -20.07
               591       0.954243983            -19.625        0.294312989             69.722        0.294618104             69.894        0.953585042            -20.095
               592       0.953588619            -19.604        0.294788854              69.73        0.295196402             69.806        0.953588619            -20.122
               593       0.953729371            -19.667        0.295341963             69.687        0.295614108             69.788        0.953290263            -20.152
               594       0.953736524            -19.688        0.295650362              69.66        0.295922791             69.744        0.953077933            -20.207
               595       0.953674126            -19.712         0.29600565             69.588        0.296585558             69.771        0.952247848             -20.22
               596       0.953222542             -19.77        0.296547525             69.528        0.297060087             69.728        0.952783668            -20.239
               597       0.953226642            -19.799        0.297163984             69.545        0.297232416             69.688        0.952897466            -20.295
               598       0.952645843            -19.814        0.297804651             69.517        0.297804651             69.602        0.952865223            -20.348
               599       0.952672164             -19.88        0.297984364             69.472        0.298327629             69.569        0.952672164            -20.373
               600       0.952178742            -19.866        0.298516597             69.492        0.298722876             69.617        0.952946417            -20.349
               601       0.952931473            -19.934        0.299027872             69.407        0.299200056             69.595        0.952054195            -20.428
               602       0.951908829            -19.974        0.299498985              69.39        0.299705943             69.485        0.952566611            -20.466
               603       0.952226387            -19.955        0.299909493             69.383        0.300082184             69.503        0.951897556            -20.445
               604       0.951872728            -20.016        0.300316286             69.348        0.300696854             69.477         0.95209193            -20.479
               605       0.951538815            -20.032        0.300660592             69.297         0.30121494             69.387        0.951867522            -20.556
               606       0.951466726            -20.074         0.30119212              69.27        0.301816935             69.384        0.951576274            -20.544
               607       0.951357164            -20.118        0.301643237             69.224        0.302268989             69.301          0.9514667            -20.643
               608       0.951681551            -20.149        0.302232839             69.184        0.302580997             69.305        0.950914895            -20.669
               609       0.951463698            -20.161        0.302407267             69.143        0.303104387             69.275        0.950697217            -20.697
               610       0.951174267            -20.222        0.303151759              69.15         0.30360582             69.216          0.9508458            -20.718
               611       0.950823617            -20.179        0.303563786             69.158        0.303808528             69.218        0.950823617            -20.711
               612       0.950720046            -20.237        0.304090359             69.089        0.304440658             69.195        0.950829508              -20.8
