!{251R15S240}
!Johanson Technology Inc.
!www.johansontechnology.com
!Test Board Conditions:
!Substrate Type  RO4350B
!Substrate Thickness        20 mil
!Substrate Dk      3.66
!TL Type: GCPW 
!TL Trace Width  34 mil
!TL Gap  10 mil
!Electrode orientation      Horizontal
!DUT TOPOLOGY	SERIES
!Mounting Pad LxW         26x52 mil
! Created Thu Mar 12 17:11:48 2020
# mhz S ma R 50
! 2 Port Network Data from SP1.SP block
! freq  magS11  angS11  magS21  angS21  magS12  angS12  magS22  angS22  
!     
               500        0.13913936            -89.478        0.988780744              0.919        0.989577928              0.906         0.13877141            -88.981
               501       0.138899282            -89.496        0.989008445              0.858        0.989350095               0.86        0.138579822            -89.006
               502       0.138659618            -89.539        0.988780744              0.874        0.989691864              0.811        0.138181531             -89.07
               503       0.138452244            -89.578        0.988666913              0.823        0.989919775              0.792        0.138213352            -89.108
               504       0.138165623            -89.492        0.989236199              0.771        0.989919775              0.777        0.137752662            -89.167
               505       0.137927225             -89.58        0.989122315              0.772        0.989577928              0.723        0.137356748            -89.199
               506       0.137736804            -89.554        0.989122315               0.72        0.989577928              0.763        0.137277702            -89.166
               507       0.137277702            -89.569        0.989350095              0.652        0.990375755              0.722        0.136835883            -89.225
               508       0.137056615            -89.695        0.989577928              0.659        0.989577928              0.644        0.136694172            -89.286
               509       0.136757137            -89.724        0.989919775              0.626        0.989805813              0.653        0.136238546            -89.271
               510       0.136630184            -89.831        0.989912145              0.599        0.990254108              0.599        0.135971113            -89.347
               511        0.13645205            -89.761        0.989532504              0.568        0.990444317               0.58        0.135575141            -89.367
               512       0.135902767            -89.867        0.989984283              0.538        0.990440293              0.551        0.135637039            -89.428
               513       0.135519818            -89.929         0.98947041              0.501        0.990610236              0.505        0.135068106            -89.445
               514       0.135518941             -89.86        0.989691864              0.471        0.990603824              0.516        0.135082783            -89.485
               515       0.134940377            -90.001        0.989787395               0.45        0.990585391               0.47        0.134583531            -89.531
               516       0.134880759            -89.913        0.989236199              0.409        0.989577928              0.392        0.134369283            -89.489
               517       0.134604595            -90.035        0.989714392              0.411        0.990626373              0.334        0.133785759            -89.631
               518       0.134199223            -90.022        0.989919775              0.365        0.990489783              0.376        0.133536503            -89.639
               519       0.133739891            -90.155        0.989830806              0.313        0.990742894              0.318        0.133232742            -89.688
               520       0.133813522            -90.031        0.990147739              0.277         0.99026174              0.288        0.133152707            -89.728
               521       0.133475022            -90.104        0.989805813              0.255         0.99026174                0.3        0.132831171            -89.697
               522       0.132957348            -90.288        0.990631982              0.223        0.990631982              0.197        0.132666828            -89.712
               523       0.132800589            -90.183        0.990831945              0.198         0.99026174               0.21         0.13238842            -89.818
               524       0.132678331            -90.142         0.99003375              0.139        0.990603824              0.162        0.131992727            -89.882
               525       0.132386261              -90.2        0.990017605              0.192        0.991043957              0.183        0.131975379            -89.783
               526       0.132042011             -90.32        0.990973705              0.139        0.990061405              0.102        0.131707993             -89.93
               527       0.131734643            -90.325        0.989464005              0.057         0.99026174              0.069        0.130918192            -89.919
               528       0.131719478            -90.368        0.989919775              0.085        0.990603824              0.056        0.130918192            -89.802
               529        0.13126532            -90.337        0.990375755              0.049         0.99026174              -0.02        0.130797668            -89.937
               530       0.130948341            -90.346        0.990147739              0.024        0.991174225              0.031        0.130496841            -89.958
               531       0.130602052            -90.489        0.990603824            -0.0056        0.990946025             -0.016        0.130391716            -90.027
               532       0.130466797            -90.459        0.990375755             -0.053        0.991174225             -0.032        0.130076847            -89.972
               533       0.130152398            -90.617        0.991065079             -0.135        0.990608782             -0.064        0.129718576            -90.117
               534        0.12979262            -90.535        0.989919775             -0.146        0.990831945             -0.147        0.129240908             -90.15
               535       0.129807564             -90.49        0.990946025             -0.126        0.990603824             -0.107        0.129211152            -90.114
               536       0.129523926            -90.665        0.990147739             -0.172        0.991174225             -0.212        0.128899134             -90.19
               537       0.129022854            -90.605        0.991098098             -0.196        0.991212209             -0.159         0.12862241            -90.165
               538       0.129000369            -90.621        0.990811305             -0.251        0.991267695             -0.197        0.128274684            -90.261
               539       0.128727666             -90.79          0.9912242             -0.261        0.990881902             -0.245        0.128209999            -90.234
               540       0.128617481            -90.666        0.990717878             -0.317        0.990717878             -0.312        0.127952861            -90.361
               541       0.128247822            -90.693         0.99003375             -0.305        0.991288345             -0.342        0.127541054            -90.313
               542       0.127923402            -90.785        0.990717878             -0.367        0.990717878             -0.353        0.127291675            -90.312
               543       0.127526371            -90.851        0.990831945             -0.396        0.991630783              -0.41        0.127101302            -90.325
               544       0.127159848            -90.887        0.990489783             -0.431        0.991288345             -0.443        0.126721411            -90.371
               545       0.127312243             -91.08        0.991106147             -0.432        0.990992048             -0.407        0.126771074            -90.481
               546       0.126864546            -90.917        0.991266135             -0.467        0.991380265             -0.446        0.126310737            -90.506
               547       0.126933447            -91.043        0.991005518             -0.467        0.991347858             -0.523        0.126175802            -90.545
               548          0.126477            -91.022        0.991200598             -0.519        0.991657168              -0.51        0.125953881            -90.419
               549       0.126052075            -90.932        0.991402478             -0.547        0.991174225             -0.561        0.125400711            -90.535
               550       0.126081103             -90.94        0.991402478              -0.51        0.991630783             -0.587        0.125530714            -90.535
               551       0.125921532            -91.174        0.990946025             -0.574        0.990831945             -0.612         0.12501151            -90.524
               552       0.125458474            -91.065        0.990946025             -0.665        0.991402478             -0.633        0.124939568            -90.706
               553       0.125379419            -91.145        0.991234145              -0.64        0.991576564             -0.646        0.124717172             -90.73
               554       0.125169927            -91.094        0.990831945             -0.667        0.991630783             -0.669        0.124437134            -90.743
               555       0.124738351            -91.143        0.991630783             -0.722        0.991516624             -0.684        0.124108064             -90.73
               556       0.124265336            -91.094        0.991630783             -0.807        0.991516624             -0.704        0.123908186            -90.836
               557       0.124136644            -91.196        0.991288345              -0.76        0.991630783             -0.753        0.123623205            -90.769
               558       0.124043451            -91.349        0.991799397             -0.763        0.991342762             -0.857        0.123331451            -90.842
               559        0.12407949            -91.315        0.990946025             -0.892        0.991630783             -0.801        0.123041042            -90.838
               560       0.123865397            -91.382        0.991288345             -0.869        0.991402478             -0.842        0.122828741            -90.889
               561       0.123310483            -91.383        0.991516624             -0.883        0.991060119              -0.88        0.122588576            -90.881
               562        0.12318278            -91.329        0.991060119             -0.911        0.990717878              -0.92        0.122433425            -90.933
               563       0.122701536            -91.445        0.991402478              -0.93        0.990946025             -0.931        0.122264394            -90.896
               564       0.122391146            -91.444        0.991402478             -0.937        0.992087551             -0.971          0.1221659            -90.958
               565       0.122391146            -91.493        0.990946025             -0.982        0.991973339             -1.013        0.121744682            -90.987
               566       0.122025624             -91.44        0.991861512             -1.034        0.992089923             -1.033        0.121618891            -91.121
               567        0.12189896            -91.562        0.991402478              -1.06        0.991973339              -1.03        0.121478662            -91.126
               568       0.121408753            -91.542        0.991744955             -1.046        0.992087551             -1.059        0.121213223            -91.076
               569       0.121520627            -91.592        0.991402478              -1.08        0.991973339             -1.139        0.120878761            -91.085
               570       0.121255096            -91.645        0.991973339             -1.133        0.991859141             -1.143        0.120837018            -91.206
               571       0.121108345            -91.561        0.991685744             -1.185        0.992371013             -1.177        0.120343897            -91.185
               572       0.120837018            -91.643        0.992201776             -1.217        0.991744955             -1.203         0.12025413            -91.242
               573       0.120590249            -91.774        0.991886987             -1.196        0.992115403             -1.232        0.119925681            -91.274
               574       0.120208774            -91.794        0.992170174             -1.227        0.992284409             -1.257         0.11994611            -91.183
               575       0.120046638            -91.751        0.992201776             -1.289        0.991973339             -1.269        0.119687832            -91.364
               576        0.12000858            -91.885        0.991887222             -1.313        0.992229867              -1.32        0.119306003            -91.366
               577       0.119742963            -91.711        0.991402478              -1.32        0.991973339             -1.317        0.118918658            -91.353
               578       0.119385065             -91.88        0.991744955             -1.365        0.992544529             -1.409        0.118795503            -91.362
               579       0.119165263            -91.926        0.991630045             -1.374        0.992543791             -1.374        0.118631406            -91.421
               580       0.119069355            -91.767        0.991516624             -1.425        0.991744955             -1.399        0.118345023            -91.446
               581       0.118658813            -91.828        0.991859141             -1.476        0.992201776             -1.461        0.118072837            -91.496
               582       0.118654826            -91.871        0.991711627             -1.436        0.992739735               -1.5        0.117933016            -91.459
               583       0.118317777            -91.906        0.992544529             -1.497        0.991744955             -1.485        0.117760597            -91.474
               584       0.118032064            -91.844        0.992544529             -1.506        0.991744955             -1.471        0.117557408            -91.394
               585       0.117890334            -91.925        0.992494701             -1.518        0.992380443             -1.548        0.117321659            -91.676
               586       0.117719931            -91.992        0.992430265             -1.557        0.992430265             -1.533         0.11726003            -91.636
               587       0.117503283            -92.098        0.992316014             -1.587        0.991973339             -1.616        0.116923013            -91.645
               588       0.116923013            -92.182        0.991973339             -1.648        0.992430265             -1.664        0.116439411            -91.639
               589       0.116868468            -92.054        0.992424208             -1.656        0.992881342             -1.655        0.116532577            -91.676
               590        0.11686023            -92.139        0.992582783             -1.678        0.992697065             -1.698        0.116176085            -91.652
               591       0.116631741            -92.228        0.992468562             -1.736        0.992697112             -1.724        0.115962283            -91.745
               592       0.116385801            -92.304        0.992544529             -1.708        0.992430265             -1.751        0.115891077            -91.723
               593       0.116241899            -92.304        0.992345025             -1.732        0.992687828             -1.782         0.11540183            -91.802
               594       0.116230077            -92.175        0.992015654             -1.764        0.992929755             -1.779        0.115190994            -91.776
               595       0.115786216            -92.178        0.992103222              -1.81        0.993131735             -1.794        0.115227691            -91.779
               596        0.11583772            -92.219        0.992430265             -1.845        0.992544529             -1.831        0.114974095            -91.867
               597       0.115396093            -92.324        0.992867063              -1.82        0.992638474             -1.872        0.114998216            -91.907
               598       0.115371807            -92.323        0.992429565             -1.873        0.992772397             -1.901        0.114327233            -92.001
               599        0.11505062            -92.274         0.99274787             -1.906        0.992976485             -1.903        0.114258617            -91.884
               600       0.114690384            -92.381        0.992491984             -1.968         0.99317781             -1.959        0.114045199            -91.919
               601       0.114633852            -92.355        0.992802558              -1.99        0.992802558             -1.927        0.113805405            -92.065
               602       0.114064368            -92.448        0.991744955             -1.962        0.992201776             -2.018        0.113566437            -91.957
               603       0.114199072            -92.479        0.992230503             -2.044        0.993144802             -1.997        0.113412931            -92.109
               604       0.114050597            -92.441        0.991853572             -2.037        0.993339171             -2.038        0.113369847            -92.042
               605       0.113710351            -92.419        0.991859141              -2.07        0.993230392             -2.086        0.112979591            -92.081
               606       0.113309903            -92.525        0.993271252             -2.075        0.992585362             -2.054        0.112958227            -92.133
               607        0.11316184            -92.542        0.992201776             -2.122        0.992887401             -2.115        0.112706769            -92.187
               608       0.112950397            -92.668        0.992630835              -2.17        0.993202403             -2.187        0.112276215            -92.267
               609        0.11295358            -92.586        0.992430265             -2.157        0.992316014             -2.177        0.112331097            -92.074
               610       0.112797637            -92.692        0.992430265             -2.202        0.992658807             -2.184        0.112163099            -92.289
               611       0.112412713            -92.842        0.992351265               -2.2        0.993265676             -2.204        0.111574623            -92.225
               612       0.112403811             -92.57        0.993301372             -2.189        0.992844045             -2.227        0.111501584            -92.243
