!{251R15S8R2}
!Johanson Technology Inc.
!www.johansontechnology.com
!Test Board Conditions:
!Substrate Type  RO4350B
!Substrate Thickness        20 mil
!Substrate Dk      3.66
!TL Type: GCPW 
!TL Trace Width  34 mil
!TL Gap  10 mil
!Electrode orientation      Horizontal
!DUT TOPOLOGY	SERIES
!Mounting Pad LxW         26x52 mil
! Created Thu Mar 12 16:44:47 2020
# mhz S ma R 50
! 2 Port Network Data from SP1.SP block
! freq  magS11  angS11  magS21  angS21  magS12  angS12  magS22  angS22  
!     
               500       0.383486429            -74.279        0.915377008             15.118        0.916853611             15.105        0.383574741            -73.929
               501       0.383001081            -74.342        0.916959174             15.061        0.917804114             15.099          0.3831775            -74.079
               502         0.3819003            -74.411        0.916748061             14.979         0.91801547             14.969         0.38242828            -74.133
               503       0.381021954            -74.504        0.917592806             14.921         0.91801547             14.898        0.381856335            -74.182
               504       0.380408314            -74.525        0.917064749             14.874        0.918649832             14.844         0.38141696            -74.231
               505       0.380014353            -74.568         0.91748717             14.818        0.918649832             14.849        0.380495916            -74.235
               506       0.379009416            -74.655        0.917698454             14.742        0.918755602             14.724        0.379664508             -74.37
               507       0.378616904            -74.755        0.919178802             14.665        0.918544075             14.705        0.379271317            -74.411
               508        0.37796362             -74.76        0.918544075             14.684        0.919072983             14.645        0.378529734            -74.447
               509       0.377572191            -74.874        0.918755602             14.613         0.91949633             14.582        0.377789602            -74.483
               510       0.376790548            -74.863        0.918544075             14.555        0.920343607             14.496        0.377050916             -74.59
               511       0.376227035            -74.919        0.919390475             14.469        0.920449572             14.477        0.376747171            -74.647
               512       0.375102536            -74.965        0.919390475             14.418        0.919919871             14.424        0.375750874            -74.686
               513       0.374800361            -75.045        0.920555549             14.382        0.921403802             14.347        0.375448177            -74.734
               514       0.373938344            -75.082        0.920555549             14.299        0.920767539              14.32        0.374627798            -74.824
               515       0.373723149              -75.2        0.920767539             14.238        0.921509889             14.241        0.374110588            -74.859
               516       0.373293132            -75.236        0.920979578              14.27        0.921615988              14.21        0.373594092            -74.846
               517       0.372348836            -75.231        0.921085615             14.118        0.922465218             14.153        0.373121264            -74.962
               518       0.371107729            -75.291        0.921085615             14.084        0.922252837             14.129        0.372606134             -74.99
               519       0.371235928            -75.368        0.921722099             14.022        0.922359022             14.064        0.371834772            -75.002
               520       0.370168961            -75.434        0.921828222             13.977        0.922783882             13.996        0.371150457            -75.115
               521       0.369530254            -75.467        0.922783882             13.951        0.922677648             13.933        0.370296835            -75.177
               522       0.369062569            -75.551        0.921934357             13.836        0.923208937             13.909        0.369785604            -75.257
               523       0.368213748            -75.592        0.922890127             13.812        0.923208937             13.815        0.369487712            -75.308
               524       0.368086594            -75.678        0.923421538             13.774        0.924272433             13.789        0.368637914            -75.318
               525       0.367324588             -75.64        0.922146665             13.752        0.923527857             13.769        0.367832416             -75.34
               526       0.366859694            -75.688        0.923634188             13.703         0.92437885             13.726        0.367493786            -75.413
               527       0.366311033            -75.833         0.92459172             13.597         0.92437885              13.63        0.366648574             -75.49
               528       0.365132087            -75.896        0.923527857             13.566        0.924698174             13.559        0.365973804            -75.559
               529       0.365048022            -75.879        0.923634188              13.54        0.924911118             13.496        0.365090052            -75.554
               530       0.364418151            -75.958        0.925124111              13.47        0.924911118             13.466        0.364795943            -75.621
               531       0.363412616            -75.991        0.924911118             13.408        0.925869974             13.458        0.364418151            -75.667
               532       0.363119858            -76.091        0.925763385             13.368        0.925230626             13.327        0.363747486            -75.736
               533       0.362743801            -76.138        0.925976575             13.257        0.925976575             13.279        0.363328947            -75.831
               534       0.362117906            -76.189        0.926189813             13.266        0.926403101             13.249        0.362451582            -75.862
               535       0.361160296            -76.234        0.926723124             13.189        0.925976575             13.197        0.362201296            -75.911
               536       0.361035577            -76.319        0.925976575             13.156        0.926616437             13.146        0.361451474            -75.947
               537       0.360620159            -76.314        0.927149994             13.099        0.927149994              13.07        0.360786269            -76.021
               538       0.359542306            -76.411        0.927149994             12.992        0.927790668             13.061        0.359997927            -76.048
               539       0.359045923            -76.422        0.926296451             13.033        0.928004324              12.98        0.359418146            -76.095
               540       0.358055212            -76.503        0.926509763             12.939        0.927683858             12.933        0.358632794            -76.163
               541       0.357725583            -76.524        0.926723124             12.858        0.927790668              12.89        0.358096437            -76.231
               542       0.357396257            -76.564        0.927043258             12.819         0.92821803             12.867        0.357643223            -76.252
               543       0.356451133            -76.675         0.92789749             12.754        0.928431785              12.78        0.357149462            -76.299
               544       0.355836095            -76.656        0.927470276             12.701         0.92853868             12.751        0.356656382            -76.365
               545       0.355467582            -76.739         0.92821803              12.67        0.928645589             12.688        0.355959018            -76.381
               546       0.355222118            -76.767        0.928431785             12.659        0.928645589             12.649        0.355672264            -76.429
               547       0.354201177            -76.805         0.92853868             12.601        0.928966387             12.624        0.354813389            -76.452
               548       0.353590021            -76.912        0.929180314             12.533        0.928859442              12.54        0.354282744             -76.58
               549       0.352736174            -76.963        0.928859442             12.455        0.929608316             12.491        0.353630732            -76.579
               550       0.352330305             -77.01        0.929608316             12.421        0.929180314             12.422        0.353386537            -76.666
               551       0.352127546            -77.074         0.92939429             12.391        0.930143595             12.371        0.352208636            -76.667
               552       0.351681886            -77.138        0.930357793              12.33        0.931000684             12.365        0.352208636            -76.738
               553       0.350913438            -77.139        0.930036515             12.302        0.931000684             12.329          0.3514795            -76.772
               554       0.350388626            -77.174        0.930036515             12.228        0.931536765             12.244        0.350953841            -76.902
               555        0.35010636            -77.271        0.929822391             12.155        0.931965853             12.203         0.35010636            -76.885
               556       0.349059932            -77.304        0.930464911              12.13        0.930786338              12.12        0.349703517            -76.919
               557       0.348537892            -77.352        0.929715347             12.084        0.931322296             12.132        0.349059932            -76.956
               558       0.347976568            -77.397        0.931215079             12.038        0.931536765              12.11        0.348457647            -76.994
               559       0.347136276            -77.427        0.931322296             11.969        0.931751284              11.99        0.347976568            -77.073
               560       0.346976451             -77.53        0.931536765             11.959         0.93250249             11.953        0.347376152            -77.102
               561        0.34673685            -77.547        0.931858562             11.845        0.933146862             11.929        0.346976451            -77.209
               562       0.345660696            -77.596        0.931429524             11.806        0.932073155             11.885        0.346258147             -77.22
               563       0.345183478            -77.603        0.931644019             11.756         0.93250249             11.781        0.345700494            -77.314
               564       0.344706918            -77.638        0.932287798             11.731        0.932395138             11.773        0.345302721            -77.328
               565        0.34427065            -77.714        0.931751284             11.717        0.933146862             11.722        0.344429229            -77.354
               566       0.343557948            -77.779        0.932073155             11.626        0.933146862             11.686        0.344032919            -77.449
               567       0.343123134            -77.811        0.932609854             11.625        0.933469215             11.594        0.343281184            -77.464
               568       0.342807251            -77.851        0.932717231             11.569        0.934006718             11.566        0.343044136            -77.486
               569       0.342018817            -77.924        0.933254301             11.503        0.933899193             11.536        0.342412807            -77.581
               570       0.341350073            -77.954        0.933361752             11.485        0.933899193             11.457        0.342058195            -77.603
               571       0.340800325            -78.032        0.933899193             11.422        0.934221806             11.393        0.341467991            -77.681
               572       0.340447383             -78.12        0.934221806             11.326         0.93454453             11.311        0.340878806            -77.736
               573       0.339820833            -78.127        0.934329368             11.336        0.934436943               11.3        0.340290637            -77.753
               574       0.339117342            -78.205        0.933684179               11.2         0.93454453             11.253        0.339625273            -77.747
               575       0.338883169            -78.235         0.93454453             11.214        0.934867366             11.248         0.33931261            -77.857
               576       0.338298444            -78.258        0.934221806             11.173        0.934975003             11.212        0.338649158            -77.905
               577       0.337792498            -78.323        0.935405674             11.095        0.935405674             11.095        0.337987003            -77.977
               578       0.336782875            -78.344        0.934436943             11.071        0.935297988             11.112        0.337675849            -77.974
               579       0.336627816             -78.41        0.934867366              11.03        0.935621084             11.074        0.337248479            -78.041
               580       0.335969614            -78.494        0.935405674             10.961        0.935728808              10.95        0.336938005            -78.111
               581       0.335583037            -78.539        0.936267611             10.886         0.93648322             10.913        0.336085674            -78.209
               582       0.334849766            -78.535        0.935297988             10.888        0.935944292             10.918        0.335389915             -78.16
               583       0.334310487            -78.584        0.935405674             10.843        0.936375409             10.848        0.334926877            -78.194
               584       0.333810505            -78.646        0.935836544             10.783        0.936159826             10.798        0.334734133            -78.252
               585       0.333311271            -78.704        0.935944292             10.735        0.936806726             10.725        0.334002717            -78.328
               586       0.333157811            -78.726        0.935944292             10.689        0.936806726             10.745        0.333541594            -78.353
               587       0.332582964            -78.771         0.93723824              10.61        0.937669954             10.668        0.333004422            -78.443
               588       0.331932671            -78.828        0.937130343             10.569        0.937885885             10.639        0.332353304            -78.485
               589       0.331436245            -78.949        0.936914586             10.563         0.93799387             10.486        0.331894458            -78.516
               590       0.330750112            -78.893        0.936914586             10.462        0.937669954             10.593         0.33124551            -78.527
               591       0.330483666            -78.937        0.937885885             10.481         0.93799387             10.524        0.331093001            -78.581
               592       0.329571767            -79.021         0.93799387             10.408        0.938209876             10.416        0.330369541            -78.629
               593        0.32926836            -78.984        0.937777913             10.374        0.938317897             10.412        0.329951419            -78.707
               594       0.328662383            -79.067         0.93799387             10.328        0.939074397             10.356        0.329647662            -78.774
               595       0.327906481            -79.164        0.938209876             10.276        0.938317897              10.26        0.328889493            -78.793
               596       0.327529182            -79.197        0.937454072             10.221        0.938317897             10.247        0.327906481            -78.856
               597       0.327189984            -79.265        0.938858192               10.2        0.938533978               10.2        0.327755509            -78.869
               598       0.326738266              -79.3        0.938425931             10.146        0.939290652             10.181        0.327680049            -78.948
               599        0.32632474            -79.356        0.938642037             10.095        0.939615127             10.125        0.326851137            -78.978
               600       0.325874216             -79.38        0.939074397             10.064        0.939506956             10.108        0.326399887            -79.001
               601       0.325311937            -79.458        0.939506956             10.001        0.940264415              9.972        0.325874216            -79.118
               602       0.324862813            -79.468        0.939615127              9.925        0.939831506             10.023        0.325274487            -79.095
               603        0.32445166            -79.517        0.939506956              9.939        0.941239187              9.938        0.324975036             -79.14
               604       0.323779986            -79.577        0.940264415              9.826        0.940372673              9.915        0.324414308            -79.199
               605       0.323593657            -79.613        0.940697522              9.849        0.941889597              9.835         0.32437696            -79.238
               606       0.323146904            -79.685        0.940264415               9.82         0.94145594              9.792        0.323519155            -79.261
               607       0.322255249            -79.699        0.940156169              9.752        0.940697522              9.771        0.322737923            -79.304
               608       0.322069797            -79.793        0.940914151              9.705        0.940589226              9.724        0.322663619            -79.336
               609         0.3215511            -79.775        0.940589226              9.652        0.941781164              9.707         0.32203272             -79.37
               610        0.32084849            -79.826         0.94080583              9.669        0.941239187              9.602        0.321366054            -79.397
               611       0.320553114             -79.85        0.941022484               9.56        0.941239187              9.628        0.321033239            -79.492
               612       0.319668615            -79.937        0.941239187              9.519        0.941239187              9.539        0.320442418            -79.511
