!{251R15S2R4}
!Johanson Technology Inc.
!www.johansontechnology.com
!Test Board Conditions:
!Substrate Type  RO4350B
!Substrate Thickness        20 mil
!Substrate Dk      3.66
!TL Type: GCPW 
!TL Trace Width  34 mil
!TL Gap  10 mil
!Electrode orientation      Horizontal
!DUT TOPOLOGY	SERIES
!Mounting Pad LxW         26x52 mil
! Created Thu Mar 12 16:38:56 2020
# mhz S ma R 50
! 2 Port Network Data from SP1.SP block
! freq  magS11  angS11  magS21  angS21  magS12  angS12  magS22  angS22  
!     
               500       0.820277305            -41.563        0.568146971              48.61        0.569981416             48.673         0.81773144            -41.694
               501       0.819687356            -41.595        0.569768239             48.555        0.570227603             48.641        0.817519718            -41.758
               502       0.818934045            -41.651        0.570097224             48.521        0.571477223             48.577        0.817238703            -41.794
               503       0.818747278            -41.737        0.571215349             48.422          0.5717417             48.554        0.816112198            -41.836
               504       0.818073459            -41.801        0.571929243             48.372        0.572654006             48.457        0.815816159            -41.921
               505       0.817531335            -41.871        0.572735902              48.29        0.573329658             48.405        0.815369398            -41.987
               506       0.816989123            -41.901        0.573279319             48.254        0.574336312              48.36        0.814453464            -42.046
               507       0.816404211            -41.947        0.574057289             48.192        0.575049508             48.273        0.814432763            -42.134
               508       0.815995249            -42.068        0.574827623             48.084        0.575754883             48.199        0.813556333            -42.196
               509        0.81532419            -42.129        0.575546381             48.058        0.576673942             48.134        0.812793698            -42.246
               510       0.814659221            -42.197        0.576336305             48.027        0.577199542             48.087        0.812598428            -42.282
               511       0.814071887             -42.27        0.576916231              47.86        0.578312737             48.029        0.811825628            -42.426
               512       0.813560893             -42.33        0.577750147             47.829        0.579215352             47.912         0.81178321            -42.459
               513       0.813150374            -42.411        0.578989737             47.757        0.579589976             47.831        0.810439996            -42.567
               514        0.81271401            -42.468        0.579078907              47.69        0.580681174             47.766        0.809911837             -42.62
               515       0.812204629            -42.522        0.580116824             47.618        0.581454131              47.68        0.809683819            -42.688
               516       0.811631593            -42.618        0.580977005             47.522        0.582115205             47.616        0.809485257            -42.747
               517       0.811044569             -42.68        0.581426364             47.518        0.582565445             47.577         0.80852736            -42.807
               518       0.810345888            -42.802        0.582599936             47.403         0.58360692             47.456        0.807923857            -42.897
               519       0.810046196            -42.811        0.583055353             47.364        0.584130371             47.474        0.807067366             -42.92
               520       0.809386356            -42.903        0.583856177             47.265        0.585067372             47.358        0.807245958            -43.006
               521       0.808560179            -42.952        0.584806712              47.25         0.58581751             47.316        0.806700542             -43.05
               522       0.808199513            -43.038        0.585758479             47.167        0.586163247             47.249        0.805783897            -43.131
               523        0.80739494            -43.084        0.586254276             47.105        0.587132368             47.208        0.805537983            -43.208
               524       0.807118629            -43.145        0.587066598             47.024         0.58767521             47.131        0.804798894            -43.289
               525       0.806417335            -43.205        0.587570327             46.996        0.588585901             47.074        0.804007046            -43.351
               526       0.806027217            -43.285        0.588301163             46.885        0.589453712             46.958        0.803618094            -43.451
               527       0.805397053            -43.406        0.589128505             46.812        0.590418608             46.884        0.802897372            -43.471
               528       0.804759511            -43.465         0.58995124             46.724        0.590834869             46.819         0.80272376            -43.591
               529       0.804125778            -43.517         0.59057354             46.708        0.591662419             46.778        0.801722339            -43.633
               530       0.803965608            -43.562        0.591408376             46.619        0.592089652             46.735        0.800916925            -43.691
               531       0.803366606            -43.611         0.59164851             46.597        0.593148963             46.656        0.800228059            -43.753
               532       0.802634892            -43.655        0.593291376             46.542        0.593701349             46.581        0.800051669             -43.82
               533       0.802316036            -43.725        0.593397172             46.427        0.594491258             46.561        0.799365633            -43.886
               534       0.801221599            -43.841        0.594774922             46.362         0.59491189             46.464        0.799654984            -43.962
               535       0.800638157            -43.895        0.595300551             46.299        0.595917699             46.416        0.798888711            -44.029
               536       0.800447352            -44.004         0.59591288              46.24        0.596461989             46.313        0.797779316            -44.083
               537        0.79977177            -44.012        0.596576402             46.194        0.597332398             46.284        0.796830723            -44.182
               538       0.799360333            -44.126         0.59688765              46.07          0.5983325             46.193         0.79669592            -44.235
               539       0.798551779            -44.205        0.598140324             46.014        0.598829355             46.081        0.796715161            -44.329
               540       0.797993697            -44.242        0.599031225             45.991        0.599307153             46.076        0.795975061            -44.344
               541       0.797588605            -44.315        0.599140863             45.893        0.600314648             46.036        0.794838583            -44.431
               542       0.797099986             -44.36        0.600223233             45.883        0.600914663             45.918        0.794260201            -44.496
               543       0.796537436            -44.464         0.60076717              45.83        0.601389985             45.883        0.793242896             -44.54
               544       0.795929035            -44.525        0.601761429             45.722        0.602385276             45.774        0.793367394             -44.63
               545       0.795456352            -44.539        0.602651656             45.651        0.602721042             45.821        0.792348708            -44.671
               546       0.794964553            -44.659        0.603250602             45.563        0.603806472             45.671        0.792041184            -44.745
               547       0.794370596             -44.73        0.603563767             45.527        0.604467785             45.582        0.791267194             -44.85
               548       0.793405862            -44.768        0.604081318             45.463         0.60533447             45.601         0.79112554            -44.899
               549       0.793079939            -44.836        0.605085805             45.413        0.605922339             45.471        0.790709514            -44.966
               550       0.792525623             -44.88        0.605708003             45.327        0.606685076             45.443        0.790156855            -45.038
               551       0.791956726            -44.964        0.606389191             45.279        0.607367363             45.361         0.78940787            -45.103
               552       0.791207828            -45.052        0.607352153             45.199        0.608401919             45.283        0.789024657            -45.147
               553       0.790987563            -45.094        0.608162524             45.113          0.6088631             45.232        0.787988093            -45.233
               554       0.790512509            -45.177        0.608707631             45.014        0.609408835             45.153         0.78715226            -45.355
               555       0.789500399            -45.275        0.609259562              44.99        0.610382894             45.089        0.787231301            -45.372
               556       0.789110976            -45.307        0.610433113             44.918        0.610714293             45.039        0.786933591            -45.429
               557       0.788629874            -45.385        0.610271691             44.918        0.611889815             44.956        0.785910741            -45.456
               558       0.788249533            -45.431        0.611735553             44.805        0.611946876             44.947        0.785170044             -45.53
               559       0.787220906            -45.518        0.612486638             44.711        0.612909875             44.857        0.784867993            -45.663
               560       0.786983681            -45.573        0.613007414             44.704        0.613501639               44.8        0.783818892            -45.672
               561       0.786262312            -45.666        0.613716019             44.634        0.614352259             44.662        0.784002521            -45.762
               562       0.785953636            -45.686        0.613828328             44.579         0.61517252             44.677         0.78324373            -45.781
               563       0.785403969            -45.802        0.614742292             44.468        0.615804831             44.552        0.782335597            -45.913
               564       0.784872895            -45.832        0.615105105             44.398        0.616736045             44.548        0.781716595            -45.951
               565       0.783993093            -45.942        0.616044715              44.33        0.617180558             44.436         0.78182983             -46.05
               566       0.783810335            -45.994        0.617036686             44.265        0.617534159             44.371         0.78110782            -46.097
               567       0.782743077            -45.987        0.618043773             44.229        0.618328459              44.39         0.78076302            -46.153
               568       0.782413053            -46.103        0.618850986             44.149        0.618922238             44.261        0.780074511            -46.223
               569       0.781889761            -46.129         0.61929208               44.1        0.619791372             44.232        0.779732302            -46.263
               570       0.781437912            -46.264         0.62000398             43.982        0.620575288             44.128        0.778922909             -46.34
               571       0.780739035             -46.28        0.620663053             43.945        0.621449572             44.051        0.778584751            -46.433
               572       0.780248223            -46.335        0.621130404             43.917        0.621559614             44.051         0.77818488            -46.456
               573       0.779840204            -46.406        0.621592293             43.852        0.622738364             43.909         0.77706191            -46.571
               574       0.779350729            -46.474        0.622490812             43.758        0.623207894             43.866        0.776395386            -46.644
               575       0.778430311            -46.559        0.623117199             43.695         0.62440984             43.783        0.776282397            -46.689
               576       0.778066735            -46.626        0.624046351             43.635        0.624477576             43.763        0.775473298            -46.733
               577       0.777528372            -46.693        0.624620517             43.547        0.625412051             43.667        0.775650801            -46.792
               578       0.777094615            -46.752        0.625567099             43.497        0.625639125             43.606        0.774415256            -46.886
               579          0.776636             -46.79        0.625990176             43.439         0.62663914              43.55        0.774047331             -46.93
               580       0.775817579            -46.876        0.626916378             43.399        0.627349586             43.497        0.773855041            -46.936
               581       0.775568084            -46.922        0.627220045             43.338        0.627942574             43.417        0.772716043            -47.052
               582       0.774751936            -46.993        0.628221319              43.23        0.628800198             43.381        0.772614172            -47.102
               583       0.774444728            -47.037        0.628767995             43.206        0.629202483             43.275        0.771596817             -47.21
               584       0.773814882            -47.144        0.629125195             43.132        0.629994964             43.228        0.770969288            -47.251
               585       0.773008082            -47.183        0.630425882             43.049        0.630571059             43.166        0.771319009            -47.308
               586       0.772607605            -47.223        0.630970389             42.962        0.631188356             43.127         0.77029837            -47.415
               587       0.771852015             -47.36        0.631442839             42.839        0.632315812             43.028        0.769988151            -47.487
               588       0.771537611            -47.383          0.6322038             42.863        0.632495008             42.957        0.769497303            -47.514
               589       0.771061635             -47.41        0.632832966             42.804        0.633416096             42.919        0.768491547            -47.578
               590       0.770488409            -47.485        0.633382573             42.728        0.633966208             42.886        0.768273954            -47.617
               591       0.770012036            -47.556        0.633866082             42.645        0.634815487             42.762        0.767798949            -47.733
               592       0.769645871            -47.608        0.634732804             42.629        0.635025176             42.712        0.766903896            -47.766
               593       0.768953165             -47.64        0.635623417              42.55          0.6359162             42.684        0.766831401            -47.801
               594       0.768499054            -47.762        0.635760201             42.475        0.636859069             42.558        0.766025695            -47.888
               595       0.767846889            -47.792        0.636758321             42.422        0.637418449             42.567        0.765199414            -47.919
               596       0.767249886            -47.885        0.637362977             42.325        0.638170659             42.461        0.764868601             -48.02
               597       0.766837345            -47.928        0.637900959             42.266        0.638562271             42.414         0.76472142            -48.076
               598       0.766237004            -47.984        0.638576778              42.22        0.639533239              42.34        0.764122735            -48.118
               599       0.765857091            -48.013        0.639068981             42.171        0.639878824             42.284        0.763128614            -48.233
               600       0.765423543            -48.073         0.64010588             42.113        0.640179579             42.213        0.762872248            -48.275
               601        0.76501591            -48.173        0.640575711             42.041        0.641092162             42.117        0.761939462            -48.328
               602        0.76425547            -48.217        0.641488029             41.998        0.641561887             42.063        0.761620379            -48.401
               603       0.763728314            -48.292        0.642005712             41.922        0.642227491             42.028         0.76118267            -48.438
               604       0.763242061            -48.386        0.642483968             41.805        0.642853918             41.963          0.7605229            -48.537
               605       0.762477135             -48.43        0.642949443             41.803        0.643615989             41.915        0.760373241            -48.557
               606          0.761991            -48.457        0.643650101             41.736        0.644317374             41.883        0.759800967            -48.613
               607       0.761789454            -48.544        0.644146952             41.739        0.644740507             41.731        0.758638635            -48.683
               608       0.761304429            -48.551        0.644775247             41.639        0.645592322             41.725        0.758242907            -48.746
               609       0.760426719            -48.671        0.645590853             41.532        0.646483386             41.615        0.758066611            -48.841
               610       0.759968403            -48.755        0.645944993              41.47         0.64728499             41.546        0.757173728            -48.891
               611       0.759274774            -48.741        0.646694208              41.42        0.647588266             41.569        0.757266894            -48.951
               612       0.758877731            -48.826        0.647920631             41.408        0.647696886              41.52        0.756000023            -48.943
