!{251R15S1R8}
!Johanson Technology Inc.
!www.johansontechnology.com
!Test Board Conditions:
!Substrate Type  RO4350B
!Substrate Thickness        20 mil
!Substrate Dk      3.66
!TL Type: GCPW 
!TL Trace Width  34 mil
!TL Gap  10 mil
!Electrode orientation      Horizontal
!DUT TOPOLOGY	SERIES
!Mounting Pad LxW         26x52 mil
! Created Thu Mar 12 16:36:57 2020
# mhz S ma R 50
! 2 Port Network Data from SP1.SP block
! freq  magS11  angS11  magS21  angS21  magS12  angS12  magS22  angS22  
!     
               500        0.88444873            -35.408        0.465021104             54.449        0.466576287             54.505        0.880182364            -35.686
               501       0.884134094            -35.439        0.466195566             54.413        0.467001353             54.477        0.879869246            -35.731
               502       0.883618683            -35.503        0.466890342             54.392        0.468128293             54.402        0.880166612            -35.773
               503        0.88342225            -35.585        0.467647195             54.255        0.468239808             54.388        0.878756061            -35.816
               504       0.882973808            -35.626        0.468541239             54.197           0.469189             54.318        0.879220532            -35.921
               505        0.88262842             -35.69        0.469329559              54.15        0.469762026              54.25        0.878775433            -35.958
               506       0.882200063            -35.697        0.469534042             54.104        0.470724805             54.252        0.877742414            -36.004
               507       0.881872961            -35.758        0.470604447             54.065        0.471309319             54.155        0.878528848            -36.084
               508       0.881528446            -35.862        0.470854072             53.985        0.471939503             54.099        0.877175173            -36.139
               509       0.881050611            -35.904        0.471846629             53.926        0.472825463             54.036        0.876699697            -36.193
               510       0.880676361            -35.988        0.472624618             53.883        0.473496027             53.969         0.87663002            -36.245
               511       0.880295901            -36.059        0.473128032             53.777        0.474273304             53.894        0.876251309            -36.352
               512       0.879889987            -36.088        0.473836351             53.729         0.47509272             53.844        0.876048954            -36.385
               513       0.879529324            -36.157         0.47484331             53.691        0.475499784              53.77        0.874883697            -36.458
               514       0.879093716            -36.249        0.475483199             53.589        0.476524436             53.664         0.87525616            -36.537
               515       0.878749902            -36.278        0.476063943             53.552        0.477161384             53.609        0.874712413            -36.575
               516        0.87841659            -36.369         0.47687058             53.447        0.477749817             53.542        0.874682685            -36.656
               517       0.878043931            -36.436         0.47743719             53.454        0.478372544             53.492        0.873909067            -36.693
               518        0.87748703            -36.525        0.478289345             53.318        0.479391916              53.42        0.873053195            -36.828
               519       0.877284658            -36.537        0.478564561             53.291        0.479778226             53.415        0.872349536            -36.805
               520       0.876870326            -36.648        0.479717292             53.217         0.48054645             53.291        0.873042475            -36.882
               521       0.876423173            -36.693        0.480301399             53.196        0.481408608             53.255        0.872697741             -36.93
               522       0.876102913            -36.723         0.48106651             53.128        0.481842523             53.212        0.871575722             -36.99
               523       0.875632984            -36.791        0.481805899             53.055        0.482805393             53.168        0.871810535            -37.065
               524       0.875378516            -36.849         0.48244286             52.985         0.48310984             53.101        0.870855068             -37.13
               525       0.874868903            -36.905        0.483273498             52.974        0.484108803             53.045        0.871049789            -37.182
               526        0.87458069            -36.966          0.4838379             52.839         0.48467418             52.949        0.870562357             -37.29
               527       0.874162518            -37.076        0.484330904             52.798        0.485447402             52.864        0.869545238            -37.296
               528       0.873788324            -37.102         0.48529547             52.722        0.486078305              52.84        0.869873774            -37.401
               529       0.873331966            -37.185        0.485600759             52.682        0.486944378             52.754        0.868619063            -37.468
               530       0.873033044            -37.255        0.486273589             52.636        0.487282351              52.72        0.867522369            -37.507
               531       0.872643225            -37.231        0.486952636             52.594        0.488187575             52.682         0.86803397            -37.549
               532       0.872214401            -37.319        0.488116235             52.525        0.488791059             52.582        0.867707304            -37.641
               533       0.871878953            -37.412        0.488603073             52.439        0.489391243             52.545        0.867173892            -37.686
               534       0.871412075            -37.471        0.489579894             52.371        0.490200301               52.5        0.867208595            -37.755
               535       0.870985278            -37.523        0.490355233             52.315        0.491033152             52.428        0.867183118            -37.819
               536       0.870702253            -37.637        0.490760577             52.251        0.491382481             52.343        0.865903846            -37.875
               537       0.870219612             -37.63        0.491506048             52.233        0.492298901             52.318        0.865623158            -37.938
               538       0.869921388            -37.718        0.492016887             52.109        0.492980804              52.25        0.865725099            -37.985
               539       0.869460993            -37.809        0.492833366             52.077        0.493742035             52.129        0.865266924             -38.08
               540       0.869111064            -37.838        0.493884366             52.014         0.49416875             52.126        0.865117861            -38.106
               541       0.868692912            -37.919         0.49410162             51.952        0.495012628             52.074        0.864005044            -38.173
               542       0.868383825            -37.955        0.494836499             51.924        0.495463568             51.977        0.863498775            -38.239
               543       0.868028696            -38.022         0.49520393             51.873        0.496002748             51.958        0.862251747             -38.28
               544       0.867521325            -38.081        0.496683988             51.784        0.496969984             51.861        0.863833733            -38.369
               545       0.867186133            -38.101        0.497064016             51.722        0.497350232             51.907        0.861910804            -38.379
               546       0.866770792            -38.217        0.497512811             51.638        0.498315353             51.769        0.861597179            -38.459
               547       0.866417272            -38.262         0.49799743             51.637        0.498915621             51.684        0.861245769            -38.546
               548       0.865894514            -38.345         0.49884427             51.528        0.499936664             51.649        0.861519254            -38.613
               549       0.865610475            -38.373         0.49954257             51.502        0.500348386             51.578        0.861137503            -38.673
               550       0.865222892             -38.42        0.500181934             51.435        0.501046464             51.546        0.860751923            -38.718
               551        0.86479116            -38.491        0.500911776             51.397        0.501777567             51.467        0.860124347            -38.759
               552       0.864283013            -38.567        0.501829257             51.299        0.502696634             51.419        0.860411046            -38.847
               553        0.86402729            -38.622        0.502143054             51.227        0.503068889              51.34        0.858870053            -38.915
               554       0.863640038            -38.672        0.502785527             51.118        0.503654557             51.287        0.858089856             -39.04
               555       0.863190946             -38.79        0.503508581             51.103        0.504611189             51.207        0.858829347            -39.019
               556       0.862875341            -38.817        0.504484768             51.053        0.504891498             51.163        0.858218867             -39.08
               557       0.862425427            -38.859         0.50474445             51.055        0.505908006             51.112        0.857870142            -39.098
               558       0.862185091            -38.937        0.505475963             50.918        0.505941738             51.081        0.856447032            -39.194
               559       0.861538957            -38.998        0.506553033             50.861        0.507136559             51.005        0.856692411            -39.297
               560       0.861255803            -39.038        0.507086632             50.828         0.50749546             50.967        0.855819468             -39.32
               561       0.860847301            -39.115        0.507780621             50.793        0.508424093             50.845        0.856596158            -39.388
               562       0.860447713            -39.143         0.50830512             50.734        0.509183691             50.854        0.856297122            -39.411
               563       0.860074014            -39.245        0.508786789             50.649        0.509666192             50.756        0.854940372            -39.524
               564       0.859669518            -39.289        0.509367848             50.569        0.510542062             50.717         0.85483349            -39.552
               565       0.859291462            -39.382        0.510082586             50.501        0.511140739             50.622        0.854949567             -39.65
               566       0.858985463            -39.431        0.511017548              50.45        0.511370669             50.578        0.854251626            -39.694
               567       0.858377457            -39.436        0.511891954             50.392        0.512422633             50.575        0.853941861            -39.783
               568       0.858116927            -39.542        0.512621089             50.332        0.512798173             50.449        0.853682677            -39.818
               569       0.857756634            -39.571         0.51305519             50.289        0.513527949             50.419        0.853226009            -39.855
               570       0.857366838            -39.655        0.513649278             50.198        0.514181778             50.352        0.852543763             -39.92
               571       0.856833421            -39.703        0.514335378             50.142        0.515224371             50.261        0.852307673            -40.021
               572       0.856570318             -39.76        0.515006868             50.144        0.515422082             50.239        0.852045959            -40.021
               573       0.856098503            -39.799        0.515375462             50.084        0.516444596             50.137         0.85108657             -40.11
               574       0.855743044            -39.896        0.516349044             49.988         0.51676534             50.082        0.850929103            -40.196
               575       0.855185206            -39.947        0.517082904             49.923        0.517976646             50.025        0.851255986            -40.249
               576       0.854974904            -40.036        0.517551256             49.884        0.518028158             49.987        0.850067411            -40.265
               577       0.854506474            -40.053        0.518460122             49.789        0.519057365             49.931        0.850580374            -40.337
               578       0.854222737            -40.109        0.518944755             49.755        0.519183793             49.877        0.849221786            -40.413
               579       0.853727442            -40.176        0.519719775             49.687        0.520198675             49.801        0.849218099            -40.463
               580       0.853377549             -40.25        0.520224993             49.655        0.520824269             49.745        0.848870054            -40.473
               581       0.853077554            -40.299        0.520701124             49.604        0.521180928             49.668        0.848083307            -40.572
               582       0.852573359            -40.369        0.521593004             49.492         0.52207363              49.63        0.847972479            -40.636
               583       0.852200626            -40.394        0.522266115             49.481        0.522506682             49.544        0.847211513            -40.724
               584       0.851769963            -40.498        0.522723856             49.411        0.523326011             49.502        0.846880866            -40.757
               585       0.851387089            -40.541        0.523813949              49.32          0.5239949             49.435        0.847572895            -40.812
               586       0.850961366            -40.576        0.524336201             49.253        0.524577723             49.408        0.846564092             -40.91
               587        0.85053438            -40.691        0.525039374             49.137        0.525462676             49.321         0.84662653            -40.962
               588       0.850176531            -40.727        0.525725584             49.161        0.525846651             49.248        0.846270324            -41.009
               589       0.849842376            -40.736        0.526063757             49.105        0.526487886             49.212        0.845158926            -41.057
               590       0.849448661            -40.825        0.526546992             49.018        0.527214245             49.164        0.844767381            -41.105
               591       0.849111913            -40.889        0.527005241             48.972         0.52779459             49.052        0.844238073            -41.184
               592       0.848718704            -40.911        0.527914722             48.964        0.528157891              49.03        0.843749975             -41.22
               593       0.848285044            -40.946        0.528617833             48.863        0.528983115              49.01        0.843610176            -41.275
               594       0.847848485            -41.059        0.529076228             48.794        0.529868679             48.897         0.84356441            -41.361
               595       0.847448046            -41.089        0.529740385             48.751        0.530350622             48.888        0.842389767            -41.383
               596       0.847008858            -41.175        0.530564212             48.666        0.530991968             48.805        0.842244051             -41.48
               597       0.846775394            -41.212        0.530723392             48.618        0.531579507             48.755        0.842205803            -41.517
               598       0.846231429            -41.273        0.531727536             48.576        0.532462652             48.685        0.841955525            -41.546
               599       0.845986939            -41.286        0.531818766             48.515        0.532737978             48.655        0.840743771            -41.674
               600        0.84565445             -41.35        0.532957942             48.474        0.532957942             48.543        0.840510104            -41.702
               601       0.845158567            -41.472        0.533750381             48.418        0.533750381             48.456         0.84030742            -41.755
               602       0.844840525            -41.465        0.534225652             48.362        0.534225652             48.438        0.839604462             -41.81
               603       0.844452616            -41.566        0.534657035             48.319        0.534964897             48.393        0.839412216            -41.838
               604       0.844033895            -41.649        0.535377219             48.205        0.535623826             48.322        0.839092594            -41.928
               605       0.843594967            -41.671        0.535776894              48.18        0.536517608             48.288        0.838656235            -41.963
               606       0.843131766            -41.706        0.536717124             48.147        0.537211687              48.26        0.838678389            -41.988
               607        0.84293996            -41.778        0.536842194             48.116        0.537398738             48.105        0.837426389            -42.103
               608       0.842518239            -41.812        0.537501043             48.056        0.538058271             48.112        0.836911068            -42.109
               609       0.842000623            -41.908        0.538409126              47.95        0.538967295              48.02        0.837360389            -42.233
               610       0.841608834             -41.99         0.53871651             47.908        0.539709777             47.928        0.836585409            -42.264
               611       0.841181166            -41.988        0.539683997             47.846        0.540367898             47.953         0.83693078              -42.3
               612        0.84084875             -42.05         0.54052761             47.816        0.540340951             47.919        0.835637426            -42.323
