!{251R14S620}
!Johanson Technology Inc.
!www.johansontechnology.com
!Test Board Conditions:
!Substrate Type  RO4350B
!Substrate Thickness        20 mil
!Substrate Dk      3.66
!TL Type: GCPW 
!TL Trace Width  36 mil
!TL Gap  12 mil
!Electrode orientation      Horizontal
!DUT TOPOLOGY	SERIES
!Mounting Pad LxW         26x36 mil
! Created Wed Mar 11 15:51:49 2020
# mhz S ma R 50
! 2 Port Network Data from SP1.SP block
! freq  magS11  angS11  magS21  angS21  magS12  angS12  magS22  angS22  
!     
               500      0.0139492224            -89.157        0.998044717             -2.933        0.997700064             -2.991       0.0139572546            -89.233
               501      0.0137182906            -88.808        0.998159627             -2.977        0.998389489              -3.02       0.0133137378             -89.17
               502      0.0135347426            -88.114        0.998619403             -3.049        0.998504439             -2.995       0.0134013948            -88.932
               503      0.0131673991            -88.301         0.99873438             -3.002         0.99873438             -3.066       0.0131522483            -90.517
               504      0.0133229378            -88.969         0.99873438             -2.996         0.99873438             -3.035       0.0132190425            -89.368
               505      0.0130421743            -88.744         0.99884937             -3.068        0.999183837             -3.073       0.0130211697            -89.852
               506      0.0128085509            -89.476        0.999006008              -3.09        0.997929819             -3.034       0.0127879226            -88.842
               507       0.012708667            -88.174        0.997470361             -3.054        0.998044717             -3.066       0.0126168227            -88.776
               508      0.0123737119            -88.393         0.99873438              -3.11        0.997814935             -3.139       0.0120823107            -89.085
               509      0.0122913617            -89.266        0.998159627             -3.101        0.998619403             -3.137       0.0120753576             -88.22
               510      0.0118850223            -87.971        0.998504439             -3.129        0.998389489             -3.134       0.0120559101            -88.408
               511      0.0119096775            -87.247        0.998504439              -3.18        0.998044717             -3.161       0.0119371321            -88.038
               512      0.0118481352             -87.87        0.998504439             -3.182        0.998274551             -3.223       0.0114590866            -89.935
               513      0.0116990339            -88.152        0.998968514             -3.185        0.998504439             -3.182       0.0114868249            -88.433
               514       0.011583772             -87.64        0.998274551             -3.251        0.999084451             -3.236       0.0112473446            -89.575
               515      0.0110407862            -88.319        0.998044717             -3.265        0.997929819             -3.237        0.011031892            -88.816
               516      0.0111426858            -89.263        0.998847148             -3.253         0.99944807             -3.239       0.0109229484            -89.712
               517       0.010835526            -88.452        0.998274551              -3.27        0.998969779             -3.297       0.0105925373            -87.403
               518      0.0107374215            -89.115        0.998044717             -3.309         0.99884937             -3.279         0.01035023            -90.276
               519      0.0105026768            -89.781        0.998389489              -3.32        0.999220418             -3.319       0.0101741937            -89.247
               520      0.0102035195            -87.699        0.998044717             -3.319        0.998619403              -3.35        0.010010367            -88.517
               521        0.01011463             -88.56        0.997814935             -3.348        0.998389489             -3.384       0.0098107001            -88.744
               522     0.00983105215            -88.071        0.998044717             -3.363        0.998159627              -3.36      0.00987529323            -88.441
               523     0.00982426345            -87.555        0.998504439             -3.395        0.998389489             -3.387      0.00947436256            -88.086
               524     0.00963385266            -88.726         0.99873438             -3.444         0.99873438              -3.38      0.00926829823            -89.191
               525     0.00941239187            -89.132        0.998389489             -3.363        0.998274551             -3.439       0.0091442902            -87.973
               526      0.0091159094            -88.374        0.998504439             -3.475         0.99873438             -3.459      0.00887666847            -89.071
               527      0.0088950829            -86.539        0.998619403             -3.476        0.998159627             -3.423      0.00888177976            -89.209
               528     0.00878617805            -87.909        0.999212251             -3.482        0.998389489             -3.423      0.00870662822            -89.293
               529     0.00857136521            -89.103        0.998504439             -3.565         0.99873438             -3.473       0.0085329657            -89.789
               530     0.00848496392            -89.633         0.99873438             -3.483        0.998619403             -3.482      0.00821580268             -88.05
               531     0.00824138115            -87.707         0.99932534             -3.516        0.997700064             -3.532      0.00817334818            -89.154
               532     0.00777320283            -88.641        0.999492754             -3.628        0.998274551             -3.585      0.00786683425            -90.585
               533     0.00788496918            -88.114        0.998389489             -3.565         0.99919396             -3.536      0.00767273149              -88.6
               534     0.00768333908            -89.873        0.998389489             -3.615        0.998389489             -3.645      0.00740116353            -88.426
               535     0.00757791972            -86.251        0.998504439             -3.559        0.998389489             -3.618      0.00733584253            -88.147
               536     0.00736291861              -87.2         0.99735553              -3.59        0.999469395             -3.629      0.00689842584            -88.413
               537     0.00704774204            -86.232        0.997814935             -3.664         0.99920903             -3.664      0.00702667715            -88.684
               538     0.00663132022            -85.295         0.99873438             -3.663        0.998274551             -3.632      0.00692069962            -88.589
               539     0.00711213514            -85.806        0.998504439             -3.686         0.99873438             -3.657      0.00663590256            -90.275
               540     0.00671506158            -86.476         0.99884937             -3.738        0.997929819             -3.697      0.00638925174            -87.473
               541     0.00645431266            -86.516        0.997814935             -3.708         0.99873438             -3.703      0.00635330932            -87.942
               542     0.00637235556            -89.672         0.99873438             -3.713        0.999348236             -3.695      0.00596554327            -87.925
               543     0.00598480494            -88.017        0.998991286             -3.755        0.998159627             -3.727      0.00583781059            -89.086
               544     0.00588098403            -88.194        0.998956323             -3.744        0.998619403             -3.818      0.00553159022            -87.054
               545     0.00570229919            -86.342        0.998159627             -3.789        0.998274551              -3.78      0.00559628727            -86.563
               546     0.00551442202            -88.821        0.998619403             -3.784        0.998389489              -3.78      0.00549161396            -87.619
               547     0.00541003407            -85.714        0.997929819             -3.813        0.998159627             -3.845      0.00533641996            -88.525
               548     0.00532905251            -86.101        0.998274551             -3.824        0.998159627             -3.827      0.00499516686            -88.015
               549     0.00471140024            -86.436        0.998504439             -3.877        0.998044717             -3.854      0.00473914504            -86.915
               550      0.0048250298            -84.696        0.998619403             -3.883         0.99873438             -3.863      0.00481060834            -86.208
               551     0.00463393567             -84.88        0.999033842             -3.915        0.998389489             -3.912      0.00456825144            -89.013
               552     0.00453367099            -82.888        0.998274551             -3.894        0.999458809             -3.924      0.00433061923            -83.852
               553     0.00430923323            -85.272        0.998619403              -3.93        0.998389489             -3.923       0.0041591061            -84.428
               554     0.00433860388            -82.967         0.99873438              -3.94         0.99873438             -3.927      0.00413190188            -84.697
               555     0.00399254666            -83.579        0.998890655             -3.958        0.999012564             -3.949      0.00382736605            -85.203
               556     0.00408507468            -84.621        0.999147716             -3.942        0.998044717             -3.977      0.00378311898            -81.772
               557     0.00361909514            -81.798        0.998994736             -4.021         0.99937746             -3.989       0.0034249166            -86.284
               558     0.00358220141            -79.624        0.998389489             -3.985        0.998948732             -4.034      0.00319080306            -87.689
               559     0.00334772673            -79.661        0.998619403             -4.053        0.998389489             -4.002       0.0032203272            -84.568
               560     0.00321625149            -79.276        0.997700064             -4.065        0.999019695              -4.07      0.00292650992            -82.569
               561     0.00295801247            -82.206        0.998619403             -4.081        0.998389489             -4.042      0.00290937699            -87.268
               562     0.00274188983            -77.391        0.998619403              -4.13        0.999149672             -4.095      0.00272332831            -82.757
               563     0.00269277459             -75.01        0.998504439             -4.135        0.998504439             -4.114      0.00241434873            -81.537
               564     0.00245075558            -78.535         0.99891607             -4.117        0.998274551             -4.118      0.00237547246            -80.836
               565     0.00227588336            -76.919         0.99884937             -4.138        0.998274551             -4.141      0.00228034207            -78.481
               566     0.00217871288            -74.938        0.998274551             -4.143         0.99873438             -4.128      0.00194827384            -80.438
               567      0.0021892734            -66.903        0.999495055             -4.129        0.998274551             -4.186      0.00187068214            -75.683
               568     0.00197083379            -70.865         0.99873438             -4.186        0.998389489             -4.172        0.001840772            -64.431
               569     0.00173880148            -72.332         0.99873438             -4.265        0.998922626             -4.219      0.00169726635            -70.845
               570     0.00172444759            -62.559        0.998504439             -4.211         0.99873438             -4.245      0.00143631601            -69.796
               571     0.00150106673            -58.302        0.998504439             -4.259         0.99873438             -4.259      0.00154010383            -66.335
               572     0.00137293507            -54.753        0.998274551             -4.257        0.998504439             -4.261      0.00118454073            -58.262
               573     0.00119963741             -56.68        0.998159627             -4.262        0.998966559             -4.245       0.0010835526            -62.255
               574     0.00125155517            -49.397         0.99888157             -4.289        0.998504439             -4.265     0.000811241202            -54.708
               575      0.0012168863            -34.556        0.997814935             -4.335        0.998619403             -4.283     0.000791589455            -32.834
               576     0.00104087841            -27.053        0.998389489             -4.322        0.998044717             -4.308      0.00070656155            -35.088
               577     0.00101053184             -20.34        0.997814935             -4.328        0.998504439             -4.331     0.000681632046            -17.469
               578     0.00105754779              -6.94         0.99873438              -4.37        0.998504439             -4.331     0.000641357238             10.095
               579    0.000866662489            -10.833        0.998389489             -4.368        0.999161175             -4.407     0.000971404252             18.054
               580    0.000858618022              4.874        0.998619403             -4.405        0.998044717             -4.403     0.000819124659             14.599
               581     0.00101070899             20.192        0.999655548             -4.434         0.99867949             -4.402     0.000631358644             43.096
               582      0.0010157808             28.156        0.998159627             -4.424         0.99884937             -4.385      0.00101496251             32.022
               583     0.00104688747             29.613        0.998931021             -4.459        0.998044717             -4.468      0.00105511549             47.417
               584     0.00118781827             35.257        0.999121144             -4.523        0.998274551             -4.462      0.00118904968             54.238
               585     0.00111853609             35.627        0.998504439             -4.481        0.998274551             -4.441      0.00131522483             50.281
               586     0.00125025903             36.874        0.997585206              -4.48        0.998274551             -4.502      0.00154596622             51.343
               587      0.0015477471             51.822        0.998274551             -4.524        0.998274551             -4.529      0.00160379923             56.998
               588     0.00209122133             53.138        0.998504439             -4.533        0.997814935             -4.527      0.00202534961             59.156
               589     0.00198289629              57.73        0.998389489             -4.541        0.998977945             -4.576       0.0020346982             61.423
               590     0.00175630525             53.088        0.998044717              -4.52        0.998619403             -4.553      0.00230515429             60.235
               591     0.00218348393             63.126        0.999132532             -4.581        0.998389489             -4.523      0.00209194374             65.954
               592     0.00234346313             66.767        0.998850691             -4.648        0.999350938             -4.632      0.00251337982             62.659
               593     0.00223872114             60.002        0.998159627             -4.654        0.998274551             -4.617      0.00253512863             66.982
               594     0.00240962799              64.76        0.998504439             -4.609        0.998389489             -4.626      0.00282487997             70.352
               595     0.00281348387              64.22        0.999465898             -4.684        0.998606596             -4.607      0.00286249298              71.33
               596     0.00296722172             65.472        0.998389489             -4.685        0.998504439             -4.648      0.00314629906             66.576
               597     0.00297680235             65.816        0.998159627             -4.696        0.998619403              -4.64      0.00310491703             66.448
               598     0.00297200818             69.262        0.997814935             -4.698         0.99884937             -4.674      0.00320663848             68.664
               599     0.00324526376              71.42        0.998619403             -4.697        0.998619403             -4.708      0.00358963259             66.897
               600     0.00342294562             67.047        0.997700064             -4.705         0.99873438             -4.751      0.00386455952             69.837
               601     0.00349502269             74.952        0.998389489              -4.77        0.998159627             -4.728      0.00363956936             72.256
               602     0.00391516437              68.98        0.997929819             -4.798        0.998389489             -4.805      0.00404156902             73.468
               603     0.00401051366             73.858        0.998274551             -4.844         0.99873438             -4.777      0.00410865807             75.363
               604     0.00427070919             73.822        0.998274551              -4.82        0.998504439             -4.817      0.00427612114             72.324
               605     0.00396643188             74.445        0.998619403             -4.811        0.999221914             -4.827      0.00432513831             77.145
               606     0.00446786457             70.048        0.998274551             -4.837        0.998851095             -4.871      0.00454307598             70.886
               607     0.00488933731             69.412        0.998389489              -4.88        0.998504439             -4.849      0.00451803926             72.035
               608     0.00485009226             71.482         0.99873438             -4.856        0.998619403             -4.888      0.00495165069             73.039
               609     0.00470814685             75.483        0.998159627             -4.881         0.99873438             -4.937      0.00505649987             75.008
               610     0.00494253781              73.34        0.998159627             -4.922        0.997929819             -4.885      0.00517666427             75.291
               611     0.00514280432             72.343        0.998274551              -4.91        0.998504439             -4.986      0.00552904341             75.066
               612     0.00549794005             76.262        0.998274551             -4.958        0.998274551             -4.943      0.00543437996             75.527
