!{251R15S0R2}
!Johanson Technology Inc.
!www.johansontechnology.com
!Test Board Conditions:
!Substrate Type  RO4350B
!Substrate Thickness        20 mil
!Substrate Dk      3.66
!TL Type: GCPW 
!TL Trace Width  34 mil
!TL Gap  10 mil
!Electrode orientation      Horizontal
!DUT TOPOLOGY	SERIES
!Mounting Pad LxW         26x52 mil
! Created Thu Mar 12 16:24:52 2020
# mhz S ma R 50
! 2 Port Network Data from SP1.SP block
! freq  magS11  angS11  magS21  angS21  magS12  angS12  magS22  angS22  
!     
               500       0.998095236            -10.257       0.0615299671             79.616       0.0616718083             79.794        0.996292091            -10.306
               501       0.998084167            -10.253       0.0617031686             79.709       0.0618454091             79.783        0.996683954            -10.266
               502       0.998070345            -10.299       0.0619171777             79.578       0.0620241972             79.757         0.99726632            -10.286
               503       0.998041146            -10.273       0.0619438859             79.596       0.0621725165             79.708        0.997581637             -10.35
               504       0.998062746            -10.339       0.0620444866             79.552        0.062194674             79.735        0.996329973             -10.36
               505       0.998053896            -10.346       0.0621983185             79.581       0.0623273474             79.626        0.996158957            -10.373
               506       0.998033078            -10.363       0.0622794739             79.498       0.0625309368             79.638        0.996655196            -10.362
               507       0.998037951            -10.356       0.0624761424             79.556       0.0625697192             79.613        0.996355232            -10.379
               508       0.998023758            -10.392        0.062487159             79.448       0.0627683597             79.656        0.995728138            -10.402
               509       0.998018925            -10.442       0.0626288557             79.367        0.062831073             79.576        0.996034718            -10.462
               510       0.998008412             -10.45       0.0627615993             79.431       0.0630150089             79.578        0.995964828            -10.447
               511       0.998009946            -10.463       0.0628986711             79.397       0.0630146415             79.578         0.99550047            -10.451
               512       0.997999055            -10.474       0.0630118209             79.385       0.0631498074              79.45        0.994997593            -10.497
               513       0.997990579            -10.513       0.0631600247             79.485       0.0633420758             79.524        0.995502354            -10.522
               514       0.997988152             -10.51        0.063290035             79.341       0.0633848308             79.592        0.996403709            -10.557
               515       0.997977739            -10.558       0.0633412156             79.409       0.0635457331             79.528        0.994801415            -10.549
               516       0.997970584            -10.542       0.0635722731              79.35       0.0636235269             79.443         0.99556069            -10.564
               517       0.997956849            -10.547        0.063526783             79.247       0.0638273573             79.498        0.995421148            -10.607
               518         0.9979476            -10.612       0.0638763421             79.226       0.0639499248             79.399        0.996070408            -10.603
               519       0.997944823            -10.615       0.0638881599             79.289       0.0640501837             79.445        0.996484114            -10.634
               520       0.997932438            -10.641       0.0639742554             79.303       0.0642177729             79.458          0.9959906            -10.663
               521         0.9979271            -10.688       0.0641705877             79.271        0.064303708             79.264        0.996061185            -10.661
               522       0.997920101            -10.656       0.0641720289             79.218       0.0644385517              79.43        0.995051986            -10.697
               523       0.997912663            -10.694       0.0643502641             79.181       0.0645580395             79.387        0.995177008            -10.696
               524       0.997906117            -10.686       0.0645036254             79.181       0.0646597654             79.409        0.994910753            -10.759
               525       0.997900729            -10.743       0.0645992447             79.121       0.0647332542             79.336        0.995353711            -10.721
               526       0.997880897            -10.779       0.0646497513             79.131       0.0650080081             79.241          0.9948712            -10.769
               527        0.99786075            -10.804       0.0648290922             79.023       0.0651433278             79.256        0.996712582             -10.83
               528       0.997867742            -10.807       0.0650913057             79.091       0.0652113189             79.205         0.99637537            -10.786
               529        0.99786615            -10.811       0.0651213643             79.048       0.0652714845             79.262        0.995688498            -10.828
               530       0.997860886            -10.883       0.0652258879             79.044       0.0653311044             79.129        0.996024451            -10.845
               531       0.997852867            -10.894       0.0653983076             79.047        0.065466106             79.148        0.995672494            -10.868
               532       0.997838892            -10.874       0.0654105841             78.927        0.065644452             79.189          0.9958594            -10.904
               533       0.997832929            -10.905        0.065608156             79.085       0.0657821149             79.147        0.995537977            -10.876
               534       0.997820925            -10.888       0.0658116239              79.02       0.0659633353             79.181        0.995182217            -10.935
               535       0.997824253             -10.93       0.0658952417             78.935       0.0658573203             79.158        0.995643942            -10.973
               536       0.997813815            -10.983       0.0659217173             78.978        0.066066076             79.056        0.995585385            -10.929
               537       0.997784958            -10.931        0.066044545              78.88        0.066372313             79.077        0.996063331            -10.998
               538       0.997798767            -10.996       0.0662218658             78.901       0.0662599972             79.001        0.995294062            -11.016
               539       0.997781597            -11.051       0.0663338936             78.851       0.0665327523             79.024        0.996289354             -11.07
               540       0.997771773            -11.074       0.0665095506             78.867       0.0666935774                 79        0.996056591            -11.046
               541       0.997779116            -11.068        0.066517269             78.842       0.0665632333             78.992        0.995025956            -11.043
               542       0.997759685            -11.077        0.066696962             78.791       0.0668815073                 79        0.995648519            -11.121
               543       0.997743625            -11.122       0.0668373098             78.749       0.0670608357             78.983        0.996251439            -11.058
               544       0.997738819            -11.124       0.0668600765             78.771        0.067160956             78.965        0.995444083            -11.151
               545       0.997740838            -11.143       0.0671456293             78.711       0.0670760915             78.926        0.995789972             -11.15
               546       0.997722043            -11.182       0.0672377106             78.851       0.0673927095             78.956        0.995664259            -11.155
               547       0.997716236            -11.161       0.0673530147             78.633       0.0674771979             78.884        0.996453506            -11.212
               548       0.997713029            -11.228       0.0674614457             78.705       0.0675702684             78.897        0.995647583            -11.217
               549       0.997701137            -11.314       0.0675616842             78.542       0.0676940452             78.757        0.994948192            -11.215
               550       0.997700021            -11.269       0.0676219408             78.711       0.0677622209             78.817        0.994918786            -11.249
               551       0.997681177            -11.265       0.0677862765             78.687       0.0680208068             78.841        0.995615797             -11.27
               552       0.997672596            -11.314        0.067971827             78.538       0.0681677474             78.768        0.995471758            -11.364
               553       0.997662448             -11.37       0.0679955789             78.565       0.0683015683             78.782        0.994559284            -11.354
               554       0.997657452            -11.351       0.0680803298             78.575       0.0683709557              78.71        0.995111284            -11.326
               555       0.997654252            -11.347       0.0683302418              78.58       0.0684247088             78.723        0.995435117            -11.414
               556       0.997640691            -11.369       0.0684615621             78.547       0.0686351843             78.703          0.9952835            -11.353
               557       0.997624055            -11.425       0.0686383622             78.519       0.0688282793             78.696        0.996590889            -11.378
               558       0.997629393            -11.397       0.0687499341             78.522       0.0687420194             78.727        0.995341899            -11.437
               559       0.997611496            -11.501       0.0688668225              78.44       0.0690573717             78.636        0.994970134             -11.46
               560       0.997608371            -11.459       0.0689858603             78.466       0.0691050976              78.58          0.9957724            -11.491
               561       0.997600984            -11.464       0.0691007592             78.364       0.0691883253             78.555        0.994907762            -11.544
               562       0.997585948            -11.516       0.0691929542             78.425       0.0694163658             78.591         0.99520345            -11.524
               563       0.997580941            -11.551       0.0693902006             78.375       0.0694941333             78.571        0.995286568            -11.525
               564       0.997566739            -11.596       0.0694147095             78.263       0.0696869586             78.562        0.995179705            -11.571
               565       0.997555111            -11.594       0.0696589779             78.352       0.0698195585             78.609        0.995467528            -11.586
               566       0.997535133            -11.595       0.0697634903             78.313       0.0699484669             78.554        0.997075856            -11.595
               567       0.997548097            -11.616       0.0697322767             78.381        0.069949376             78.436        0.995712237            -11.611
               568        0.99752618            -11.624       0.0699558926             78.358       0.0701736882             78.469        0.996493115            -11.635
               569       0.997531796            -11.689       0.0701430018             78.314       0.0701349267             78.429        0.995713391            -11.671
               570       0.997517579            -11.697       0.0703024658             78.273       0.0703996594             78.349        0.995452537             -11.68
               571       0.997515118            -11.685       0.0704206349             78.164       0.0703720069             78.356        0.996207797            -11.739
               572       0.997511814            -11.721       0.0703538547             78.203       0.0704754565             78.396        0.995033947            -11.732
               573       0.997488702             -11.77       0.0705294399              78.31       0.0706757515             78.406        0.995566868            -11.736
               574       0.997488603            -11.788        0.070722555             78.126       0.0708040243             78.349         0.99553823            -11.771
               575       0.997476229             -11.82       0.0708619509              78.11        0.070959918             78.328        0.996123314            -11.825
               576       0.997459752            -11.817       0.0710387614             78.072       0.0711779344             78.341        0.996426756            -11.841
               577       0.997440394            -11.866       0.0709718461             78.074       0.0713240675             78.257        0.996061381            -11.843
               578       0.997454915            -11.839        0.071226774              78.12       0.0712759927               78.2        0.995848502            -11.855
               579        0.99743878            -11.855       0.0713898138             78.045       0.0715049734             78.203        0.996291097            -11.871
               580       0.997432683            -11.917       0.0713691862             78.078       0.0715666592             78.217        0.995200864            -11.895
               581       0.997429899            -11.948       0.0715701673             77.956       0.0716278693             78.198        0.995937379            -11.919
               582       0.997415159            -11.986       0.0718250546             77.954       0.0717589317             78.044        0.995579544            -11.968
               583       0.997401328            -11.938       0.0719316367             78.018       0.0720062082             78.151        0.995680363            -11.974
               584       0.997401397            -12.012       0.0718459302             77.878       0.0720281354             78.129        0.994723028            -12.017
               585       0.997382934            -11.997        0.072079312             77.913        0.072270429             78.114        0.995315191            -12.046
               586         0.9973806             -12.03       0.0722846806             77.858       0.0722597187             78.069        0.995053122            -12.079
               587       0.997366093            -12.033        0.072302714             77.892       0.0724777328             78.086        0.995989132            -12.071
               588       0.997358193            -12.059       0.0724938491             77.946       0.0725021958             78.051        0.995751936            -12.115
               589       0.997354498            -12.077       0.0725854462             77.857       0.0726690614             77.985        0.995518994            -12.116
               590       0.997345719            -12.118       0.0727594367             77.826       0.0727678139              77.91        0.995495561            -12.136
               591       0.997332672            -12.145       0.0728517597             77.754       0.0729440792             77.841        0.995726457            -12.165
               592       0.997319488            -12.176       0.0730019239             77.747       0.0731281027              77.97        0.996057261            -12.183
               593       0.997315638            -12.205       0.0731783527             77.798       0.0731615047             77.852        0.995824092            -12.199
               594       0.997307417            -12.214       0.0731777494             77.654       0.0733126721              77.85        0.995815883             -12.24
               595        0.99730226            -12.253       0.0732363688             77.653       0.0733882959             77.798        0.994893981             -12.27
               596       0.997292305            -12.214       0.0733791148             77.694       0.0735228728             77.839        0.995456916            -12.284
               597       0.997278991            -12.261       0.0736320124             77.703       0.0736913767             77.746        0.995214443            -12.306
               598       0.997279901            -12.262       0.0736236029             77.629       0.0736659963              77.81        0.994757144             -12.29
               599        0.99726059            -12.333       0.0738513871             77.514       0.0739449733             77.771        0.996457216            -12.355
               600       0.997248888            -12.327        0.073799524             77.549       0.0740804413             77.776        0.995298984             -12.36
               601       0.997245457            -12.351       0.0740631308             77.552       0.0741569854             77.711        0.995754016            -12.402
               602       0.997238508            -12.367       0.0740881994             77.487       0.0742418936             77.675        0.995288624            -12.412
               603        0.99721477            -12.382       0.0742572227              77.49       0.0744712601             77.649        0.996182028            -12.393
               604        0.99721568            -12.452        0.074402769             77.496       0.0745571157             77.583        0.995380431            -12.479
               605       0.997212372            -12.488       0.0744929388             77.474       0.0745959257             77.543        0.994981734            -12.487
               606        0.99719842            -12.461       0.0745987554             77.487       0.0747793321             77.619        0.995477806            -12.468
               607       0.997183801              -12.5       0.0747007934             77.423       0.0749678774             77.525        0.994890341            -12.521
               608       0.997178228            -12.509       0.0748898202             77.369       0.0750538176             77.563        0.994312245            -12.547
               609       0.997168734            -12.482       0.0749494849              77.47       0.0751741719             77.525        0.995104414            -12.546
               610       0.997158506            -12.529         0.07503089             77.433       0.0752991542             77.556        0.994466363            -12.565
               611       0.997152177            -12.554        0.075320196             77.393       0.0753462152             77.419        0.994629742            -12.538
               612       0.997146493             -12.62       0.0753804917             77.295       0.0754499517             77.451        0.994624072            -12.573
