!{251R15S0R7}
!Johanson Technology Inc.
!www.johansontechnology.com
!Test Board Conditions:
!Substrate Type  RO4350B
!Substrate Thickness        20 mil
!Substrate Dk      3.66
!TL Type: GCPW 
!TL Trace Width  34 mil
!TL Gap  10 mil
!Electrode orientation      Horizontal
!DUT TOPOLOGY	SERIES
!Mounting Pad LxW         26x52 mil
! Created Thu Mar 12 16:29:16 2020
# mhz S ma R 50
! 2 Port Network Data from SP1.SP block
! freq  magS11  angS11  magS21  angS21  magS12  angS12  magS22  angS22  
!     
               500        0.98126899            -17.747        0.191751193             72.234        0.192193225             72.406        0.979801442            -17.834
               501       0.981170861            -17.765        0.192085526             72.241        0.192506165             72.438        0.979477902            -17.844
               502       0.981089072            -17.822        0.192534445             72.151        0.193000502             72.376        0.979734583            -17.888
               503       0.980892007            -17.821        0.192917309             72.166         0.19347337             72.306        0.980214665             -17.95
               504       0.980896108            -17.871        0.193118114             72.124        0.193763964             72.321        0.979316364            -17.982
               505        0.98092179            -17.914        0.193657527             72.079        0.194059265             72.236        0.978553066            -18.013
               506       0.980781842            -17.936        0.193986906             72.102        0.194389327             72.229        0.979427778            -18.009
               507       0.980814597            -17.942        0.194418201             72.042        0.194686986              72.15        0.978558786            -18.061
               508       0.980743049            -17.987        0.194627964             71.988        0.195076627             72.162        0.978262123            -18.062
               509        0.98062884            -18.063        0.194986553             71.916        0.195548578             72.118        0.978486102            -18.126
               510       0.980583987            -18.105         0.19531464             71.943        0.195809968             72.042        0.978103464            -18.137
               511       0.980549235            -18.117        0.195960891             71.865        0.196096303             71.989          0.9780688            -18.166
               512       0.980442054            -18.132        0.196029725             71.854        0.196617392             71.958         0.97796189            -18.237
               513       0.980378628            -18.193        0.196355846             71.866        0.196899147             71.928        0.977560929            -18.224
               514       0.980261912            -18.203        0.196807719             71.786        0.197420446             71.884        0.978345222            -18.315
               515        0.98024206            -18.283        0.197211998             71.752        0.197507382             71.866        0.977424753            -18.326
               516        0.98013873            -18.274        0.197623028             71.724        0.198032993              71.86        0.977884473            -18.353
               517       0.980025486            -18.276        0.197918946              71.67        0.198535132             71.858        0.977884067            -18.419
               518       0.979963603            -18.361        0.198499742             71.654        0.198774169             71.785        0.977934902            -18.438
               519       0.979777553            -18.395        0.198827973             71.645         0.19944699             71.734        0.978424875             -18.47
               520       0.979812663            -18.428        0.199224639             71.559        0.199591962             71.696        0.978009442            -18.522
               521       0.979757604             -18.46        0.199511826             71.531        0.199948727             71.659        0.977391691            -18.548
               522       0.979696563            -18.493         0.19982121             71.554        0.200235734             71.616        0.976655914            -18.558
               523        0.97959193            -18.533          0.2001913              71.47        0.200583497             71.671        0.977113917            -18.593
               524       0.979549331            -18.549        0.200597868              71.46        0.200898323             71.581        0.976509139            -18.645
               525       0.979402805            -18.588        0.201030218             71.434        0.201563246             71.566        0.977037749            -18.655
               526        0.97937152            -18.648        0.201162707             71.359        0.201788992             71.558        0.975882367            -18.693
               527       0.979262084            -18.688        0.201743216             71.283        0.202231563             71.454        0.977684971            -18.775
               528       0.979182846            -18.723        0.202168643             71.308        0.202494763             71.443        0.977605861            -18.762
               529       0.979047288             -18.73        0.202420116             71.339        0.202956829             71.459        0.977020483            -18.789
               530       0.979028451             -18.82          0.2027194             71.257        0.203303714             71.365        0.976889211            -18.809
               531       0.978972948            -18.843         0.20312842             71.216         0.20359668             71.328        0.976833828            -18.857
               532       0.978908578            -18.875        0.203677068             71.152         0.20388822             71.269        0.977219521            -18.921
               533       0.978828104            -18.894        0.204035826             71.144         0.20441202             71.258          0.9766893            -18.903
               534       0.978742439            -18.903        0.204488279             71.085        0.204676707             71.256        0.976378978            -19.001
               535       0.978660405            -18.928        0.204848137              71.04         0.20498969             71.266        0.976746846            -19.012
               536       0.978565632            -19.015        0.205040645             71.085        0.205489653             71.186        0.975977845            -18.996
               537        0.97845905            -18.982        0.205207228             71.022        0.205964634              71.19        0.976208656            -19.073
               538       0.978423091             -19.06        0.205814844             70.986        0.206146846             71.099         0.97572334            -19.141
               539       0.978274947            -19.096        0.206163098             70.925        0.206638353             71.091        0.976362142            -19.194
               540       0.978144401            -19.151        0.206634567             70.906        0.206967891             71.074        0.976569089            -19.208
               541       0.978178502            -19.159        0.207046605             70.891         0.20730898             70.986        0.976041119            -19.218
               542       0.978004306            -19.194         0.20751083             70.873        0.207678131             70.974        0.976541641            -19.271
               543       0.977872391            -19.249        0.207721851             70.847        0.208152765             70.992        0.976634776            -19.233
               544       0.977869139            -19.282         0.20798439             70.754        0.208463843             70.958        0.975732431            -19.347
               545       0.977892148            -19.284        0.208540763             70.741        0.208564774             70.874         0.97553074            -19.364
               546       0.977631048            -19.331         0.20898975             70.731        0.209230496             70.904        0.976056562            -19.395
               547       0.977488231            -19.377        0.209224018             70.697        0.209585647             70.793        0.976700786            -19.453
               548       0.977546502            -19.427        0.209646408             70.628        0.209839589              70.77        0.975635122            -19.517
               549       0.977509839            -19.552        0.209904204             70.537        0.210267009             70.729        0.975037092            -19.505
               550       0.977448445            -19.501        0.210084427             70.635        0.210568721               70.7        0.974190432            -19.526
               551        0.97730991            -19.505        0.210563118             70.554         0.21117004             70.705        0.974949908            -19.563
               552       0.977266677            -19.573         0.21089345             70.442        0.211501324              70.62        0.974794546            -19.661
               553       0.977126709            -19.644        0.211398005             70.464        0.211714637             70.638        0.974654931            -19.655
               554       0.977055073            -19.632         0.21162601              70.45        0.212113859             70.619        0.974807909            -19.674
               555        0.97701106            -19.651        0.212202004             70.362        0.212544309             70.548         0.97465178            -19.759
               556       0.976885418            -19.679        0.212614866             70.402        0.212884297             70.527        0.974863088            -19.744
               557       0.976533127            -19.749        0.213101733              70.31         0.21337178             70.546        0.975858795            -19.778
               558       0.976741521            -19.762        0.213368179             70.271        0.213589377             70.469        0.974382891            -19.857
               559       0.976642086            -19.845        0.213789039             70.211        0.213961402              70.43        0.974395871            -19.881
               560       0.976546133             -19.83        0.214112866             70.219        0.214384195             70.401        0.974187975            -19.934
               561       0.976489235            -19.841        0.214223672             70.194        0.214841146             70.349        0.973906939            -19.977
               562        0.97631549            -19.916        0.214679305             70.147        0.215223743             70.372        0.974294341            -19.975
               563       0.976328605            -19.961        0.215127541             70.118        0.215350564             70.295        0.973970973             -20.01
               564       0.976204679            -20.022        0.215348021             70.028        0.215894155             70.261        0.973959471            -20.081
               565       0.976024948            -20.015        0.215879259             70.048        0.216352002             70.253        0.974228699            -20.106
               566       0.975714285            -20.058        0.216308041             70.037        0.216656969             70.215         0.97515278            -20.104
               567       0.975929918            -20.083        0.216580141             69.958        0.216979464             70.159        0.974246001            -20.172
               568       0.975779358            -20.098        0.216995949             69.952        0.217446102             70.118        0.974656597            -20.179
               569       0.975742115            -20.187        0.217312671             69.944        0.217638162             70.062        0.973834262            -20.231
               570       0.975698753            -20.207        0.217929363             69.879        0.218029747              70.04        0.973342642            -20.278
               571       0.975587622            -20.236        0.218306306             69.827        0.218356579                 70        0.973792177            -20.328
               572       0.975611892            -20.279        0.218462594              69.78        0.218840191             69.917        0.973031916            -20.358
               573       0.975473434            -20.326        0.218935126             69.782        0.219086414             69.905        0.973341961            -20.367
               574       0.975373585            -20.372        0.219240604              69.71        0.219518431             69.865        0.973466453            -20.426
               575       0.975253067            -20.407        0.219693559              69.68        0.219870683             69.843        0.973570318            -20.453
               576       0.975134419            -20.426         0.21989456             69.627        0.220426846             69.819        0.973451874            -20.514
               577       0.974909395             -20.48        0.220350609             69.598        0.220985743             69.749        0.974011884            -20.529
               578       0.974997438            -20.473        0.220751404             69.604          0.2210057             69.727         0.97353927            -20.559
               579       0.974840903            -20.515        0.221352149              69.57        0.221403123             69.682        0.973719221            -20.596
               580        0.97484653            -20.585        0.221378913             69.488        0.221889244             69.649         0.97305245            -20.635
               581       0.974758946              -20.6        0.221741627             69.473        0.222048186             69.664        0.972965027            -20.659
               582       0.974703893            -20.669        0.222317014             69.431        0.222470638             69.523        0.972798071            -20.738
               583       0.974552365             -20.63        0.222564134             69.426        0.222820518              69.57        0.973094863            -20.758
               584       0.974610726            -20.727        0.222910839             69.304        0.223167622             69.508        0.972257242            -20.792
               585        0.97444048            -20.722        0.223205718             69.329        0.223643004             69.508        0.972087407            -20.843
               586       0.974415177              -20.8        0.223662945             69.252        0.223946376             69.403        0.972174085            -20.888
               587       0.974142618            -20.799        0.224167446             69.249        0.224374007             69.416        0.972909723            -20.928
               588       0.974205701             -20.83        0.224466051             69.226        0.224647023             69.338         0.97252476            -20.947
               589       0.974146852            -20.872        0.224736923             69.188        0.225073535             69.299        0.972130191            -20.979
               590       0.974063353             -20.91        0.225287556             69.147         0.22541728             69.234        0.972606582            -20.998
               591       0.973959919            -20.958        0.225575062              69.13        0.225704951               69.2        0.972279401            -21.049
               592        0.97378799            -21.017        0.225925064              69.05        0.226263455             69.192        0.972443581            -21.089
               593       0.973744801             -21.06        0.226305522             69.026        0.226592302             69.144        0.971840854             -21.14
               594       0.973611402            -21.078        0.226874482             68.953        0.226848364             69.118        0.972491136            -21.184
               595       0.973689972            -21.131        0.227023439             68.929        0.227180315             69.037        0.971226889            -21.217
               596       0.973562692            -21.094        0.227359928             68.925        0.227569431             69.058        0.971770974            -21.239
               597       0.973469143            -21.157        0.227678588             68.933        0.228019605              68.97        0.971677597            -21.251
               598       0.973435756            -21.177        0.228038037             68.835        0.228116812             69.048        0.970973315            -21.283
               599       0.973116042             -21.28        0.228541268             68.749        0.228751859             68.938        0.972444069             -21.35
               600       0.973226801            -21.279        0.228698892             68.788        0.229226097              68.87        0.970876658            -21.372
               601       0.973103032            -21.296        0.229196946             68.689         0.22946097               68.9         0.97131216            -21.445
               602       0.973057474            -21.344        0.229503066             68.682        0.229793898             68.861         0.97059599            -21.455
               603       0.972851404            -21.379        0.229930461             68.655         0.23016883             68.788        0.972179615            -21.453
               604       0.972861979            -21.459        0.230250844             68.607        0.230542623             68.698         0.97107155            -21.553
               605       0.972818972            -21.503         0.23058552             68.546        0.230930891             68.669          0.9706933            -21.575
               606       0.972767661            -21.483        0.230759253             68.549        0.231264581             68.653          0.9706421            -21.582
               607       0.972662533            -21.521        0.231319469             68.483        0.231585939             68.651        0.970425471            -21.639
               608       0.972658742            -21.585         0.23169171             68.403        0.231798432             68.559        0.969974896            -21.686
               609       0.972436614            -21.576        0.231985747             68.464        0.232359965             68.544        0.970758725            -21.719
               610        0.97241088            -21.606        0.232380568              68.43        0.232594697             68.564        0.969951032            -21.711
               611       0.972341368            -21.653        0.232792381             68.386        0.233060548             68.501        0.970328445            -21.707
               612       0.972230369            -21.742        0.233007115             68.301        0.233409852             68.516        0.969436088            -21.763
