!{201R07S1R0}
!Johanson Technology Inc.
!www.johansontechnology.com
!Test Board Conditions:
!Substrate Type  RO4350B
!Substrate Thickness        10 mil
!Substrate Dk      3.66
!TL Type: GCPW 
!TL Trace Width  21 mil
!TL Gap  20 mil
!Electrode orientation      Horizontal
!DUT TOPOLOGY	SERIES
!Mounting Pad LxW         16x21 mil
!Agilent Technologies,N5230A,MY45001966,A.07.50.67
!Agilent N5230A: A.07.50.67
! Created Mon Mar  9 16:18:55 2020
# mhz S ma R 50
! 2 Port Network Data from SP1.SP block
! freq  magS11  angS11  magS21  angS21  magS12  angS12  magS22  angS22  
!     
               500       0.957843844            -19.376        0.279765858              70.08        0.280604552             70.201        0.957954127            -19.525
               501       0.958036962            -19.372        0.280370467             70.096        0.280984436             70.216        0.957595871            -19.521
               502       0.957327361             -19.39        0.280614735             70.048        0.281650464             70.137        0.957658067            -19.568
               503       0.957767955            -19.456        0.281229129             70.017        0.282104687             70.093        0.956996396            -19.603
               504       0.957017583            -19.488        0.281851219              69.94        0.282631079              70.09        0.957568645            -19.674
               505       0.957414499            -19.537        0.282357937             69.916          0.2831392             70.016        0.956533093             -19.69
               506        0.95743814            -19.602        0.282885524             69.868        0.283700907             69.974        0.956336483            -19.737
               507       0.956819906            -19.587        0.283452441             69.858         0.28407316             69.982        0.956819906            -19.745
               508       0.956673795            -19.573        0.284062482             69.837        0.284553465             69.969        0.956673795            -19.797
               509       0.956643225            -19.722        0.284544372             69.737        0.284872154             69.847        0.955982627            -19.829
               510       0.956340612            -19.679        0.285011641             69.736        0.285570011             69.861        0.956340612            -19.888
               511       0.956091882            -19.733        0.285397149             69.697        0.286186821             69.804        0.956091882            -19.899
               512       0.956028967            -19.794        0.285805809             69.627        0.286794654             69.768        0.955808858            -19.947
               513        0.95601574            -19.797        0.286328806             69.617        0.287286384             69.764        0.955685601            -19.994
               514       0.955623306            -19.889        0.287168456             69.584         0.28763169             69.695        0.955953423            -20.034
               515       0.955542482             -19.94        0.287574253             69.511        0.288170818             69.642        0.955432478            -20.102
               516       0.955277701            -19.912        0.287958326             69.561        0.288888092             69.632        0.955607699            -20.102
               517       0.954778093            -20.002        0.288670527             69.482        0.289136184              69.57        0.955657881            -20.122
               518        0.95540177            -20.019        0.289125264             69.447        0.289758405             69.528        0.954522218             -20.15
               519       0.955479629            -20.039        0.289481912             69.399        0.290149237              69.51        0.954050651            -20.195
               520       0.954320637            -20.065         0.29009772             69.344        0.290732991             69.471        0.955090039            -20.278
               521       0.954392647             -20.14        0.290621061             69.329        0.291425188             69.455        0.954832262            -20.269
               522       0.954541321            -20.179        0.291135211             69.281        0.291705578             69.392        0.954321555            -20.306
               523       0.954419365            -20.197        0.291601157             69.289        0.292374332             69.369        0.954199627            -20.332
               524       0.953674126            -20.235        0.292448905             69.219        0.292617301             69.321        0.954223263             -20.39
               525       0.953459441            -20.294         0.29265249             69.201        0.293394672             69.271        0.954447893            -20.431
               526       0.953747491            -20.303        0.293280649              69.12        0.293855219             69.244        0.953637693            -20.464
               527       0.953633337            -20.334         0.29351576             69.154        0.294700875             69.185        0.953633337            -20.529
               528       0.953273108            -20.411        0.294420023             69.085        0.294894954             69.187        0.953822014            -20.531
               529        0.95381049            -20.389        0.294721687             69.047         0.29533308             69.163        0.952713007            -20.574
               530       0.953658492            -20.452        0.295150063             69.023        0.296034877             69.093        0.952451523             -20.61
               531       0.952748685            -20.519        0.295718407             68.995        0.296536637             69.038        0.953187543            -20.625
               532        0.95267825              -20.5        0.296344076             68.962        0.296993025             69.052         0.95300735            -20.673
               533       0.952247848             -20.56        0.297029784              68.87        0.297337715             69.044        0.952905865            -20.747
               534        0.95202861            -20.617        0.297269259             68.867        0.297714509             69.005        0.952357486            -20.754
               535       0.952336171            -20.599        0.297947866             68.843        0.298600328             68.969        0.952445819            -20.797
               536       0.952144595            -20.658        0.298265421             68.826        0.299090698             68.872        0.952254221            -20.834
               537       0.951596647            -20.661         0.29878095             68.743        0.299538674              68.88        0.952363853            -20.892
               538       0.952117446            -20.723        0.299461174             68.706        0.299909707             68.854         0.95167908            -20.908
               539       0.951795322             -20.78        0.299704708             68.681        0.300430185             68.762        0.951685749            -20.958
               540       0.951681504            -20.805        0.300152268             68.666         0.30108674             68.736        0.951462397            -20.987
               541       0.951876527            -20.794        0.300801929             68.609        0.301668954             68.746        0.950671813            -21.037
               542       0.951700671             -20.89        0.301543781             68.623        0.301856391             68.713        0.951043487            -21.016
               543       0.950771028            -20.897        0.301804659             68.548        0.302570052             68.655        0.951318493            -21.085
               544       0.950836708            -20.947        0.302625793             68.502        0.302974404             68.625        0.951055672            -21.132
               545       0.951181778            -20.971        0.302944814             68.427        0.303678134             68.564        0.949977943             -21.21
               546       0.950618456            -21.019        0.303498285             68.406        0.304267973             68.539        0.950399593            -21.221
               547       0.950587819            -21.039        0.304083073             68.379        0.304573592             68.508        0.950150158            -21.256
               548       0.949951969            -21.072        0.304475006              68.38        0.305176893              68.48        0.950498962            -21.266
               549       0.950557074            -21.113        0.305125285             68.334        0.305617485             68.466        0.949791324            -21.335
               550       0.949941225            -21.212        0.305665719             68.265        0.306053066             68.396        0.950050597            -21.351
               551       0.949771128            -21.239        0.306103971             68.244        0.306562454             68.345         0.94988048            -21.392
               552       0.949058431            -21.178        0.306473517             68.221        0.307356889             68.388        0.949932949            -21.412
               553       0.949548341            -21.315         0.30705564             68.118         0.30769262             68.345        0.949329725            -21.431
               554       0.949762633            -21.301        0.307301782             68.125        0.308010186             68.286        0.948888272            -21.509
               555       0.949310156            -21.415        0.308040718             68.064        0.308679741             68.183        0.948982333            -21.561
               556       0.949299794            -21.385        0.308498734             68.002        0.309103118             68.174        0.948535057            -21.641
               557       0.948756617            -21.422        0.309139726             68.036        0.309745366             68.173        0.948975102            -21.619
               558       0.948654935            -21.459        0.309391423             67.945        0.310283206              68.16        0.948436524            -21.625
               559       0.948412089            -21.458        0.310275212             67.899          0.3106684             68.105        0.948302905             -21.72
               560       0.948496978            -21.541        0.310588915             67.914        0.311484149             68.066         0.94806028            -21.722
               561       0.948551147            -21.539        0.311286835             67.904        0.311573673             68.035        0.947677901            -21.749
               562       0.948008505            -21.606        0.311682367             67.824        0.312077339             67.969        0.947899368            -21.808
               563       0.947539455            -21.681         0.31210254             67.814        0.312785998             67.911        0.948194219            -21.857
               564        0.94760975            -21.653        0.312557209             67.801        0.313205601             67.913         0.94760975            -21.843
               565       0.947679904            -21.723        0.313156674             67.734        0.313697943             67.849        0.947352643            -21.937
               566       0.947542494            -21.781        0.313977622             67.677        0.314086085              67.78        0.946997202            -21.987
               567       0.947210189            -21.816        0.314301433             67.621        0.314627269             67.774         0.94699211            -22.002
               568       0.946609558            -21.837        0.314717495             67.607        0.315152594             67.777        0.947372743            -22.025
               569       0.947026461            -21.867        0.315182513             67.555        0.315763636             67.751        0.946699426            -22.085
               570        0.94686649            -21.897        0.316037594             67.521        0.316110373             67.669        0.946430543            -22.161
               571       0.945801503            -21.924        0.316227766             67.489        0.316555599             67.644        0.946564037            -22.182
               572       0.946782016             -21.93        0.316628497             67.482        0.317248809             67.617         0.94569262            -22.209
               573       0.946019307            -22.016        0.317358402             67.408        0.317504584              67.55        0.946128228            -22.265
               574       0.945995363            -22.071        0.317715942             67.419        0.318375036             67.495        0.945886457            -22.256
               575       0.945889708             -22.12         0.31830283             67.329        0.318669501             67.443        0.945563066            -22.321
               576       0.945189075            -22.123        0.318726881             67.284        0.319167523             67.475        0.945951114            -22.344
               577         0.9452834            -22.137        0.319493503             67.308        0.319677471             67.409        0.945501084            -22.371
               578       0.944912744            -22.168        0.319883402             67.281        0.320215025             67.387        0.945565692            -22.402
               579       0.944913034              -22.2         0.32017826             67.226        0.320768593             67.349        0.945239452            -22.455
               580       0.945038948            -22.274        0.320922161             67.172        0.321254861               67.3         0.94482137            -22.501
               581       0.944610032            -22.268        0.321293954             67.156         0.32162704              67.26        0.944718791            -22.513
               582       0.944568508            -22.336         0.32179809             67.102        0.322094613             67.215        0.944459766             -22.55
               583       0.944276273            -22.402        0.322477247             67.097        0.322774396             67.146        0.944493726            -22.597
               584       0.944226868            -22.424        0.322497501             67.065        0.323352598             67.141        0.944444309            -22.647
               585       0.943201913            -22.462        0.323262013             66.986        0.323708924             67.058        0.944614641            -22.718
               586       0.943452887            -22.452        0.323869624             66.947        0.324056112             67.091        0.944213526            -22.732
               587       0.943584603            -22.527         0.32443735              66.95        0.324698921             67.053        0.943910562            -22.727
               588       0.943083182            -22.557        0.324937624             66.814        0.324937624             66.979        0.943191764            -22.845
               589       0.943295321            -22.563        0.325385114              66.85        0.325422577             67.009        0.943512548            -22.814
               590       0.942769039            -22.663        0.325803174             66.799        0.326253599             66.882        0.943420506            -22.873
               591        0.94292838            -22.705         0.32634631             66.768         0.32657182             66.886        0.943254112              -22.9
               592        0.94237668            -22.685        0.326831969             66.779        0.327208465             66.824        0.943136452            -22.935
               593       0.942557642            -22.746        0.327497447             66.715         0.32761058               66.8        0.942774699            -22.982
               594        0.94267304            -22.779        0.327763876             66.663        0.328141445             66.745        0.942347509            -23.055
               595        0.94221497            -22.805        0.328095293             66.604        0.328700224             66.776        0.941564336            -23.063
               596       0.941958642            -22.865        0.328724319             66.573        0.329140887             66.714        0.942284039            -23.076
               597       0.941781164            -22.874        0.329495889             66.552        0.329533825             66.692         0.94221497            -23.146
               598        0.94145594            -22.901        0.329875453             66.512          0.3300654             66.601        0.941781164            -23.202
               599       0.941507804            -22.974        0.330197609             66.453        0.330806416             66.573        0.941616205             -23.23
               600       0.940805018            -22.983        0.330902178             66.502        0.330940276             66.593        0.942105687            -23.197
               601       0.941471539            -23.038        0.331289137             66.371        0.331556232             66.566        0.941146423            -23.277
               602       0.940522116             -23.07        0.331832571             66.374        0.332253077             66.478        0.941497155            -23.324
               603       0.940372673            -23.076        0.332276785             66.379        0.332506393             66.477        0.940914151            -23.311
               604       0.940257065            -23.137        0.332848501             66.292        0.333040159             66.449        0.941123473            -23.362
               605       0.940298222            -23.159         0.33316979             66.289        0.333668812             66.374        0.940839657             -23.43
               606       0.940172065            -23.213        0.333700873             66.241        0.334316139              66.35        0.940496845            -23.439
               607       0.939698483            -23.259        0.334186211             66.178        0.334648225             66.267        0.940564376             -23.53
               608       0.940214079            -23.284        0.334870392             66.136        0.335101792             66.262        0.939673004            -23.545
               609       0.939653231            -23.291        0.335017591             66.102        0.335596646             66.238        0.939869619            -23.574
               610       0.939576948            -23.378        0.335762626             66.083         0.33622682             66.138        0.939576948            -23.625
               611       0.939134762             -23.36        0.336339533             66.117        0.336533201              66.16        0.939783717            -23.607
               612       0.938642037            -23.399        0.336705337             66.035        0.337054399             66.136        0.939615127            -23.676
