!{251R15S111}
!Johanson Technology Inc.
!www.johansontechnology.com
!Test Board Conditions:
!Substrate Type  RO4350B
!Substrate Thickness        20 mil
!Substrate Dk      3.66
!TL Type: GCPW 
!TL Trace Width  34 mil
!TL Gap  10 mil
!Electrode orientation      Horizontal
!DUT TOPOLOGY	SERIES
!Mounting Pad LxW         26x52 mil
! Created Thu Mar 12 16:47:16 2020
# mhz S ma R 50
! 2 Port Network Data from SP1.SP block
! freq  magS11  angS11  magS21  angS21  magS12  angS12  magS22  angS22  
!     
               500      0.0174648429            -99.472        0.998707665             -5.765        0.999110063             -5.729       0.0162037182            -96.652
               501      0.0173442888            -99.602        0.998894523              -5.75        0.998668604             -5.782       0.0156173196            -96.399
               502      0.0173764993            -99.644        0.998532687             -5.745        0.999150675             -5.755       0.0160144595            -96.603
               503      0.0170723804            -99.341        0.999294346             -5.802        0.998605791             -5.789       0.0159053811            -96.508
               504      0.0171896582            -99.441        0.999022665             -5.798         0.99883877              -5.83       0.0157495171            -96.267
               505      0.0169642613            -99.701        0.998395013             -5.856        0.999254363             -5.845       0.0154235716            -95.947
               506      0.0168616473            -99.488        0.998973114             -5.846         0.99884937              -5.87        0.015413455            -95.949
               507      0.0166783663            -99.952         0.99838077             -5.915         0.99928578             -5.896       0.0153145242            -96.437
               508      0.0167207181            -99.789        0.999214289             -5.912        0.998737774             -5.859       0.0153976671            -95.927
               509      0.0163583579           -100.187        0.999290485             -5.894        0.998684724             -5.897       0.0152489418            -96.117
               510      0.0165805584            -99.025        0.998502492             -5.921        0.999336968             -5.915       0.0151530185            -96.244
               511      0.0162423656            -99.821        0.997583558             -5.954        0.999500194             -5.974       0.0149107429            -96.897
               512      0.0164901258           -100.229        0.998724189             -5.933        0.998937745             -6.013       0.0149855942            -96.942
               513      0.0163232594            -99.881        0.997601014             -5.983        0.999422475             -5.996       0.0147947245            -97.064
               514      0.0163413488           -100.705        0.998668264              -5.99         0.99891279             -5.991       0.0149464447             -97.32
               515      0.0161972881           -100.133        0.998601711             -6.041         0.99908642             -5.979       0.0146147808            -96.535
               516      0.0158699699            -99.982        0.999268741             -6.036        0.998741744              -6.05       0.0145554656             -96.02
               517      0.0160648263             -100.5        0.999227744             -6.076        0.998359337             -6.006       0.0146091865            -96.687
               518      0.0157263595           -100.481        0.998840745             -6.044        0.999153364             -6.118       0.0145187157            -96.473
               519      0.0157329461            -100.23        0.998642523             -6.119        0.999283128             -6.095       0.0142449213            -95.385
               520      0.0156172002           -100.902        0.999088309             -6.116        0.998668904             -6.099       0.0142266674            -96.703
               521      0.0156465916           -100.106        0.998976674             -6.139        0.999060175             -6.111        0.014345634            -96.532
               522      0.0155316911           -100.601        0.998976555             -6.134        0.998762081             -6.189       0.0140562265            -97.128
               523      0.0154803824           -100.681         0.99939399             -6.177        0.998116841             -6.172       0.0141687548            -96.847
               524      0.0154456164           -100.373        0.998850278             -6.199        0.998986916             -6.151       0.0139879878            -96.967
               525      0.0151737362             -100.7        0.998988363             -6.196        0.999022292             -6.234       0.0138258719            -96.312
               526      0.0153257793           -100.727        0.998452174             -6.281        0.999168472             -6.226       0.0136449694            -96.403
               527      0.0151505459           -101.095        0.998662014             -6.238        0.999017903             -6.268        0.013653006            -97.169
               528      0.0149264485           -101.829        0.998566027             -6.305        0.998966528             -6.247       0.0134805151            -97.577
               529      0.0148626977           -101.507        0.999252962             -6.309        0.998184437             -6.292       0.0135237659            -97.656
               530      0.0150212702           -101.952        0.999035702             -6.308        0.998556076             -6.298       0.0136334779            -97.225
               531      0.0146348289             -102.1        0.999116656             -6.292        0.998680797             -6.308       0.0135063391             -97.01
               532      0.0147038804           -101.238        0.999117607             -6.335        0.998868488             -6.305       0.0134487513            -96.643
               533       0.014647713           -102.129        0.999144085             -6.313        0.998657163             -6.368       0.0131953168            -95.874
               534      0.0147868571           -101.281        0.998284839             -6.336        0.999257621             -6.356       0.0132411552             -96.86
               535      0.0145613465           -101.457        0.998755159             -6.365        0.999170114             -6.407       0.0131628986             -96.23
               536      0.0145625744            -102.07        0.999037421              -6.43        0.998660001             -6.412       0.0130298122            -96.602
               537       0.014227065           -102.516        0.998644501              -6.45        0.998975678             -6.455        0.012878501            -97.588
               538      0.0143968478           -101.982        0.998493892             -6.456        0.999008107             -6.437       0.0128223437            -97.713
               539       0.014230367           -102.097        0.998855003             -6.477         0.99880751             -6.469        0.012766331            -97.565
               540      0.0141155792           -101.423        0.999001186              -6.51        0.998920334             -6.469       0.0126808599            -96.863
               541      0.0139765573           -103.018        0.998968648             -6.515        0.998393186             -6.497       0.0124308323            -97.949
               542       0.013592803           -102.379         0.99918512             -6.511        0.998451038             -6.518        0.012301527            -97.814
               543      0.0138883291           -102.175         0.99873438             -6.475         0.99873438             -6.546       0.0123225333            -97.393
               544       0.014086877           -101.906        0.998756739              -6.51        0.998744206             -6.545       0.0120980318            -96.443
               545      0.0138157991           -102.626        0.999145897             -6.548        0.998526877             -6.583       0.0121920296            -96.144
               546       0.013765459           -101.929        0.998597899             -6.589        0.999039703              -6.55       0.0120376219            -96.902
               547      0.0132004292            -102.88         0.99896288             -6.629        0.999224332             -6.602       0.0122458251            -96.299
               548      0.0136731477           -102.901        0.999077215             -6.585        0.998642177             -6.684       0.0120869995            -96.283
               549      0.0133106726           -102.719        0.998936541             -6.604        0.998922281             -6.642       0.0119508831            -95.544
               550      0.0133734436           -102.371        0.999009804             -6.676        0.998752548             -6.679       0.0117690999            -96.902
               551      0.0132694233            -103.55        0.999245841             -6.671        0.998117452             -6.667       0.0116748699            -96.823
               552      0.0133925869           -103.254         0.99886771             -6.697        0.998652685              -6.71        0.011534917            -96.506
               553      0.0129886646            -102.69        0.999046085             -6.785         0.99887272             -6.701        0.011610863            -97.041
               554      0.0131746825            -102.93        0.998923332             -6.701        0.998848236              -6.74       0.0115409127             -96.44
               555      0.0130164493           -103.704        0.998948462              -6.73        0.998889464             -6.773       0.0114972118            -95.961
               556      0.0130782179           -103.547        0.998901392             -6.756        0.998514598             -6.756       0.0113161467            -97.665
               557      0.0127380659           -102.674         0.99918336             -6.804        0.998737008               -6.8       0.0113920922            -97.177
               558       0.012947586           -102.875        0.998967719             -6.835        0.998593661             -6.771       0.0112613072            -97.874
               559      0.0125816657           -103.001        0.999247424             -6.811         0.99879519             -6.818       0.0113563336            -96.654
               560       0.012686962           -103.368        0.998868438             -6.849        0.998840263             -6.858       0.0110447945             -97.05
               561      0.0125109137           -103.295        0.998600958             -6.874        0.999125005             -6.848       0.0108802539            -96.694
               562      0.0124381381           -103.342         0.99883471             -6.891        0.998866449             -6.888       0.0107858748             -97.34
               563       0.012349229           -102.894        0.998860855             -6.917         0.99901692             -6.879       0.0108702578            -97.413
               564      0.0124380306           -102.944        0.999117163             -6.896        0.998826531             -6.914       0.0108443024            -95.942
               565      0.0123192717           -103.998        0.998842889             -6.938         0.99883001             -6.948       0.0106901804            -97.224
               566       0.012241611           -104.278        0.998367019             -6.976        0.999134086             -6.921       0.0104987737            -96.738
               567      0.0122250319           -103.149         0.99873438             -6.949        0.998619403             -6.965       0.0106328577            -95.561
               568       0.011836222            -104.53        0.999137826             -6.995        0.999030049             -6.999       0.0104788374            -94.752
               569      0.0121932862           -105.712        0.999012491             -6.976        0.998494596             -6.989       0.0104428916             -95.88
               570      0.0121345135           -103.111        0.999147534             -7.018        0.998703267             -7.016       0.0105213719            -96.656
               571      0.0120676328           -104.095        0.999074072             -7.028        0.998441878             -7.025       0.0101466362            -96.249
               572      0.0117867822           -104.604        0.999169015             -7.091        0.998378587             -7.064       0.0100553052            -96.642
               573      0.0116528347           -104.302        0.998751822             -7.091        0.999097068             -7.101       0.0101165302            -96.663
               574      0.0115912394           -104.059         0.99851726             -7.149        0.999195631             -7.083      0.00993756257            -96.741
               575      0.0115077612            -105.15        0.999311855             -7.111        0.998253496             -7.068      0.00997219678            -96.394
               576      0.0113396197           -104.766        0.998898685             -7.143        0.999103618               -7.1      0.00998386021            -96.426
               577       0.011320168           -105.095        0.999244745             -7.153        0.998357588              -7.09      0.00983791063            -97.269
               578      0.0112957694           -104.944        0.999276716             -7.175        0.998493215             -7.201      0.00972334774            -95.902
               579      0.0111120563           -105.192        0.999221875              -7.19        0.998836566              -7.19       0.0097452825            -95.556
               580      0.0112565902           -104.008         0.99922227              -7.25        0.998697597             -7.163      0.00963622329            -95.844
               581       0.011227193           -104.432        0.998840141              -7.21        0.999234769             -7.199      0.00971563493            -95.032
               582      0.0111095082           -104.801        0.999218426             -7.236        0.998492562             -7.234      0.00953882396            -97.062
               583      0.0109894482            -104.95         0.99905371             -7.258        0.998745618             -7.288      0.00930520374             -96.45
               584      0.0109015244           -104.646        0.999019179             -7.282        0.998715018              -7.26      0.00912509156            -96.779
               585      0.0110144263           -105.194        0.999247655             -7.311        0.998296464             -7.278      0.00931562253            -96.853
               586      0.0108014848           -105.179        0.998789481             -7.293        0.999043066             -7.264      0.00910297731            -96.025
               587       0.010684391           -105.312        0.999342648             -7.308        0.998388964             -7.329      0.00912220382            -96.079
               588      0.0105924511           -106.154        0.998628527             -7.343        0.999168808             -7.329      0.00902602367            -96.129
               589      0.0104837255           -104.793        0.999242834             -7.338        0.998909612             -7.324        0.008971512              -94.7
               590      0.0105002587           -104.506        0.998948042             -7.408        0.999105271             -7.373      0.00891558818            -94.248
               591      0.0102926824            -104.54         0.99857013             -7.397         0.99938096             -7.387      0.00885989492            -96.578
               592      0.0104485416           -105.368        0.998582555             -7.363        0.999236006             -7.444       0.0089167312            -96.901
               593      0.0103536008            -105.84        0.999044113             -7.379        0.998845954             -7.414      0.00889900426            -97.205
               594       0.010389729           -106.112        0.999016703             -7.418        0.998642557             -7.377      0.00853206626            -96.065
               595      0.0100960153           -104.931          0.9988542             -7.484        0.999155193             -7.445      0.00854771434            -96.553
               596      0.0100617956           -105.443        0.998890285             -7.474        0.999171446             -7.482      0.00846399678            -95.043
               597     0.00998901726           -104.438         0.99904825              -7.55        0.999004429             -7.507      0.00830945927            -95.664
               598     0.00985545161           -105.012        0.999342771              -7.53        0.998634418             -7.476      0.00830857472            -95.879
               599     0.00995149746           -107.417        0.999209113              -7.56        0.998592814             -7.475       0.0084079174            -95.789
               600     0.00988211719           -104.906        0.998504439             -7.543        0.999060871             -7.543      0.00819407623            -94.909
               601     0.00969535112           -106.111        0.998496604             -7.617        0.999222816             -7.572       0.0079124967            -96.066
               602     0.00976264391            -106.17        0.998625954             -7.584        0.999216505             -7.591      0.00805225369             -95.59
               603      0.0097536593           -105.661        0.999166653             -7.637        0.998705131             -7.595      0.00807360655            -96.513
               604     0.00965242989           -106.629        0.998243879             -7.625        0.999308671             -7.576      0.00777564914            -95.053
               605     0.00953051596           -106.811        0.999554809             -7.649        0.997852646             -7.667      0.00807265538            -95.941
               606     0.00966020916           -107.214        0.998589465             -7.643        0.998927179              -7.65      0.00769106585            -97.005
               607     0.00946497809           -106.921        0.999260023             -7.651        0.998549533             -7.677      0.00769962569            -94.604
               608     0.00943556619           -106.298        0.998607712             -7.681        0.999055157              -7.72      0.00748976111            -96.379
               609     0.00903138297           -107.687        0.999053875             -7.689        0.998953467             -7.691      0.00742427856            -95.056
               610     0.00918210585           -107.189        0.998920084             -7.685        0.999001281             -7.704      0.00754210015            -96.152
               611     0.00907331045            -107.11        0.998813309             -7.738        0.999086143             -7.776      0.00743131671            -96.528
               612     0.00917699905           -107.964        0.998620982             -7.767        0.999030821             -7.784      0.00728535446            -96.022
