!{251R15S181}
!Johanson Technology Inc.
!www.johansontechnology.com
!Test Board Conditions:
!Substrate Type  RO4350B
!Substrate Thickness        20 mil
!Substrate Dk      3.66
!TL Type: GCPW 
!TL Trace Width  34 mil
!TL Gap  10 mil
!Electrode orientation      Horizontal
!DUT TOPOLOGY	SERIES
!Mounting Pad LxW         26x52 mil
! Created Thu Mar 12 16:55:56 2020
# mhz S ma R 50
! 2 Port Network Data from SP1.SP block
! freq  magS11  angS11  magS21  angS21  magS12  angS12  magS22  angS22  
!     
               500      0.0181823494            -98.591        0.998389489             -6.621        0.998159627             -6.592       0.0174883969            -93.768
               501      0.0181134009            -98.517        0.998159627             -6.645        0.998389489             -6.676       0.0173101169            -94.369
               502       0.018416199            -98.415        0.998504439             -6.647        0.998619403             -6.646       0.0172762707            -94.477
               503      0.0181342668            -98.366        0.998969204             -6.666         0.99884937             -6.642       0.0175873335            -94.265
               504      0.0180509474             -98.97        0.998619403             -6.641        0.998159627             -6.653       0.0172048147            -93.727
               505      0.0180613413            -98.266        0.998504439             -6.685        0.998159627             -6.724       0.0171731515            -93.845
               506      0.0181551566            -99.329        0.998274551             -6.756         0.99873438             -6.678       0.0173081241            -94.531
               507      0.0180447139            -98.398        0.998159627             -6.699         0.99873438             -6.731       0.0171593171            -94.151
               508      0.0180322533             -98.16        0.997929819             -6.739        0.998389489             -6.767       0.0171593171            -93.851
               509      0.0179824971            -98.864        0.998159627             -6.742        0.998044717              -6.79       0.0172048147            -93.496
               510      0.0178669326            -98.949        0.998938841             -6.783        0.997814935             -6.784       0.0171454939            -93.809
               511       0.017978357            -98.896        0.998619403             -6.817        0.998952757             -6.859       0.0170294256            -94.349
               512      0.0175994866            -98.934        0.998044717             -6.844        0.998044717             -6.825       0.0170255049            -94.755
               513      0.0178114797            -98.808         0.99886961             -6.836        0.997929819              -6.83       0.0169044093            -93.901
               514      0.0178237877             -98.81        0.998504439             -6.898        0.998274551             -6.832       0.0167552148            -94.324
               515      0.0176766515            -98.274        0.998274551             -6.936        0.998159627             -6.867       0.0169336274            -94.892
               516      0.0176563122             -98.61        0.997814935             -6.917        0.998044717              -6.87       0.0168674721            -93.872
               517      0.0174783326            -99.013        0.998389489             -6.916        0.998274551             -6.907       0.0169063556            -94.637
               518      0.0177153607            -99.124        0.997585206             -6.934         0.99873438             -6.975       0.0166724721            -94.086
               519      0.0177133213            -98.495        0.998044717             -6.927        0.998504439             -6.973       0.0166207264            -94.361
               520      0.0175812601            -99.804        0.998389489             -6.977        0.998975414             -6.964       0.0167552148            -94.234
               521      0.0177807469            -99.404        0.998389489             -6.984         0.99884937             -6.964       0.0167513572            -94.417
               522      0.0174521927            -99.786        0.998389489             -7.016        0.998955978             -7.022       0.0167032123            -94.479
               523      0.0175529453           -100.022        0.998504439             -7.014        0.998619403             -7.008       0.0165310333            -93.916
               524      0.0172424907            -98.908        0.998504439             -7.041        0.998044717             -7.028       0.0164778293             -94.24
               525      0.0173940214            -99.061        0.998159627             -7.064        0.998044717             -7.083       0.0163983443            -94.483
               526      0.0175529453            -99.549        0.998159627             -7.042        0.998159627             -7.119       0.0163098512            -94.301
               527      0.0172901993            -100.57        0.998878925             -7.116        0.998504439              -7.13       0.0165443611            -94.667
               528      0.0171691976            -99.914        0.998504439             -7.112         0.99873438             -7.106       0.0162817094            -94.953
               529      0.0173061315           -100.002        0.998619403             -7.147        0.998619403             -7.202       0.0162648477            -94.789
               530      0.0171257658            -99.517        0.999169342             -7.161        0.998044717             -7.148       0.0165177162            -94.236
               531      0.0173220784           -100.291        0.998504439             -7.147        0.998504439             -7.151       0.0162873339            -94.583
               532      0.0171533915            -99.782        0.998044717             -7.165        0.999348236             -7.195       0.0162330453            -95.123
               533      0.0171711744            -99.178        0.998274551             -7.219        0.998389489             -7.182       0.0161789376            -95.252
               534      0.0169180382           -100.678         0.99884937             -7.233         0.99873438             -7.192       0.0161250103            -94.839
               535       0.016990259            -99.552        0.998159627             -7.235        0.998159627             -7.219       0.0163399228            -94.902
               536      0.0170235449           -100.046        0.997929819             -7.265        0.998619403             -7.271       0.0159202543            -94.914
               537      0.0167977069           -100.597        0.998619403             -7.254        0.997470361             -7.247       0.0161957103            -94.008
               538       0.016919986           -100.609        0.999063287             -7.296        0.998504439             -7.244       0.0160694125            -94.664
               539      0.0167282303           -100.332        0.998504439             -7.303        0.997700064             -7.337       0.0157724805            -94.019
               540      0.0168597061           -100.245        0.997470361             -7.346        0.997585206             -7.298       0.0159110925            -95.038
               541      0.0168170571           -100.235        0.998389489              -7.32        0.998159627             -7.342       0.0160509226            -94.382
               542      0.0166955219           -100.702        0.998159627             -7.324        0.997814935             -7.359       0.0160287627              -95.3
               543      0.0166878351            -99.491        0.997814935             -7.402        0.998504439             -7.334       0.0156296769            -95.047
               544      0.0168403068           -101.008        0.998389489              -7.39        0.998274551             -7.399       0.0157652187            -94.351
               545      0.0169941716           -100.748        0.997814935             -7.367        0.997929819             -7.451       0.0158088399            -94.754
               546      0.0167109061           -100.065        0.998159627             -7.428        0.998159627             -7.419       0.0156242795            -94.663
               547      0.0166168998           -100.394        0.998159627             -7.459        0.997929819             -7.446        0.015665707            -95.049
               548      0.0163625128           -100.673        0.997700064             -7.439        0.997585206             -7.482        0.015665707            -94.658
               549      0.0165805908           -101.832        0.997814935             -7.537        0.998159627             -7.485       0.0157180983            -94.612
               550       0.016540552           -101.241        0.998389489             -7.467        0.998274551             -7.498       0.0156206823            -94.732
               551      0.0165272273           -100.995        0.998159627             -7.533         0.99890319             -7.505        0.015520296            -94.481
               552      0.0165101113           -101.369         0.99884937             -7.506         0.99873438             -7.517       0.0157072444            -94.533
               553       0.016210634           -100.783        0.998274551             -7.523        0.998159627             -7.555       0.0153196908            -94.291
               554      0.0164399314           -100.242        0.998504439             -7.578        0.997814935             -7.531       0.0154099064            -95.211
               555      0.0163775902           -100.352        0.998619403             -7.552        0.997470361             -7.572       0.0154400961            -95.239
               556      0.0162423925            -100.58        0.997585206             -7.614        0.998044717             -7.599       0.0151147163            -95.008
               557      0.0164096758           -100.622         0.99884937             -7.625        0.999147141              -7.58       0.0153426366            -94.241
               558      0.0161120203           -100.847        0.997585206             -7.586        0.998274551             -7.605       0.0153921753            -94.472
               559      0.0160842198           -100.429        0.998389489             -7.662        0.997814935             -7.665       0.0152914969            -94.519
               560       0.016156601           -101.034        0.998619403             -7.664        0.997929819             -7.675       0.0152633548            -94.541
               561       0.016205036            -101.28        0.998274551             -7.663        0.998389489             -7.717       0.0151460714            -93.967
               562      0.0162629752           -101.321        0.998159627             -7.655        0.998159627              -7.67       0.0152950183            -94.697
               563       0.016197575           -100.743        0.998504439             -7.697        0.997700064             -7.717       0.0149968484            -94.796
               564      0.0163361608           -101.006        0.998619403             -7.691        0.998619403             -7.698       0.0149692486            -94.868
               565      0.0160472271           -100.488        0.998389489             -7.739        0.998921016             -7.726       0.0151617733            -95.182
               566      0.0160509226           -100.098        0.998504439             -7.746        0.997585206             -7.787       0.0151565376            -94.862
               567      0.0158580579            -100.48        0.998389489              -7.78        0.998274551             -7.806       0.0148047132            -93.777
               568      0.0160140065            -101.08        0.998389489             -7.836        0.997814935             -7.791       0.0147655626            -94.366
               569      0.0160342998           -100.701        0.997240712             -7.818        0.999260453              -7.82       0.0149675253            -94.876
               570      0.0159330897           -101.296        0.998159627             -7.882        0.998044717             -7.851       0.0149331009            -94.337
               571      0.0157362048           -100.358        0.998044717             -7.834         0.99873438              -7.85       0.0149313818             -94.02
               572      0.0157398286           -101.538        0.998159627             -7.882        0.997814935             -7.838       0.0148030089            -94.419
               573      0.0157525186           -101.672         0.99884937             -7.882        0.998619403             -7.924       0.0148439677             -93.95
               574      0.0159239205           -100.342        0.997929819              -7.87        0.998044717             -7.908       0.0148405501            -94.696
               575       0.015901936           -101.221        0.998619403             -7.924        0.998274551             -7.915       0.0146858808            -94.836
               576      0.0156621003           -101.365        0.998938151             -7.916        0.997700064             -7.936       0.0147638628            -94.224
               577      0.0156801423           -101.161        0.998274551             -7.969        0.997929819             -7.915       0.0148610673            -94.907
               578      0.0154223303            -100.33        0.998044717             -7.974        0.998504439             -7.987       0.0145763907            -94.197
               579      0.0157325819           -100.543        0.998044717             -8.006        0.998504439             -7.966       0.0145127596            -94.326
               580      0.0155131503           -101.374        0.998504439             -8.011        0.998995887              -7.98        0.014499399            -94.378
               581      0.0156404772            -101.32        0.998044717             -7.991        0.998504439             -8.015       0.0144244745            -93.761
               582      0.0154561029           -101.436        0.998389489             -8.047        0.998940452             -8.061       0.0146841902            -94.028
               583      0.0156080986           -100.873        0.997814935             -8.059        0.998619403             -8.018       0.0144910548            -94.123
               584      0.0154917329           -101.845        0.998159627             -8.081         0.99890917             -8.062       0.0145495647            -94.291
               585      0.0155381747           -100.817        0.998044717               -8.1        0.998274551              -8.06       0.0144460795            -94.421
               586      0.0156296769           -101.292        0.998504439             -8.119        0.998619403             -8.098       0.0142626426            -94.356
               587      0.0153479367           -101.716        0.998044717             -8.145        0.998504439             -8.113       0.0144029018            -93.817
               588      0.0154010383           -100.353        0.998389489             -8.158        0.997929819              -8.07       0.0144244745            -93.623
               589      0.0153003019           -101.702        0.998389489              -8.17        0.997700064             -8.152       0.0144727147            -93.839
               590      0.0154329873           -101.176        0.998906525             -8.175        0.998274551             -8.182       0.0143169332             -93.18
               591      0.0152756606           -102.224        0.998274551             -8.155        0.998619403              -8.18       0.0143598532            -93.662
               592       0.015273902            -101.92         0.99873438             -8.213        0.998389489             -8.224       0.0141709837            -93.694
               593      0.0154170045           -101.514        0.998159627             -8.228        0.998504439             -8.249       0.0144327803            -93.493
               594      0.0152809375           -101.276        0.998274551             -8.267        0.998274551              -8.25       0.0140378307              -93.8
               595      0.0152124793            -101.12        0.997929819             -8.246        0.997929819             -8.246       0.0141318819             -93.72
               596      0.0152089769            -100.51        0.998044717             -8.322        0.998044717             -8.257       0.0142167393            -94.285
               597      0.0153373384           -101.498        0.998389489             -8.318        0.997585206             -8.286       0.0141514193            -93.937
               598      0.0154152297           -101.629        0.997585206             -8.304        0.998504439             -8.268       0.0143086941            -93.824
               599       0.015163519           -101.141        0.998274551             -8.336        0.998044717             -8.308       0.0140912656            -92.639
               600      0.0152598407           -100.922        0.998619403             -8.349        0.998504439             -8.333        0.014092888             -94.43
               601      0.0150695402           -101.573         0.99873438             -8.364        0.997585206             -8.351       0.0140977563            -94.433
               602      0.0150366122           -101.131         0.99873438             -8.354        0.997929819             -8.395       0.0138197441            -93.583
               603      0.0149004711           -100.984        0.998389489             -8.435        0.997700064             -8.388       0.0137514977            -92.878
               604      0.0152019745           -100.943        0.998619403             -8.402        0.997700064             -8.401       0.0140540016            -93.303
               605      0.0151862309           -101.753        0.998044717             -8.422        0.999084106              -8.38       0.0139331721            -93.883
               606      0.0150452705           -101.188        0.998389489             -8.475        0.998504439             -8.442       0.0136946204            -93.705
               607      0.0149348203            -101.83        0.998274551             -8.473        0.998504439             -8.452       0.0136128795            -93.914
               608      0.0150730104           -101.642        0.997929819             -8.474        0.998159627             -8.464       0.0137420018              -94.1
               609       0.014953746           -102.468        0.998504439              -8.48        0.998389489             -8.487       0.0139958732            -94.168
               610      0.0148644895           -101.034        0.998159627             -8.486        0.997929819             -8.505       0.0139187425            -93.145
               611      0.0147536678            -101.17        0.998504439             -8.566        0.998274551             -8.538       0.0137546644            -93.713
               612      0.0147910839           -102.089        0.997929819             -8.576        0.998504439             -8.519       0.0138867303            -93.193
