!{251R15S560}
!Johanson Technology Inc.
!www.johansontechnology.com
!Test Board Conditions:
!Substrate Type  RO4350B
!Substrate Thickness        20 mil
!Substrate Dk      3.66
!TL Type: GCPW 
!TL Trace Width  34 mil
!TL Gap  10 mil
!Electrode orientation      Horizontal
!DUT TOPOLOGY	SERIES
!Mounting Pad LxW         26x52 mil
! Created Thu Mar 12 17:15:12 2020
# mhz S ma R 50
! 2 Port Network Data from SP1.SP block
! freq  magS11  angS11  magS21  angS21  magS12  angS12  magS22  angS22  
!     
               500      0.0545757861            -95.103         0.99735553             -4.052        0.997929819             -3.996       0.0535796658            -93.958
               501      0.0544277273            -95.279         0.99809114             -4.038        0.997287098             -4.054       0.0532378123            -93.817
               502      0.0542437868            -95.211         0.99735553             -4.043         0.99735553             -4.048        0.053401075            -94.118
               503       0.054143958            -95.133        0.997585206              -4.06        0.997125907             -4.069       0.0531740819            -94.036
               504      0.0541626619            -95.218         0.99735553             -4.121        0.997470361             -4.119       0.0529053997            -94.086
               505      0.0537836163            -95.436        0.997125907             -4.144        0.997700064             -4.131       0.0526501969            -93.969
               506      0.0536846344            -95.142        0.996896336             -4.138        0.997011115             -4.158       0.0525291048            -93.915
               507      0.0536992283            -95.454        0.996822988             -4.202        0.998201102             -4.184       0.0524225382            -94.071
               508       0.053542667            -95.353        0.997585206             -4.213         0.99735553             -4.175       0.0525049199            -93.945
               509      0.0531740819            -95.576        0.997929819             -4.208        0.997240712             -4.217       0.0523540158            -94.099
               510      0.0533089342            -95.321        0.996666819             -4.215        0.997585206             -4.214       0.0521434785            -94.124
               511      0.0529181466            -95.502        0.997136526             -4.241        0.998285183             -4.285       0.0519164066            -94.122
               512      0.0531428034            -95.625        0.997687338             -4.249        0.997802208             -4.309       0.0520648307            -94.414
               513      0.0527715682             -95.52         0.99655208             -4.275        0.998274551             -4.349       0.0516594764            -94.502
               514      0.0529432649            -95.739        0.997724691             -4.289        0.997609831              -4.31       0.0518693398            -94.589
               515      0.0526683848            -95.694        0.996896336             -4.348        0.997240712             -4.293       0.0514043652            -94.185
               516       0.052553301            -95.641        0.997700064             -4.347        0.997470361             -4.358       0.0513274868            -94.224
               517      0.0525472509            -95.792        0.997814935             -4.397        0.997125907             -4.351       0.0513570418            -94.384
               518      0.0521840143            -95.812        0.997441616             -4.401        0.998130863             -4.452       0.0512433465            -94.485
               519      0.0520954747            -95.887        0.996896336             -4.454        0.997929819             -4.428       0.0510328708             -94.22
               520      0.0518024142            -96.084        0.997814935             -4.473        0.997011115             -4.423       0.0509682826            -94.447
               521      0.0518740313            -95.879        0.997240712             -4.487        0.997700064             -4.453       0.0506873983            -94.433
               522      0.0517750573            -96.251        0.997862238             -4.461        0.997287988             -4.534       0.0504859564            -94.681
               523      0.0516183864            -96.135        0.998180714             -4.516        0.996906493             -4.533       0.0505364143            -94.685
               524      0.0515690535            -95.985        0.998019807             -4.535        0.997330637             -4.516       0.0504532516            -94.826
               525      0.0511799668            -96.141        0.997240712             -4.543        0.997240712             -4.594       0.0502921266            -94.675
               526      0.0513480922            -96.199         0.99729654             -4.636        0.997985686             -4.585       0.0500408079            -94.777
               527      0.0511671001            -96.337        0.997564083             -4.599        0.997678938             -4.592       0.0499218653            -94.904
               528        0.05102208            -96.576        0.997374268             -4.675        0.997718808              -4.61       0.0499986363             -95.08
               529      0.0507565388             -96.34        0.998256161             -4.694        0.996763208             -4.641       0.0498301276            -94.935
               530      0.0509130914            -96.711        0.997767763              -4.65         0.99730838             -4.672       0.0498401646            -94.974
               531      0.0504690174             -96.68        0.997757152             -4.661        0.997642288             -4.705       0.0495935103            -94.861
               532      0.0505882901            -96.526        0.997700064             -4.709        0.997470361             -4.682       0.0494937089            -94.826
               533      0.0503704773            -96.721        0.997989716             -4.688        0.997415392             -4.742       0.0493089853            -94.695
               534      0.0503833389            -96.616        0.997095934             -4.728        0.998014716             -4.744        0.049242143            -95.049
               535      0.0502551352            -96.608        0.997195812             -4.758        0.997999781             -4.784       0.0489925953            -95.008
               536      0.0501092033            -96.881        0.997970027             -4.833        0.997166082             -4.794       0.0491153788            -95.091
               537        0.04977966            -96.928        0.997474784             -4.832        0.997704488             -4.833       0.0487362294            -95.226
               538      0.0498921499            -96.957        0.997199882             -4.858        0.997774082             -4.823       0.0487564659            -95.345
               539      0.0497053121            -97.202         0.99759165             -4.878        0.997247153             -4.881       0.0484454289            -95.383
               540      0.0496170629            -96.675        0.997771403             -4.919        0.997771403             -4.885       0.0484932233            -95.128
               541      0.0494524706            -97.018         0.99778735             -4.926        0.997213143             -4.879       0.0483045448            -95.448
               542      0.0489246705            -96.951        0.998108857             -4.908        0.997189988             -4.916        0.048087025            -95.222
               543      0.0491812995            -96.975        0.997240712             -4.904         0.99735553             -4.919       0.0480120224            -95.469
               544      0.0493954523            -97.067        0.997555268             -4.951        0.997440427              -4.94       0.0476197341             -95.14
               545      0.0491139371            -97.226        0.997825847              -4.97        0.997366437             -5.008       0.0477919498             -95.14
               546      0.0489045368             -96.87        0.997353578             -5.017        0.997927866             -4.981       0.0476046252            -95.405
               547       0.048674332            -97.274        0.997585206             -5.054        0.997700064             -5.038       0.0476979814            -95.167
               548      0.0487061619            -97.179        0.997548242             -5.028        0.997777963             -5.091       0.0474770699            -95.322
               549      0.0485009226            -97.116        0.997700064             -5.016        0.997814935             -5.081       0.0474078216            -95.089
               550      0.0484118253            -97.212        0.997588553             -5.092        0.997703411             -5.116       0.0471521453            -95.473
               551      0.0482579539            -97.501        0.997858369             -5.114        0.997169311             -5.096       0.0470293422            -95.479
               552       0.048261724            -97.363         0.99782144             -5.143        0.997476864             -5.138       0.0469788987            -95.368
               553      0.0480483302            -97.335        0.997765078             -5.209        0.997650212             -5.154       0.0467927209              -95.4
               554      0.0481640114            -97.437        0.997752101             -5.145        0.997637237             -5.165       0.0467598006            -95.151
               555      0.0478897337             -97.58        0.997912407             -5.196        0.997452957             -5.233       0.0467942426             -95.36
               556      0.0479277115            -97.538        0.997554638             -5.243        0.997554638             -5.206       0.0464661502             -95.61
               557      0.0475314917            -97.227        0.998116981             -5.255        0.997427745             -5.282       0.0464869919            -95.578
               558      0.0477034732            -97.197        0.997585206             -5.292        0.997470361              -5.22       0.0463393567            -95.602
               559       0.047304181            -97.298        0.998043631             -5.292        0.997584121             -5.259       0.0463713274            -95.591
               560      0.0473599646            -97.593        0.997611321             -5.302        0.997841056             -5.339       0.0462339894            -95.565
               561      0.0471085785            -97.232        0.997700064              -5.34        0.997929819             -5.295       0.0459198013            -95.382
               562      0.0471218027            -97.424        0.997520654             -5.388        0.997980135             -5.338       0.0458639966            -95.659
               563      0.0469797208            -97.295        0.997724028             -5.373        0.997953788             -5.349       0.0457625726            -95.627
               564      0.0469840013            -97.493        0.998044717             -5.389         0.99735553             -5.404       0.0457562053            -95.332
               565      0.0468025882            -97.675        0.997860589             -5.407        0.997860589             -5.414       0.0458268357             -95.49
               566      0.0467891922            -97.659        0.997574979             -5.456        0.998034485             -5.391       0.0454773916              -95.4
               567       0.046590782            -97.538        0.997470361             -5.464        0.997814935              -5.46       0.0454516862             -95.34
               568      0.0463233544            -97.729        0.997700064             -5.478        0.998044717             -5.486        0.045289758            -95.156
               569      0.0466288447            -98.071        0.998055415             -5.456        0.997251401             -5.485       0.0452381311            -95.389
               570      0.0463820564            -97.415        0.997700064             -5.491        0.997470361             -5.496       0.0452480638            -95.404
               571      0.0464059322            -97.665        0.998213643             -5.526        0.997409502             -5.507       0.0449752412            -95.363
               572      0.0460786769            -97.614        0.998044717             -5.561        0.997470361             -5.558       0.0448177449            -95.503
               573      0.0460092761            -97.613         0.99791925             -5.581        0.998034146             -5.595       0.0446576021              -95.4
               574      0.0459449422            -97.591        0.997327306             -5.652        0.998361236             -5.552       0.0445694947            -95.467
               575      0.0456536249            -97.802        0.997987877             -5.612        0.997872986             -5.574       0.0446092854            -95.692
               576       0.045616178            -97.685        0.997973237              -5.66         0.99808814             -5.599       0.0445316611            -95.558
               577      0.0455669148            -97.942        0.998273689             -5.652         0.99723985             -5.606       0.0443301933             -95.69
               578      0.0454292974            -97.812        0.998357352             -5.687        0.997667949             -5.699       0.0442930942            -95.412
               579      0.0452741182            -97.748        0.997929819             -5.714        0.997814935             -5.699       0.0442741263            -95.513
               580      0.0454203002            -97.575        0.998159627             -5.757        0.997700064              -5.68        0.044253742            -95.565
               581      0.0452272311            -97.906        0.997929819             -5.739        0.997929819             -5.715       0.0441011587            -95.193
               582      0.0451439961            -97.817        0.998159627             -5.756        0.996896336              -5.76       0.0439946635            -95.678
               583      0.0450492127            -97.834        0.998360075             -5.777        0.997555816             -5.811        0.043710644            -95.588
               584      0.0448842839            -97.623        0.998491336             -5.804        0.997457272             -5.786       0.0435656603            -95.589
               585      0.0448636659            -97.673        0.998607348             -5.854        0.997228673             -5.798       0.0436359823            -95.533
               586      0.0446477934            -97.781        0.997929819             -5.849        0.998274551             -5.791       0.0434560252            -95.331
               587      0.0446580751            -97.725        0.997929819             -5.847         0.99735553             -5.857       0.0435411605            -95.383
               588       0.044381298            -98.051        0.998044717             -5.867        0.997929819             -5.851       0.0433560791            -95.385
               589      0.0443747635            -97.677         0.99824249             -5.878        0.998357423             -5.846       0.0432251045            -95.253
               590      0.0443864079            -97.781        0.998044717              -5.97        0.998159627             -5.915       0.0431668144            -95.328
               591      0.0442690294            -97.541        0.997240712             -5.933        0.998044717              -5.94       0.0429684809            -95.507
               592      0.0442136354            -98.001        0.997944125             -5.922        0.998403802             -5.976       0.0431823453            -95.632
               593      0.0441605366            -97.915        0.998468439             -5.941        0.997664093             -5.933       0.0429669317            -95.721
               594      0.0439981578            -97.897        0.998468786             -5.991        0.997779307              -5.94         0.04266134            -95.505
               595      0.0437421374            -97.917        0.997470361             -6.025        0.997814935              -6.01       0.0427120091             -95.56
               596      0.0437711988            -97.919        0.998247982             -6.032        0.998362916             -6.032       0.0425489102            -95.341
               597      0.0436968368            -97.839        0.997929819             -6.125        0.998044717             -6.083       0.0423789312            -95.643
               598      0.0435461736            -97.673        0.998504439             -6.092        0.998044717             -6.011       0.0422863305            -95.457
               599       0.043566232             -98.23        0.997814935             -6.158        0.997814935              -6.03        0.042320423            -95.536
               600      0.0435161034            -97.752        0.997125907              -6.13        0.997814935             -6.112       0.0421793614             -95.63
               601      0.0432364472            -98.188        0.997814935             -6.198        0.998044717              -6.14       0.0418600748            -95.813
               602      0.0432472284            -98.096        0.997833958             -6.166        0.998523475              -6.17       0.0418656925            -95.557
               603      0.0432513831             -98.07        0.998044717             -6.217        0.998274551             -6.149       0.0418263532            -95.689
               604      0.0430774513            -98.298         0.99735553             -6.207        0.998159627              -6.16       0.0415814855             -95.39
               605      0.0428844653            -98.262        0.998044717             -6.238        0.996666819             -6.224       0.0418311689            -95.728
               606      0.0431617819            -98.353        0.997928362             -6.237         0.99815817             -6.226       0.0415622802            -95.957
               607      0.0427169267            -98.237        0.998159627             -6.223        0.996896336             -6.245       0.0414333454            -95.506
               608       0.042672688            -98.205        0.997814935             -6.296        0.997929819             -6.283       0.0412002641            -95.619
               609      0.0424424064              -98.4        0.997585206             -6.279        0.998044717             -6.279       0.0411244403            -95.553
               610      0.0424500209            -98.423        0.998108855             -6.292        0.998338705             -6.275       0.0411839415             -95.87
               611      0.0423536029            -98.453        0.998137472             -6.321        0.998252393             -6.352       0.0411424699            -96.159
               612      0.0423399168             -98.63        0.997470361             -6.371        0.997700064             -6.374       0.0408601541            -95.767
