!{251R14S750}
!Johanson Technology Inc.
!www.johansontechnology.com
!Test Board Conditions:
!Substrate Type  RO4350B
!Substrate Thickness        20 mil
!Substrate Dk      3.66
!TL Type: GCPW 
!TL Trace Width  36 mil
!TL Gap  12 mil
!Electrode orientation      Horizontal
!DUT TOPOLOGY	SERIES
!Mounting Pad LxW         26x36 mil
! Created Wed Mar 11 15:52:39 2020
# mhz S ma R 50
! 2 Port Network Data from SP1.SP block
! freq  magS11  angS11  magS21  angS21  magS12  angS12  magS22  angS22  
!     
               500     0.00640250609            -88.097         0.99884937             -3.507        0.998044717             -3.541      0.00631175307            -87.332
               501     0.00619369763            -87.127        0.998504439             -3.549         0.99873438              -3.57      0.00578628739            -86.818
               502     0.00596829114             -85.67         0.99873438             -3.628         0.99873438             -3.569      0.00576633673            -87.535
               503      0.0056780603            -85.592        0.998619403             -3.574        0.999459154             -3.642      0.00549604146            -89.375
               504      0.0057896192            -86.574        0.998944132              -3.57         0.99873438             -3.609      0.00550173921            -87.878
               505     0.00551251774            -85.443         0.99902257              -3.66         0.99886363             -3.651      0.00540380912            -89.488
               506     0.00548024532            -86.444        0.999145876             -3.641        0.998274551             -3.617      0.00519457475            -86.074
               507     0.00527837207            -85.051        0.998159627             -3.633        0.998159627             -3.638      0.00498712209            -85.735
               508     0.00494253781             -84.34         0.99886294             -3.675        0.998619403             -3.714       0.0045483094            -87.585
               509     0.00488764889            -85.188        0.998274551             -3.688        0.999099519             -3.724      0.00451907969             -85.37
               510     0.00468759411            -83.125         0.99873438             -3.706        0.998619403             -3.687      0.00454778579            -84.784
               511     0.00458036408            -82.422        0.998619403             -3.741        0.998619403             -3.759      0.00444170795            -83.507
               512     0.00451543921            -82.877        0.998995427             -3.732        0.998619403             -3.805      0.00391741877            -88.546
               513     0.00447867966              -84.4        0.999514963             -3.749        0.998504439             -3.742      0.00397603318            -84.777
               514     0.00423594195            -82.575        0.998159627             -3.816        0.999065472             -3.814      0.00384636062            -87.821
               515     0.00382384254            -83.483        0.998619403             -3.811        0.998159627              -3.81      0.00379446018            -85.693
               516      0.0038432293            -86.439        0.999195792             -3.805        0.999756062             -3.799       0.0035297691            -88.556
               517     0.00368935121            -83.466        0.998274551             -3.828        0.998389489             -3.838        0.003332729            -80.248
               518     0.00357067235            -87.208        0.998948387             -3.869         0.99873438             -3.842       0.0030091927            -87.949
               519      0.0032579919            -87.234        0.998619403             -3.879         0.99888962               -3.9      0.00284118818            -83.557
               520     0.00315900272            -79.111        0.998159627             -3.889        0.999060526             -3.926      0.00273873492            -83.729
               521     0.00287045009            -81.732        0.997929819              -3.91        0.998619403             -3.933      0.00251362218            -84.052
               522     0.00261186064            -81.647        0.998619403             -3.927         0.99873438             -3.914      0.00254477858            -83.318
               523     0.00270240229            -78.651        0.999103775             -3.974        0.998619403             -3.936      0.00226177813            -82.005
               524     0.00245499154            -82.316         0.99889353             -3.989         0.99873438             -3.948      0.00204856619            -83.363
               525     0.00230834118            -84.253        0.999215817             -3.903        0.998619403             -4.006      0.00203142129            -82.311
               526     0.00210305195            -82.362         0.99901866             -4.026        0.999082036             -4.021      0.00165272273            -84.573
               527     0.00190721652            -68.949        0.999117924             -4.023        0.998504439             -3.999      0.00172822387             -88.09
               528     0.00171553665            -75.325         0.99927771             -4.028        0.998504439             -3.986      0.00162031704             -84.33
               529      0.0016058316            -76.115        0.998159627             -4.129         0.99884937             -4.016      0.00138404433            -88.595
               530     0.00159532805            -82.055         0.99886616             -4.031        0.998995427             -4.027      0.00113187899            -75.908
               531     0.00138292937            -73.316         0.99884937              -4.08        0.998159627             -4.099      0.00107497905            -82.147
               532    0.000912115845            -62.933        0.999374583             -4.154        0.998389489             -4.137     0.000641135759             -86.04
               533      0.0010240001            -63.383        0.999061562             -4.103        0.999291055             -4.067     0.000604365966            -73.868
               534    0.000865167108            -80.608        0.998504439             -4.143         0.99889905             -4.183     0.000437673246            -56.802
               535    0.000929929447            -44.058         0.99873438              -4.12        0.998504439             -4.174      0.00037346508            -33.386
               536    0.000651692928            -50.302        0.998143557             -4.125        0.999904742             -4.181     0.000216766921              5.673
               537    0.000546197867             -20.32        0.998504439             -4.214        0.999273568             -4.228      0.00034554133             -1.757
               538    0.000577098572              9.186         0.99873438             -4.216         0.99873438             -4.156       0.0002959375              12.59
               539    0.000628781854            -11.139         0.99884937              -4.23        0.998976449             -4.205     0.000359790755            105.225
               540    0.000565067071             16.157        0.999323614             -4.293        0.998389489             -4.263     0.000676238667             60.955
               541    0.000614964435             30.464        0.998044717             -4.242         0.99884937             -4.244     0.000518859771             70.522
               542    0.000545318209             59.363        0.999052015              -4.25        0.999633265             -4.232     0.000905107159             72.359
               543    0.000771613824              66.76        0.999130692             -4.307        0.998619403             -4.286      0.00105111443             81.334
               544    0.000889201118             64.169        0.999519911             -4.268        0.998159627             -4.335      0.00143747401             79.218
               545     0.00120406519             60.861         0.99873438             -4.327        0.998619403             -4.322      0.00141107468             71.993
               546      0.0012694044             81.094          0.9988542             -4.343        0.998504439             -4.325      0.00144827155             80.524
               547     0.00151809867             65.022        0.998274551             -4.374         0.99873438             -4.364      0.00166437046             80.896
               548     0.00139363807             67.871        0.998274551              -4.36        0.998389489              -4.38       0.0019056801             82.894
               549     0.00194110934             74.325         0.99905282             -4.437        0.998044717              -4.39      0.00213132657             82.711
               550     0.00198403806             70.718        0.998504439             -4.427        0.998952297             -4.411       0.0020495098              77.85
               551     0.00197719726             74.245        0.999069958             -4.423        0.998504439             -4.434      0.00217045107             85.743
               552     0.00219366418             71.254        0.997861219             -4.423        0.999906518              -4.45      0.00251692425             79.928
               553      0.0022932426             76.533        0.998952872             -4.483         0.99873438             -4.454      0.00271800343             79.919
               554     0.00246603934             75.088        0.999568128             -4.494        0.998890195             -4.452      0.00261577268             80.755
               555     0.00266532394             73.349        0.999141965             -4.483         0.99873438             -4.471      0.00294442163             82.138
               556     0.00263299479              73.32        0.999375159             -4.478        0.998389489              -4.54      0.00306161093             78.461
               557     0.00317760566               76.5        0.999064322             -4.547        0.999665836              -4.54      0.00328397619              84.03
               558     0.00324115649             76.892        0.998619403              -4.55         0.99873438             -4.568      0.00345262968             85.665
               559     0.00321107168             74.398        0.998874785             -4.578        0.998159627              -4.54      0.00352939284             83.708
               560     0.00335621675             76.297        0.997814935             -4.603        0.999444771             -4.584      0.00378791304             84.789
               561     0.00354119629              81.45        0.998389489             -4.609         0.99884937             -4.576      0.00378007137             85.353
               562     0.00362660286             76.683        0.998504439             -4.626         0.99961957             -4.587      0.00401605822             83.571
               563     0.00388195056             77.804        0.998872485             -4.649        0.998931021             -4.664      0.00418456193             83.467
               564     0.00414285754             78.912        0.999119649              -4.65        0.998274551             -4.649      0.00419855648             82.803
               565     0.00416533562             79.971        0.998995542             -4.652        0.998159627             -4.665      0.00439693454             83.816
               566     0.00448952092             79.697        0.998504439             -4.692        0.999099979             -4.692      0.00459726989             85.381
               567     0.00437336924             76.563          0.9998375             -4.659        0.998196738             -4.733      0.00478372435             82.042
               568     0.00453784858             79.295        0.998619403             -4.701        0.998159627             -4.699      0.00476266462             80.236
               569     0.00459039439             80.438        0.999285878             -4.772         0.99884937             -4.746       0.0049023013             81.416
               570     0.00489215265             78.455        0.998929756             -4.736         0.99884937             -4.764      0.00496935474             82.598
               571     0.00508276464             79.698        0.998933551             -4.785        0.998854085             -4.777      0.00508159443             80.883
               572     0.00516475827             78.988         0.99884937             -4.773        0.998619403             -4.799      0.00550427343              81.79
               573     0.00533519135             79.648        0.998389489             -4.783        0.999264825             -4.778      0.00539945592             82.748
               574     0.00537217313              78.26        0.998890885             -4.832         0.99873438             -4.782      0.00576766463             83.818
               575     0.00565327354             77.365        0.998044717             -4.852        0.998619403             -4.819      0.00610239057             79.779
               576     0.00575307453             78.046        0.998619403             -4.852        0.998504439             -4.825      0.00610168804             82.528
               577     0.00581969199             78.666        0.998619403             -4.853        0.998504439             -4.854      0.00617021078             82.947
               578       0.006075052             77.187        0.999148981             -4.927         0.99884937             -4.836      0.00639734835             81.197
               579     0.00607994989             79.102        0.998619403             -4.902        0.999026366             -4.919      0.00648783804             80.121
               580     0.00623375888             78.635         0.99873438             -4.922        0.998274551             -4.903       0.0065584317              81.93
               581     0.00644069702             79.091        0.999668413              -4.95        0.999311694             -4.958      0.00681683638             83.865
               582     0.00661835411             79.838         0.99884937             -4.958        0.999206384             -4.903      0.00677095613             81.311
               583     0.00672202309             79.508        0.999051095              -4.97        0.998389489             -5.016      0.00693106545             81.911
               584     0.00677797558             78.069        0.999186597             -5.064        0.998044717             -4.976      0.00721356584             82.707
               585     0.00677953645             79.104        0.998504439             -5.013        0.998619403             -4.981      0.00727612246             83.151
               586     0.00681553575             79.655        0.998159627             -4.999        0.998504439             -5.013      0.00739434994              80.81
               587     0.00724853099             80.416        0.998504439             -5.029        0.998274551             -5.037      0.00756745766             81.761
               588     0.00759363993             77.765        0.998619403             -5.036        0.998389489             -5.047      0.00794602633             80.959
               589     0.00770105101             78.631        0.998389489             -5.058        0.999336385             -5.095      0.00788496918             81.021
               590     0.00745418213             78.723        0.998389489             -5.034        0.998950112             -5.052      0.00809375399             80.742
               591     0.00778932815             80.103        0.999145531             -5.117         0.99884937             -5.027      0.00794328235             81.553
               592     0.00812924102             80.757        0.999086521             -5.166        0.999449373             -5.147      0.00843431856             81.355
               593     0.00810027942             79.907        0.998619403             -5.154        0.998619403             -5.127      0.00849376029             81.316
               594     0.00816958508             79.817         0.99884937             -5.121        0.998159627             -5.123      0.00867361218              82.53
               595      0.0084781286             78.357        0.999191659             -5.197        0.998619403             -5.122      0.00895261689             81.593
               596     0.00865665282             79.888        0.998504439               -5.2        0.998619403             -5.144      0.00901778756             80.505
               597     0.00863376056             80.287        0.997929819             -5.203        0.999053395             -5.139      0.00887258156             80.414
               598     0.00872067296             80.817        0.998274551             -5.198        0.999220418               -5.2      0.00920555549             80.725
               599     0.00886543398             81.158        0.998991861             -5.219         0.99873438               -5.2      0.00930893505             80.655
               600     0.00900637446             79.369        0.998274551              -5.23         0.99873438             -5.268      0.00966718434             80.657
               601     0.00915166259             81.031        0.998619403             -5.279        0.998504439             -5.254      0.00937022458              83.02
               602     0.00934006718             79.465        0.998274551             -5.301        0.998504439             -5.289      0.00972747224             81.859
               603     0.00950604794              80.41         0.99873438             -5.312        0.998997267             -5.273      0.00978588257             81.185
               604      0.0098843929              80.76         0.99873438             -5.333        0.998884215             -5.299        0.010130946             81.592
               605     0.00966718434             80.906        0.999040053             -5.342        0.999507713             -5.336       0.0100658395             83.143
               606      0.0100046062             79.249         0.99873438             -5.356         0.99898151             -5.368       0.0102329299             80.755
               607      0.0103788683             78.761        0.998159627              -5.38        0.998970929             -5.374       0.0103812584             80.676
               608      0.0103133558             79.416        0.999206154             -5.374        0.998504439             -5.404        0.010624292              81.35
               609      0.0102813466              81.32        0.998389489             -5.384         0.99873438             -5.455       0.0108767714              81.98
               610      0.0106365308             80.135        0.998044717             -5.428        0.998389489             -5.389       0.0108842874             81.827
               611      0.0105852227              79.37        0.998389489             -5.429        0.998619403             -5.472       0.0111789239             81.511
               612      0.0108642562             81.057        0.998389489             -5.473        0.998619403             -5.455       0.0111134782             81.409
