!{251R15S300}
!Johanson Technology Inc.
!www.johansontechnology.com
!Test Board Conditions:
!Substrate Type  RO4350B
!Substrate Thickness        20 mil
!Substrate Dk      3.66
!TL Type: GCPW 
!TL Trace Width  34 mil
!TL Gap  10 mil
!Electrode orientation      Horizontal
!DUT TOPOLOGY	SERIES
!Mounting Pad LxW         26x52 mil
! Created Thu Mar 12 17:12:32 2020
# mhz S ma R 50
! 2 Port Network Data from SP1.SP block
! freq  magS11  angS11  magS21  angS21  magS12  angS12  magS22  angS22  
!     
               500       0.104712855            -91.286        0.993116048             -0.835        0.993687897              -0.85        0.104183753            -90.665
               501       0.104421212            -91.455        0.993890932             -0.853        0.993776513             -0.827        0.103738205            -90.937
               502       0.104105341             -91.41        0.993854961             -0.892        0.994312754             -0.945        0.103853948            -90.889
               503       0.103642781            -91.467        0.994235022             -0.953        0.994006117             -0.955        0.103463951            -90.973
               504       0.103407015            -91.435        0.993687897             -0.946        0.994374549             -0.978        0.103347506            -90.873
               505       0.103228591            -91.429        0.993573501             -0.989        0.994145612             -0.949        0.102943754            -90.968
               506       0.103050475            -91.515        0.993802306             -1.016        0.994145612              -1.02        0.102695166            -91.084
               507        0.10296746            -91.697        0.994031163             -1.084        0.993916728             -1.044        0.102553385            -91.041
               508       0.102612437            -91.643        0.993687897             -1.027        0.994145612             -1.077          0.1024118            -91.093
               509       0.102340146             -91.82        0.994136525             -1.094        0.994022077             -1.135         0.10206951            -91.157
               510       0.102211556            -91.551        0.993459118             -1.097        0.994260074             -1.158        0.101753651            -91.143
               511       0.101917791            -91.663        0.993802306             -1.155        0.994031163             -1.174        0.101648272             -91.14
               512       0.101461201            -91.559        0.993687897             -1.182        0.993916728             -1.182        0.101297797            -91.232
               513       0.101367795            -91.659        0.994260074             -1.222        0.994603539             -1.242        0.101134656            -91.177
               514       0.101066586            -91.837        0.994277463              -1.25        0.994162999              -1.24        0.100961919            -91.401
               515       0.101061148             -91.91        0.994109509             -1.296        0.994452921             -1.285        0.100654739            -91.305
               516       0.101053184            -91.971        0.994260074             -1.229        0.994031163             -1.301         0.10055415            -91.262
               517        0.10053793            -91.824        0.993756406             -1.357        0.994786634             -1.328        0.100364457            -91.335
               518       0.100046062            -91.835        0.993459118             -1.338        0.994832581             -1.336        0.100207448            -91.314
               519       0.100288238            -91.836        0.994603539             -1.372        0.994374549             -1.351       0.0999884877            -91.285
               520      0.0997240712            -91.938        0.994260074             -1.418        0.994603539             -1.394       0.0997125907            -91.414
               521       0.099477018            -92.016         0.99477018             -1.399        0.993968813             -1.449       0.0992253771             -91.45
               522      0.0993802306            -91.996        0.994145612             -1.485        0.994260074             -1.433       0.0992316014            -91.568
               523      0.0991174225            -92.045        0.994145612             -1.486        0.994145612             -1.524       0.0989919775             -91.51
               524      0.0990172496            -92.095        0.994284934             -1.483        0.994742925             -1.492       0.0987440325            -91.482
               525      0.0990375755             -91.99        0.993459118             -1.526        0.994489037             -1.479       0.0985598423            -91.564
               526      0.0985106368            -92.039        0.994335915             -1.531        0.994793929             -1.526       0.0981483779            -91.612
               527      0.0984064394            -92.133        0.994886455             -1.603        0.994199449             -1.566       0.0979092036            -91.573
               528      0.0980279679            -92.262        0.994145612             -1.617        0.994489037             -1.622       0.0976562402            -91.721
               529      0.0979264475            -92.063        0.994145612             -1.618        0.994603539             -1.692       0.0975214163            -91.574
               530      0.0977349736            -92.205        0.994947122             -1.659        0.994260074             -1.679       0.0972747224            -91.589
               531      0.0973139423            -92.294        0.994660947             -1.701        0.994775468             -1.642       0.0971348484            -91.677
               532      0.0973020791              -92.3        0.994997799             -1.695        0.994310717             -1.743       0.0968773209            -91.692
               533       0.097268358            -92.217        0.994767492             -1.784        0.994767492             -1.752       0.0966877791            -91.825
               534      0.0968864481             -92.45        0.994518885             -1.753         0.99463339             -1.791       0.0963414181            -91.913
               535      0.0963367897            -92.443        0.995158301             -1.812        0.993784388             -1.834       0.0963811647            -91.841
               536      0.0966495864            -92.354        0.994489037             -1.822        0.994374549             -1.829        0.096094825            -91.877
               537      0.0962352921            -92.306        0.995140425             -1.841        0.994567741             -1.908       0.0958041603            -91.898
               538      0.0957738549            -92.434        0.994711109             -1.907        0.994940176             -1.861       0.0954216602            -91.999
               539      0.0957425858            -92.495        0.994615339             -1.869        0.994958926             -1.912       0.0954564222            -91.994
               540      0.0954333128            -92.541        0.994145612             -1.925        0.994489037             -1.946       0.0951809423            -92.006
               541       0.095411341            -92.438        0.994145612             -1.968        0.994947122             -1.957        0.094852766            -91.974
               542      0.0953564337            -92.557        0.994718053              -2.01        0.995061676             -1.976       0.0949183106            -92.007
               543      0.0949351806            -92.565        0.994780311             -2.025        0.995123955             -2.011       0.0946078517            -92.065
               544       0.094863687            -92.529        0.994374549             -2.056        0.994947122             -2.041       0.0944495733            -92.019
               545      0.0946019307            -92.592        0.994947122              -2.06        0.994947122             -2.064       0.0941889597            -91.962
               546       0.094569262            -92.623        0.995176243             -2.037        0.994489037             -2.077       0.0941998042            -92.033
               547      0.0940372673            -92.593        0.994832581             -2.104        0.994947122              -2.07       0.0938533978            -92.117
               548      0.0938739534            -92.768        0.995279613              -2.13        0.994363348             -2.151       0.0936364862            -92.258
               549      0.0936039049            -92.746        0.994475221             -2.183        0.995391589             -2.137       0.0932811661            -92.173
               550      0.0934932183            -92.762        0.995359829              -2.19        0.994787019             -2.205       0.0933856422            -92.205
               551      0.0934787569            -92.858         0.99497674             -2.167        0.995091298             -2.236       0.0928352536            -92.187
               552      0.0930355855            -92.949        0.995174169             -2.246        0.994945048             -2.223       0.0929178378            -92.252
               553      0.0928842317            -92.909        0.995043331             -2.241        0.995157896             -2.207       0.0926492682            -92.245
               554      0.0927159941            -92.829        0.994385217             -2.269        0.995416096             -2.298       0.0922368917            -92.456
               555      0.0925466786            -92.896        0.994513853             -2.332        0.995430256             -2.289       0.0920896531            -92.414
               556      0.0924485279             -92.82        0.995176243             -2.315        0.995176243             -2.346       0.0920661538            -92.321
               557      0.0921191665            -93.002        0.994145612             -2.363        0.995520024             -2.343       0.0916536996            -92.363
               558      0.0917627585            -92.969        0.995443146             -2.378        0.994984833             -2.321       0.0915622509            -92.377
               559      0.0916288328            -92.952        0.995364516             -2.407        0.995364516             -2.416       0.0913549648            -92.395
               560      0.0913923348            -93.075        0.995198637             -2.426        0.995427816             -2.433       0.0909828994            -92.366
               561      0.0913881652            -93.046        0.994695053              -2.49        0.995497006             -2.431       0.0909473309            -92.602
               562      0.0910542036            -93.081        0.995061676             -2.508        0.994947122             -2.458       0.0909075597            -92.442
               563      0.0909599054            -92.998        0.994947122             -2.552        0.995520024              -2.52       0.0906984782             -92.63
               564      0.0907449372            -93.083        0.995686008             -2.532        0.994883903              -2.52       0.0905049649            -92.509
               565      0.0906880367            -93.149        0.994832581              -2.53        0.995290824             -2.537       0.0901363567            -92.641
               566      0.0903337418            -93.175        0.994832581             -2.593        0.994947122             -2.559       0.0900015523            -92.606
               567        0.09012598            -93.163        0.995061676             -2.594        0.995520024             -2.605        0.089629299            -92.694
               568      0.0900948569            -93.241        0.995061676             -2.586        0.995634644              -2.65       0.0895055571            -92.491
               569      0.0899081731            -93.236        0.995403522             -2.645        0.995403522             -2.651       0.0892789703            -92.673
               570      0.0894937967            -93.336        0.995045484             -2.676        0.995618443             -2.676       0.0891852293            -92.764
               571       0.089380257            -93.348        0.995500767             -2.662        0.995500767             -2.733       0.0891131096            -92.676
               572      0.0892547635            -93.469        0.995477397             -2.779        0.995362795             -2.784       0.0887118025            -92.796
               573      0.0889944523            -93.402        0.995664297             -2.738        0.995205883             -2.776       0.0885753617            -92.796
               574      0.0888587092            -93.448        0.995176243             -2.802        0.995520024             -2.793       0.0883588388            -92.646
               575       0.088719308            -93.531         0.99533241             -2.805        0.995447008             -2.783       0.0882303792            -92.886
               576       0.088514001            -93.504        0.995089107             -2.835        0.995662091             -2.814       0.0880262036            -92.941
               577       0.088307095             -93.51        0.995739185              -2.88        0.994937037             -2.876       0.0876991932            -93.022
               578      0.0880136435            -93.579        0.994718053             -2.883        0.995290824             -2.884       0.0875588401            -92.798
               579      0.0880440476            -93.697        0.995290824             -2.893        0.995405417             -2.874       0.0875689213            -92.888
               580       0.087639522            -93.598        0.995634644             -2.954        0.995405417             -2.956       0.0874077619            -92.933
               581      0.0875495836             -93.68        0.995529388             -2.991        0.995529388             -2.966       0.0869769321             -93.05
               582      0.0872067296            -93.658        0.995061676             -2.961        0.995634644             -2.967       0.0869661011            -92.932
               583      0.0871794866            -93.699        0.995094458             -3.008        0.995896732             -3.018       0.0865893157            -93.014
               584      0.0869961433            -93.645        0.995520024             -3.048        0.995405417              -3.02       0.0866961876            -92.945
               585      0.0867061694            -93.755        0.995290824              -3.06        0.995978584             -3.096       0.0863475461            -93.024
               586      0.0867635225            -93.881        0.995376024             -3.084        0.995719875             -3.057        0.086315179            -93.107
               587       0.086292314            -93.834        0.996029303              -3.14        0.994997788             -3.103       0.0859156174            -93.128
               588      0.0863064229            -93.756        0.995618865              -3.15        0.995848141             -3.105       0.0858011516             -93.14
               589      0.0860000885            -93.853        0.995173719             -3.151         0.99609073             -3.202        0.085604954            -93.112
               590      0.0857531338            -93.993        0.995520024             -3.202        0.995634644             -3.128       0.0854574639            -92.987
               591      0.0857953905            -93.945        0.995666638             -3.181        0.995781275             -3.144       0.0853815344            -93.138
               592      0.0852255089             -94.02        0.996023541             -3.235        0.995450348             -3.227       0.0850784566             -93.19
               593      0.0852716701            -93.834        0.995645578             -3.248        0.996104195             -3.247       0.0849092039            -93.202
               594      0.0850492599            -93.912        0.995337894              -3.27        0.996140365             -3.235       0.0849416198            -93.262
               595      0.0847715258            -94.025        0.995749278             -3.298        0.995863924             -3.321       0.0846739851            -93.243
               596       0.084781286            -94.091        0.995061676             -3.335        0.995520024             -3.309       0.0842849435            -93.319
               597      0.0844620471            -94.158        0.996234559             -3.313        0.995088262             -3.351       0.0841611388            -93.186
               598      0.0842849435            -94.195        0.995405417             -3.376        0.995634644             -3.368       0.0842073499            -93.383
               599      0.0842317636            -94.249        0.995923302             -3.386        0.995694008             -3.388       0.0838833746            -93.366
               600      0.0842170452            -94.244        0.995290824             -3.408        0.995978584             -3.361       0.0837143674            -93.445
               601      0.0838792496            -94.139         0.99530122             -3.426        0.996218348             -3.489       0.0832826501            -93.457
               602       0.083764221            -94.325        0.995998201              -3.51        0.995539633             -3.422       0.0831110089            -93.467
               603      0.0834572441            -94.219        0.994979286             -3.484        0.996354851             -3.482       0.0831407694             -93.41
               604      0.0832651414            -94.322        0.996238277             -3.547        0.995550337             -3.502       0.0828062703             -93.42
               605       0.083055343            -94.273        0.995101947             -3.535        0.996362964             -3.533       0.0827499188            -93.494
               606      0.0831324406            -94.443         0.99522329              -3.55        0.996140347             -3.582       0.0824936521            -93.632
               607      0.0829167593            -94.504        0.995846313             -3.568        0.995960971             -3.582       0.0823270057            -93.486
               608      0.0829853349            -94.509        0.995867022             -3.621        0.995867022             -3.559       0.0823856079            -93.559
               609       0.082651722            -94.333        0.995868295              -3.63        0.996212315             -3.582        0.082101654            -93.513
               610      0.0823645579            -94.559        0.995841845             -3.605        0.996185856             -3.682        0.081957815            -93.484
               611      0.0823578276            -94.385        0.996219143              -3.68         0.99587512             -3.645       0.0818850998            -93.629
               612       0.081893607            -94.522        0.996093257             -3.684        0.995634644             -3.698       0.0816676389            -93.513
