!{201R07S1R1}
!Johanson Technology Inc.
!www.johansontechnology.com
!Test Board Conditions:
!Substrate Type  RO4350B
!Substrate Thickness        10 mil
!Substrate Dk      3.66
!TL Type: GCPW 
!TL Trace Width  21 mil
!TL Gap  20 mil
!Electrode orientation      Horizontal
!DUT TOPOLOGY	SERIES
!Mounting Pad LxW         16x21 mil
!Agilent Technologies,N5230A,MY45001966,A.07.50.67
!Agilent N5230A: A.07.50.67
! Created Mon Mar  9 16:19:36 2020
# mhz S ma R 50
! 2 Port Network Data from SP1.SP block
! freq  magS11  angS11  magS21  angS21  magS12  angS12  magS22  angS22  
!     
               500       0.956419793            -19.709        0.285856818             69.943        0.286977967             70.071        0.955869392            -19.537
               501       0.956362388            -19.692        0.286465607             69.935        0.287092924             70.068        0.955701985            -19.543
               502       0.955664309            -19.727        0.286817316             69.909        0.287942232             69.975         0.95577434            -19.586
               503       0.956019066            -19.805        0.287452807             69.858        0.288314546             69.922        0.955028987            -19.607
               504       0.955177956            -19.823        0.288193573               69.8        0.288924447              69.93        0.955837998            -19.698
               505       0.955674061            -19.871        0.288708652             69.783        0.289440833              69.86        0.954794258            -19.699
               506       0.955571632            -19.942        0.289209962             69.721         0.28987666              69.82        0.954691923            -19.745
               507       0.955061128            -19.924        0.289655093             69.702        0.290322817             69.811        0.954841242            -19.754
               508       0.954936136            -19.936         0.29035167             69.694        0.290820039             69.781        0.954826201            -19.819
               509       0.954992586            -20.052        0.290904206             69.586        0.291172262             69.698         0.95400357            -19.852
               510       0.954567725            -20.031        0.291310907             69.572        0.291848017             69.678        0.954238086            -19.886
               511        0.95446174            -20.076        0.291647679             69.557        0.292488317             69.659        0.954241992            -19.925
               512       0.954419494            -20.135        0.292004337             69.484        0.293082105             69.613        0.953760432            -19.961
               513       0.954127423            -20.158        0.292688985             69.457        0.293667833             69.589        0.953907753            -20.025
               514       0.953708187            -20.218         0.29343743             69.405        0.294012308             69.533        0.953927811            -20.045
               515       0.953981525            -20.265        0.293758177             69.366        0.294435359             69.496        0.953652088            -20.125
               516       0.953396803            -20.242        0.294288771              69.36        0.295272969             69.501        0.953726151            -20.147
               517       0.953101986            -20.338        0.295113702             69.282        0.295623786              69.44        0.953650794            -20.176
               518       0.953547043            -20.351        0.295421517             69.259        0.296170722             69.384        0.952559524            -20.192
               519       0.953742429            -20.385         0.29602685              69.26        0.296572654             69.369        0.952096796            -20.221
               520       0.952643197            -20.392        0.296367291             69.222        0.297118894             69.325        0.953082006            -20.271
               521       0.952841875            -20.486        0.296941457             69.153         0.29796883             69.279        0.952293533             -20.28
               522        0.95268742            -20.527        0.297749082             69.119        0.298092075             69.244         0.95235843             -20.32
               523       0.952453365            -20.561        0.298293452             69.097        0.298705845              69.18         0.95223408            -20.374
               524        0.95233705            -20.571        0.298738145             69.057        0.299254494             69.179        0.952117792            -20.424
               525       0.951959494            -20.638        0.299135854             69.046         0.29996354             69.107        0.952069099            -20.436
               526       0.952021766            -20.672        0.299706994             68.967        0.300432476             69.086        0.951583444            -20.485
               527          0.951772            -20.662        0.300111698             68.962        0.301080705             69.054         0.95166243            -20.571
               528       0.951919916            -20.756        0.300677142             68.912        0.301613248             69.043        0.951372105            -20.586
               529       0.951838163            -20.726        0.301240329             68.906        0.301795746                 69        0.950742949             -20.58
               530       0.951710272            -20.796        0.301755196             68.877        0.302485636             68.939        0.950505768            -20.617
               531       0.950900863            -20.856        0.302332783              68.82        0.302925087             68.912         0.95133887            -20.673
               532       0.950871735            -20.833        0.302741486             68.787        0.303544199             68.879        0.950652814            -20.692
               533       0.950722154            -20.905        0.303496449             68.694        0.303916035             68.853        0.950722154            -20.781
               534       0.950385934            -20.957        0.304018492              68.67        0.304368707             68.834        0.950604794            -20.801
               535       0.950508673             -20.96        0.304478116             68.695        0.305004386             68.765        0.950180436            -20.803
               536        0.95032244            -21.017         0.30483932             68.659        0.305612409             68.717        0.950213036            -20.867
               537       0.949722598            -21.027        0.305489841             68.582        0.306123572             68.703         0.95026946            -20.919
               538       0.950063834            -21.073        0.306057331             68.517        0.306480457             68.696        0.949626414            -20.937
               539       0.949705083            -21.121        0.306223674             68.499         0.30703562             68.609        0.949705083            -20.993
               540       0.949668323            -21.174        0.306882379             68.523         0.30776693             68.564        0.949449679            -20.997
               541       0.949862915            -21.139        0.307546601             68.464         0.30814912             68.599        0.948879212            -21.063
               542       0.949659106            -21.236        0.308083002             68.437        0.308615502             68.537         0.94878484            -21.054
               543       0.949078506            -21.224        0.308284818             68.408        0.309351437             68.531        0.948969245            -21.087
               544       0.949027738             -21.31        0.309228067             68.287        0.309548644             68.448        0.948590795            -21.174
               545       0.949228418            -21.325        0.309542818             68.276        0.310256388             68.391        0.947590573            -21.207
               546       0.948575547            -21.407        0.310221523             68.226        0.310793498             68.354        0.948357155            -21.245
               547       0.948454046            -21.396        0.310610615             68.202        0.311147484             68.333        0.948126518            -21.282
               548        0.94806862            -21.414        0.311092666             68.213        0.311702132             68.313        0.948177777            -21.275
               549        0.94851043            -21.478        0.311811487             68.147        0.312350432             68.287        0.947528127            -21.372
               550       0.947854049            -21.554          0.3124219             68.085        0.312817809             68.252        0.947963181            -21.391
               551        0.94770872            -21.581        0.312913915              68.05        0.313166196              68.21        0.947817836            -21.437
               552       0.947171113             -21.56        0.313204825             68.068        0.314216108             68.231        0.947825622             -21.44
               553       0.947497676            -21.681        0.313926627             67.981        0.314396826             68.177        0.947279532            -21.445
               554       0.947723168            -21.647        0.314218317             67.968        0.314797661             68.134        0.946741681            -21.547
               555       0.947273686            -21.771        0.314829539             67.908        0.315518969             68.007        0.946728549            -21.594
               556       0.947346172            -21.736        0.315216327             67.859        0.315979352             68.027        0.946256127            -21.662
               557       0.946881458            -21.783        0.315860714             67.862        0.316515959             68.008        0.946663456            -21.662
               558       0.946596063            -21.834        0.316165657             67.775        0.317040463             67.956        0.946051315             -21.65
               559       0.946457209            -21.825        0.317139972             67.748        0.317468751             67.936         0.94602145            -21.745
               560       0.946451259            -21.897        0.317393664             67.731        0.318198592             67.923        0.945906594            -21.759
               561       0.946519233            -21.901         0.31818481             67.725        0.318368025              67.87        0.945212472            -21.778
               562       0.945977145            -21.949        0.318662269              67.65        0.318809052              67.83        0.945650473            -21.844
               563       0.945325724            -22.052        0.318846369             67.636        0.319654981              67.71        0.945870054            -21.881
               564       0.945138991            -22.004        0.319481474             67.621        0.319996833              67.74        0.945574344            -21.875
               565       0.945628708            -22.062        0.319941553             67.564        0.320642177             67.686        0.944758153            -21.957
               566       0.945582264            -22.146        0.320774117             67.501        0.320958822             67.596        0.944385516            -22.027
               567        0.94515041            -22.175        0.321181799             67.463        0.321440746             67.617        0.944606494            -22.006
               568       0.944576391            -22.205        0.321726687             67.421        0.322060221             67.584        0.944902693             -22.07
               569       0.944752305            -22.234        0.322083117             67.377        0.322565533             67.534        0.944317331             -22.12
               570       0.944817014            -22.265        0.322922053              67.34        0.322996417             67.487        0.943838536            -22.191
               571       0.943952194            -22.266        0.323295753             67.319        0.323593657              67.48        0.944278279            -22.202
               572       0.944691532            -22.311        0.323474479             67.322         0.32418284             67.424        0.943170096            -22.236
               573       0.943981844            -22.362        0.324275129             67.233        0.324573935             67.385         0.94365586            -22.285
               574       0.943679305            -22.429        0.324843687             67.222        0.325180452             67.344        0.943787956            -22.311
               575       0.943865077            -22.481        0.325244467             67.159         0.32569412             67.283        0.942996146            -22.352
               576        0.94321157            -22.482        0.325656026             67.132        0.326294024             67.314        0.943428777            -22.359
               577       0.943157875            -22.509        0.326425738             67.114        0.326613698             67.219         0.94294073            -22.408
               578       0.942834092            -22.513        0.326802431             67.099        0.327141227             67.234        0.943159792            -22.445
               579        0.94272288            -22.562          0.3271403             67.036         0.32774347             67.176         0.94272288            -22.482
               580       0.942831632            -22.647        0.327932262             66.996        0.328196651             67.123        0.942397542            -22.527
               581       0.942597807            -22.643         0.32830419             66.997        0.328682382             67.081        0.942055361            -22.528
               582       0.942663156            -22.713        0.328780865             66.918        0.329159605             67.044          0.9415785            -22.581
               583       0.942125196             -22.77        0.329388641             66.908        0.329768082             66.971        0.942016736            -22.639
               584       0.941838231             -22.77        0.329515854             66.912        0.330427599              66.97        0.942055122            -22.659
               585        0.94123227            -22.835        0.330367113             66.822        0.330900031             66.871        0.941991119            -22.747
               586       0.941370198             -22.83        0.330948521             66.773        0.331139085             66.923        0.941695391            -22.756
               587       0.941464817            -22.905        0.331401214             66.758        0.331897587             66.848        0.941139703            -22.771
               588       0.940589226            -22.929        0.332200284             66.671        0.332085566             66.796         0.94145594             -22.86
               589        0.94120672            -22.933        0.332571492              66.68        0.332533206             66.847        0.940881695            -22.839
               590         0.9405383            -23.043        0.332986392             66.627        0.333254855              66.69        0.940971534            -22.913
               591       0.940817644            -23.059        0.333545782             66.588        0.333737842             66.734        0.940601038            -22.937
               592       0.940317972            -23.054        0.333906395             66.621        0.334368022             66.648        0.940534513            -22.963
               593       0.940180787            -23.113        0.334858534             66.527        0.334704362             66.633        0.940289035            -23.022
               594       0.940565226            -23.141        0.334995457             66.522        0.335304142             66.601        0.939699332            -23.061
               595       0.939939715            -23.163        0.335158316             66.434        0.335853594             66.604        0.938966288            -23.094
               596       0.939620905            -23.239        0.335894328              66.42        0.336513638             66.547        0.939729089            -23.082
               597       0.939639257            -23.266        0.336636461             66.373         0.33667522             66.494        0.939422922            -23.154
               598       0.939316058            -23.289        0.337218775             66.345        0.337335267             66.427        0.939316058            -23.229
               599       0.939249392            -23.334        0.337389003              66.28        0.337855445             66.397        0.939033147            -23.268
               600       0.938927321            -23.356        0.338050807             66.311        0.338362306             66.417        0.939143542            -23.229
               601        0.93914938            -23.424        0.338598224             66.225          0.3388322              66.37        0.938608918            -23.309
               602       0.938528189            -23.453        0.338920096             66.157        0.339388655             66.292        0.938744318            -23.396
               603       0.938425931            -23.448        0.339586174             66.195        0.339899089             66.297        0.938317897            -23.354
               604       0.937914476             -23.51        0.340026871             66.093        0.340301011              66.28        0.938562588            -23.411
               605       0.937727078            -23.548        0.340428928             66.103        0.341017336             66.175        0.938267033            -23.459
               606       0.937636642            -23.591        0.340945192             66.056        0.341691811             66.166        0.937852566             -23.46
               607       0.937389276            -23.614        0.341444389             66.027        0.342034552             66.091        0.937821059            -23.545
               608       0.937849179            -23.658        0.342123576             65.979        0.342320575             66.094        0.937093667            -23.563
               609       0.937475697             -23.66        0.342263051             65.925        0.343052049             66.072        0.936936198            -23.608
               610       0.937386923             -23.76        0.343059058             65.922        0.343691579             65.983        0.936847475            -23.656
               611       0.936834942            -23.729        0.343528743             65.951        0.343924473             65.994        0.937050681            -23.621
               612       0.936698878            -23.801        0.343993313             65.836        0.344627556             65.936        0.936591043             -23.71
