!{201R07S1R6}
!Johanson Technology Inc.
!www.johansontechnology.com
!Test Board Conditions:
!Substrate Type  RO4350B
!Substrate Thickness        10 mil
!Substrate Dk      3.66
!TL Type: GCPW 
!TL Trace Width  21 mil
!TL Gap  20 mil
!Electrode orientation      Horizontal
!DUT TOPOLOGY	SERIES
!Mounting Pad LxW         16x21 mil
!Agilent Technologies,N5230A,MY45001966,A.07.50.67
!Agilent N5230A: A.07.50.67
! Created Mon Mar  9 16:24:09 2020
# mhz S ma R 50
! 2 Port Network Data from SP1.SP block
! freq  magS11  angS11  magS21  angS21  magS12  angS12  magS22  angS22  
!     
               500       0.903679902            -27.706        0.422002111             61.831        0.423413425             61.942        0.903367836            -27.809
               501       0.903579546              -27.7        0.422830582             61.826        0.423658956             61.937        0.903163528            -27.834
               502       0.902788829             -27.75        0.423239484             61.812        0.424703829             61.833        0.902892772             -27.87
               503       0.902993572             -27.82        0.423871931             61.725        0.425289498             61.778         0.90195456            -27.934
               504       0.902195083             -27.87        0.424913428             61.682        0.426089131             61.773        0.902506744            -27.996
               505       0.902295342             -27.91        0.425646156             61.611        0.426725618             61.695        0.901153379            -28.036
               506        0.90192492            -27.998        0.426403132             61.552        0.427336891              61.65        0.901302107            -28.094
               507       0.901437919             -27.99        0.427007814             61.525        0.427942897             61.629        0.901022887            -28.121
               508       0.900995696            -27.995        0.427979253             61.486        0.428521598             61.604        0.900891971            -28.192
               509       0.900430091            -28.147        0.428647209             61.395        0.428795284             61.481        0.900015523            -28.217
               510        0.90023471            -28.132        0.429294924             61.378        0.429987424             61.457        0.900131073            -28.288
               511       0.900054577            -28.198        0.429703454             61.331         0.43064444             61.416        0.899743763             -28.31
               512       0.899695438            -28.278        0.430125825             61.233        0.431613995             61.336        0.899177681            -28.395
               513       0.899278853            -28.288        0.431066607             61.248        0.432110064             61.306        0.899278853            -28.432
               514       0.898946779            -28.378        0.432000232             61.179        0.432697096             61.261         0.89905028            -28.471
               515       0.898940456            -28.434        0.432445046             61.108        0.433392036               61.2        0.898526574            -28.559
               516       0.898273914            -28.453        0.433120548             61.094        0.434468993             61.166        0.898377337            -28.605
               517       0.897721461            -28.522        0.434151801             60.997        0.435052439             61.127        0.897928192            -28.628
               518       0.897660795            -28.582        0.434922883             60.979        0.435674617             61.048        0.897350807            -28.668
               519       0.897815673            -28.582        0.435499021             60.923        0.435950503             61.035         0.89667938            -28.736
               520       0.896705844            -28.631        0.435963369             60.903        0.436968368             60.961        0.897118887            -28.787
               521       0.896354116            -28.745         0.43679697             60.801        0.437803891               60.9        0.896457319            -28.805
               522       0.896179693            -28.785        0.437567541             60.765        0.438172481             60.863        0.896282875            -28.857
               523       0.895751022            -28.802        0.438315988             60.734        0.439023039             60.808        0.895854155            -28.919
               524       0.895281462            -28.858        0.439197229             60.682        0.439399534             60.773        0.895900114            -28.975
               525        0.89516651            -28.923        0.439494886             60.638        0.440710934             60.714        0.895269576            -29.036
               526       0.894781138            -28.973        0.440369083             60.524        0.441079446             60.676        0.894884159            -29.103
               527       0.894332954            -28.997        0.440757016             60.565        0.442078337             60.604        0.894847922             -29.16
               528       0.894356116            -29.089        0.441631946             60.494        0.442751948             60.563        0.894047269            -29.169
               529       0.894403627            -29.053        0.442316919             60.474        0.443081433             60.558        0.893271652            -29.208
               530       0.894013838             -29.15        0.442939327             60.403        0.443909298             60.473        0.892882356            -29.265
               531          0.892997            -29.241        0.443659719             60.349         0.44468246             60.405        0.893099816            -29.309
               532        0.89275619            -29.227        0.444255558             60.316        0.445279673             60.385        0.892858978            -29.355
               533       0.892072189            -29.299        0.445194715             60.203        0.445451063             60.352        0.892380353            -29.441
               534       0.891866805            -29.346        0.445964203             60.202        0.446272371              60.33        0.892072189            -29.456
               535       0.891818486            -29.374        0.446505148             60.186        0.447276901             60.259        0.892023859            -29.506
               536       0.891693449            -29.416        0.446905373             60.119         0.44798717             60.193        0.891385523             -29.58
               537        0.89059895             -29.48        0.447901151             60.064        0.448675317             60.119        0.891522234            -29.634
               538       0.891222073             -29.52        0.448524255             59.987        0.449351229             60.142        0.890401605            -29.668
               539       0.890572817            -29.577        0.449023877             59.958        0.449851772             60.049        0.890572817            -29.727
               540        0.89046041            -29.644        0.449587901             59.944        0.450779975             59.973        0.889947967            -29.768
               541       0.890493427             -29.63        0.450433537             59.884         0.45136795             59.989        0.888956927            -29.819
               542       0.889918018            -29.725         0.45138799             59.845        0.451855944             59.936        0.889098751            -29.821
               543       0.888900884            -29.755        0.451807398             59.771        0.452848922             59.886        0.889310333             -29.91
               544        0.88880831            -29.847        0.452853894             59.705         0.45327118             59.791        0.888603678            -29.958
               545       0.888671479            -29.854        0.453462358             59.653        0.454141554             59.749        0.887853359            -30.042
               546       0.888118124            -29.948        0.453806522             59.591        0.454852654             59.677        0.887709224            -30.064
               547       0.887666847            -29.977        0.454673874             59.535        0.455354885             59.654        0.887360311            -30.133
               548       0.887246058            -30.014        0.455243841             59.523        0.456030698             59.608        0.887450378            -30.155
               549       0.887398108            -30.058        0.456476578             59.472        0.456686842             59.591        0.886887428            -30.246
               550       0.886933355            -30.173        0.456763075             59.393        0.457447215             59.501        0.886525001            -30.269
               551       0.886404576            -30.192        0.457543078              59.36        0.458017413             59.493        0.886608701            -30.318
               552       0.885308289            -30.183        0.457977909             59.334        0.459033658             59.474        0.886430173            -30.337
               553       0.885774241            -30.333        0.458852441              59.23         0.45959262             59.403        0.885468358            -30.369
               554       0.885827772            -30.287        0.459197264             59.215        0.459990955             59.376         0.88501227            -30.465
               555       0.885445778            -30.407        0.459845532             59.159        0.460905586             59.265        0.884528787            -30.516
               556       0.884980966             -30.41        0.460663635             59.089         0.46145986             59.229        0.884369854            -30.617
               557       0.884399128            -30.447        0.461475135             59.108        0.462166333             59.215        0.884399128            -30.598
               558       0.883958564            -30.515        0.461723424             59.006        0.463000977              59.16         0.88355158            -30.615
               559       0.883870736            -30.536        0.462795103             58.977        0.463595012             59.105        0.883057036            -30.709
               560       0.883349713            -30.611        0.463375078             58.894          0.4643898             59.084        0.883044667             -30.76
               561       0.883474902            -30.613        0.464295224             58.914        0.464723053             59.031        0.882153611             -30.79
               562       0.882605091            -30.673        0.464960895             58.859        0.465282189              58.98        0.882605091            -30.838
               563       0.881861648             -30.79        0.465265077             58.816        0.466176584             58.865        0.882572631             -30.88
               564       0.881735903            -30.757        0.465841875              58.75        0.466861999              58.88        0.881735903            -30.923
               565       0.881766769            -30.844        0.466770851             58.712        0.467469981             58.804        0.881360794            -31.004
               566       0.881527967            -30.917        0.467720166              58.61        0.468043367             58.718        0.880513654            -31.092
               567       0.880900819            -30.981        0.468195261             58.556        0.468626683             58.686        0.880495242            -31.093
               568       0.880521978            -31.001         0.46885678             58.555        0.469450927             58.685        0.880521978             -31.13
               569       0.880305469            -31.046        0.469335495             58.477        0.470200839              58.62         0.87979887            -31.203
               570       0.879878134            -31.096        0.470730703             58.424        0.470405646             58.547        0.879574288            -31.293
               571       0.878617805            -31.117        0.470977326             58.396        0.471140024             58.525        0.879326173            -31.315
               572       0.879385909            -31.157        0.471334796             58.373        0.472040761             58.454        0.878475193            -31.345
               573       0.878820138            -31.225         0.47217175             58.263        0.472498028             58.419        0.878415519            -31.427
               574       0.878270871            -31.304         0.47290998             58.269        0.473563781             58.355        0.878371991            -31.445
               575       0.878167031            -31.364         0.47350779             58.182        0.473998676             58.275        0.877560624            -31.511
               576       0.877352263            -31.379        0.473940695              58.12         0.47481453             58.302        0.877756392            -31.543
               577       0.877171324            -31.405        0.474989955             58.139         0.47526346             58.213        0.877171324            -31.581
               578       0.876775701            -31.435        0.475486844             58.087        0.476089392               58.2        0.877078581             -31.65
               579       0.876388656            -31.494        0.475879227             58.028        0.476756637             58.134        0.876590475            -31.685
               580       0.876465485            -31.595        0.476798432              57.96        0.477182841             58.051        0.875860253            -31.741
               581        0.87587761            -31.596        0.477302188             57.942        0.477907036             58.022        0.875575145            -31.762
               582       0.875648321             -31.66        0.477946977             57.875        0.478497551             57.977        0.875043654            -31.803
               583       0.874968773            -31.731         0.47884235             57.849        0.479338766             57.893        0.875069513            -31.873
               584       0.874867958            -31.748        0.478897435             57.818        0.480056673             57.883        0.874867958            -31.928
               585       0.873756427            -31.803        0.480109593             57.727        0.480662658             57.805        0.874863672            -32.031
               586       0.873737115            -31.833        0.480762721             57.674        0.480928799             57.812        0.874542228            -32.055
               587       0.873416126            -31.932        0.481472189             57.641        0.481749426             57.707        0.873818441            -32.064
               588       0.872770382            -31.942        0.482169794             57.518        0.482114285             57.667        0.872971368            -32.177
               589       0.873039569            -31.971        0.482707368             57.539        0.482818528             57.678        0.872939062            -32.156
               590       0.871983302            -32.086        0.483401694             57.478        0.483513015             57.541          0.8730883             -32.24
               591       0.872501417            -32.125        0.483967436              57.44        0.484301864             57.552        0.872300539            -32.271
               592       0.871590303            -32.098        0.484409208             57.438        0.485134756             57.486        0.871991777            -32.313
               593       0.871515361            -32.207        0.485428249             57.347        0.485595939             57.434        0.871615704            -32.383
               594       0.871424492            -32.233        0.485824891             57.292        0.486104635             57.386        0.871123565            -32.453
               595       0.870562589            -32.271        0.486071324             57.233         0.48685541             57.379        0.870061597            -32.473
               596       0.870061597            -32.355        0.486967525             57.179        0.487472365             57.307        0.870462367            -32.496
               597       0.870295034            -32.377        0.487883921              57.14        0.488052459             57.275        0.869994497            -32.571
               598       0.869160538            -32.413        0.488596104             57.086        0.488483614             57.178         0.86976114            -32.649
               599       0.869298561             -32.49        0.488786228             57.019        0.489518333              57.14        0.869398649             -32.69
               600       0.868665792            -32.494        0.489725501              57.07        0.490007491              57.16        0.869566338            -32.661
               601       0.869044999            -32.588        0.490390744             56.945         0.49061663             57.096        0.868544881            -32.757
               602       0.867960577            -32.622           0.491134             56.927          0.4914168             57.015        0.868660353            -32.823
               603       0.867760745            -32.625        0.491529966             56.917        0.491869621             57.009        0.867960577            -32.805
               604       0.867415749             -32.72        0.492183786             56.831        0.492637313             56.948        0.867815301            -32.866
               605       0.867094517            -32.745        0.492624991             56.786         0.49347646              56.89        0.867493921            -32.962
               606       0.866564725            -32.817        0.493231729             56.748        0.494141133             56.823        0.866963885            -32.957
               607       0.866122208            -32.838        0.494059409              56.68        0.494628543             56.773         0.86672071            -33.058
               608       0.866462956             -32.91        0.494823139             56.647        0.494994074             56.726        0.865864631            -33.081
               609       0.865764807            -32.926        0.495050984             56.557        0.495792472             56.692        0.865665138            -33.152
               610       0.865237082            -33.031        0.496061045             56.543        0.496575312             56.592        0.865436333             -33.19
               611       0.865007216            -32.998        0.496557711             56.557        0.496900839             56.616         0.86530603            -33.197
               612       0.864072135            -33.049        0.497221615             56.472         0.49762249             56.567        0.864967919            -33.278
