!{251R15S9R1}
!Johanson Technology Inc.
!www.johansontechnology.com
!Test Board Conditions:
!Substrate Type  RO4350B
!Substrate Thickness        20 mil
!Substrate Dk      3.66
!TL Type: GCPW 
!TL Trace Width  34 mil
!TL Gap  10 mil
!Electrode orientation      Horizontal
!DUT TOPOLOGY	SERIES
!Mounting Pad LxW         26x52 mil
! Created Thu Mar 12 16:45:26 2020
# mhz S ma R 50
! 2 Port Network Data from SP1.SP block
! freq  magS11  angS11  magS21  angS21  magS12  angS12  magS22  angS22  
!     
               500       0.339899089            -76.342        0.937669954             13.498        0.938642037             13.467        0.338883169            -76.318
               501       0.339195436             -76.37        0.938101866             13.427        0.938642037             13.446         0.33857119            -76.341
               502       0.338649158            -76.413        0.938101866             13.367        0.938642037             13.398         0.33775361            -76.496
               503       0.338220557            -76.489        0.938858192             13.284        0.939615127             13.353        0.337520379            -76.493
               504       0.337287309            -76.576        0.938858192             13.259        0.940156169             13.252        0.336938005            -76.523
               505       0.336589063            -76.529        0.939074397             13.211        0.939506956             13.259        0.335969614            -76.575
               506       0.335969614            -76.667        0.939506956             13.159        0.940156169             13.183        0.335505775            -76.605
               507       0.335583037            -76.819        0.940480943             13.069        0.941022484             13.087        0.334926877            -76.715
               508       0.335042577            -76.736        0.940264415             13.088        0.941239187             13.098        0.334387474            -76.736
               509       0.333848939            -76.756        0.939615127             13.024        0.940372673             13.063        0.333810505            -76.751
               510       0.333618404            -76.845        0.939615127             12.969        0.941347557             13.001        0.332659553            -76.815
               511       0.332851103            -76.913        0.940156169             12.898        0.941564336             12.928        0.332123801             -76.87
               512       0.332276785            -76.996        0.941130829              12.82        0.941781164             12.843         0.33162709            -76.977
               513       0.331779845            -77.047        0.940914151             12.788         0.94221497             12.812        0.330978665            -77.025
               514       0.330940562            -77.055        0.941130829             12.787        0.941130829             12.766        0.330750112            -77.024
               515       0.330141409            -77.155         0.94221497             12.698        0.941998042             12.706        0.329761538              -77.1
               516       0.329723575            -77.108         0.94145594             12.664        0.941889597             12.709        0.329078872            -77.115
               517       0.329078872            -77.289        0.942431948             12.602         0.94221497             12.587        0.328586715            -77.245
               518       0.328548887             -77.28        0.941998042             12.581        0.943191764             12.609        0.327906481            -77.264
               519       0.327755509            -77.335        0.942540456             12.511        0.943517588             12.533        0.327830986            -77.257
               520       0.327076996            -77.443        0.942974611              12.42        0.943191764             12.434        0.326738266            -77.395
               521       0.326813509            -77.419        0.943083182             12.384        0.944169572             12.438         0.32621205            -77.397
               522         0.3260994            -77.457        0.943408967             12.366        0.943517588             12.383        0.325499256            -77.476
               523       0.325199598            -77.572        0.942974611               12.3           0.944387             12.311         0.32467586            -77.517
               524       0.324526376            -77.596        0.943083182             12.217        0.944060876              12.24        0.323966422            -77.568
               525       0.323929127            -77.638        0.943734866             12.189        0.944060876               12.2         0.32318411            -77.647
               526       0.323593657            -77.789        0.943952194             12.129        0.944713236             12.121        0.322737923            -77.664
               527       0.323332976            -77.815        0.944495733             12.088        0.945366046             12.113         0.32232946            -77.732
               528        0.32232946            -77.775           0.944387             12.055        0.945257213             12.049        0.321810344             -77.78
               529       0.321625149            -77.855        0.944169572             11.999        0.945148392             12.011        0.320590021             -77.87
               530        0.32099628            -77.933        0.945257213             11.953        0.946019307             11.983        0.320737692            -77.868
               531       0.320147415            -77.976        0.945257213             11.902        0.945366046             11.885        0.319926342            -77.934
               532       0.320184276            -78.007        0.945910399             11.892        0.945474892             11.874        0.319447872            -78.003
               533       0.319337558            -78.058           0.944387              11.81        0.946346107              11.84        0.318419752            -77.981
               534       0.318676472            -78.161        0.945474892             11.726         0.94667302             11.766        0.318089988            -78.082
               535       0.318053369            -78.179        0.945910399             11.692        0.946564037             11.715        0.317431484            -78.172
               536       0.317175768             -78.21        0.946237161             11.626        0.946455066             11.691        0.316920257            -78.186
               537       0.316883773            -78.199        0.946237161             11.638        0.946891025             11.663        0.316082171            -78.232
               538       0.316446284            -78.338        0.946346107              11.53        0.947981801             11.565        0.315536788             -78.26
               539       0.315863905            -78.389        0.947654436             11.531        0.947763545             11.534        0.314992345            -78.338
               540       0.315427824            -78.423        0.947654436             11.459        0.947327185             11.444        0.314340254            -78.355
               541       0.314340254             -78.45        0.948200107             11.412        0.947763545             11.418        0.313942419            -78.488
               542       0.314267883            -78.508        0.947218126             11.368         0.94754534             11.382        0.313292501            -78.483
               543       0.313689513            -78.525        0.947763545             11.312        0.947981801             11.352        0.312679926             -78.53
               544       0.312823953            -78.631        0.946891025             11.271        0.947981801             11.298        0.311853053            -78.561
               545       0.312320147            -78.627        0.947872667             11.199        0.949073834             11.243        0.311673588            -78.642
               546       0.311888958            -78.684        0.947763545             11.223        0.949292391             11.184        0.311099992            -78.643
               547       0.311243292            -78.721        0.947981801             11.131        0.949292391             11.159        0.310098739            -78.723
               548       0.310455959            -78.813        0.948418463             11.087        0.949729657             11.078         0.30974193            -78.765
               549       0.310098739            -78.901         0.94863687             11.025        0.949620322             10.995        0.308851703            -78.842
               550       0.309492408            -78.887        0.949292391             10.961        0.949620322             11.004        0.308212324            -78.904
               551       0.308709504            -78.943        0.948964574             10.978        0.949292391             10.956         0.30807042             -78.88
               552       0.308283301            -79.034        0.949839005             10.856        0.950057739             10.923         0.30753886            -78.967
               553       0.307609681            -79.027        0.949948366             10.839        0.949620322             10.858        0.307008217            -79.038
               554        0.30753886            -79.139        0.950167125              10.77        0.950933178             10.813        0.306549068              -79.1
               555       0.306302118            -79.125        0.950167125             10.737        0.950495358             10.762        0.306020133            -79.105
               556       0.306161093            -79.167        0.950167125             10.712        0.950604794             10.691        0.305316307            -79.199
               557       0.305456942            -79.274        0.950604794             10.621        0.951042664             10.679        0.304684247            -79.241
               558       0.304894788            -79.322        0.950604794             10.626        0.951590286             10.606        0.304088503             -79.27
               559       0.304333668            -79.333        0.950385934             10.577        0.951590286             10.535        0.303668679            -79.305
               560        0.30363372            -79.405        0.949948366              10.48        0.951809423             10.529        0.302656496             -79.36
               561       0.303528866            -79.477        0.950714242             10.447        0.952138223             10.496        0.302482323            -79.415
               562       0.302830769            -79.497        0.950276523             10.425        0.952357486             10.456         0.30182138            -79.388
               563       0.302203855            -79.533        0.951261675             10.374        0.951809423             10.394        0.301474095            -79.463
               564       0.301647687            -79.622        0.952138223             10.289        0.952686476             10.322        0.300953917            -79.586
               565       0.301369987            -79.673        0.951809423             10.281          0.9525768             10.293          0.3000544             -79.58
               566       0.300711474            -79.678        0.952138223             10.218        0.952686476             10.234        0.299709149            -79.615
               567       0.299881725            -79.712         0.95191901             10.202        0.952138223             10.225        0.299329831            -79.641
               568       0.299571159            -79.773        0.952138223             10.095        0.953015579             10.156        0.298847757            -79.807
               569       0.298778952            -79.778        0.952138223             10.095        0.952905865             10.107        0.298297765            -79.779
               570       0.298160426            -79.805        0.952357486              10.04        0.953344795             10.091        0.297714509            -79.834
               571       0.297920234            -79.888        0.953564337                 10        0.953674126             10.027        0.297269259            -79.862
               572       0.297029784            -79.926        0.952796164              9.988        0.953235044              9.982        0.296688013            -79.845
               573       0.296653857            -79.956        0.952138223              9.943        0.953564337              9.932        0.295835304            -79.943
               574       0.296073815            -80.045        0.953015579              9.838        0.953893743              9.905        0.295256862            -80.049
               575       0.295290857            -80.066        0.953125305              9.865        0.953235044               9.86        0.294951086            -79.991
               576       0.295188885            -80.126        0.953674126              9.743        0.954443006              9.777        0.294340484            -80.096
               577       0.294442163            -80.179        0.953893743              9.746          0.9546628              9.749         0.29390028            -80.152
               578       0.294001807            -80.278        0.953783928              9.702        0.954223263              9.672        0.292886936            -80.227
               579       0.293359394             -80.29        0.954443006              9.606        0.954552897              9.668        0.292684686            -80.252
               580       0.293055583             -80.26        0.954552897              9.577          0.9546628              9.624        0.292213314            -80.337
               581       0.292246958            -80.374        0.954333128                9.5        0.954882645              9.604        0.291507679            -80.281
               582       0.291809885            -80.371        0.954443006              9.506        0.955212507              9.522        0.291272846            -80.392
               583       0.291641954             -80.45         0.95510254              9.477        0.955542482              9.485        0.290602938            -80.423
               584       0.291004698            -80.436        0.954882645              9.478        0.955212507              9.451        0.290301981            -80.413
               585       0.290201732            -80.522        0.954552897              9.352        0.955652499              9.377        0.289567622            -80.529
               586       0.289867817            -80.539        0.954772716              9.333        0.956643225              9.332         0.28920114            -80.566
               587       0.288968165            -80.599          0.9546628              9.288        0.955322486              9.296        0.288303557            -80.634
               588       0.288934898            -80.664        0.955322486              9.209        0.956643225              9.301        0.288170818            -80.636
               589       0.288469565            -80.626        0.955762529              9.196        0.956092695              9.251         0.28744185            -80.688
               590       0.288038141            -80.736        0.955872572               9.13        0.956422975              9.235        0.287210293            -80.719
               591       0.287408759            -80.799        0.955982627              9.155        0.956202776               9.13        0.286483755            -80.723
               592       0.286846794            -80.843        0.956973695              9.073        0.956312869              9.087        0.285989442            -80.882
               593       0.286154118             -80.87        0.956643225              8.988        0.956973695              9.067        0.285528853            -80.911
               594       0.285759054            -80.924        0.956863525              9.023        0.956753369              9.014        0.285200314            -80.886
               595       0.285331684            -80.997        0.957083877               8.89        0.957414499              8.959        0.284839359            -81.012
               596       0.284708216            -81.052        0.956312869              8.921        0.956753369               8.99        0.284118818             -80.89
               597       0.284380622            -81.074        0.957524732              8.886        0.957524732              8.889        0.283857256            -81.009
               598       0.284020704            -81.021        0.956643225              8.817        0.957414499              8.858        0.283008839            -81.087
               599       0.283595934            -81.096        0.956863525              8.785        0.957855506              8.793        0.282357937            -81.068
               600       0.282748298            -81.194        0.957634977               8.72        0.957524732              8.733        0.281935653            -81.159
               601       0.282260431             -81.27        0.957634977              8.657        0.957304279              8.714        0.281416787              -81.2
               602       0.281903196            -81.313        0.958076086              8.624        0.958186395              8.689        0.281125344             -81.19
               603       0.281708532            -81.334        0.958296716                8.6        0.958186395               8.65        0.280704904            -81.284
               604       0.280801873            -81.327        0.957965789              8.594        0.958627757               8.57        0.280317364            -81.326
               605       0.280156046             -81.36        0.958627757              8.533        0.958407051              8.547        0.280123794            -81.405
               606       0.279994822            -81.454        0.958296716              8.469        0.958958913              8.529        0.279415182            -81.384
               607       0.279447353            -81.444        0.958186395              8.461        0.958958913              8.427        0.278483841            -81.389
               608       0.278708363            -81.476        0.958407051              8.338        0.958296716              8.463        0.277971327            -81.508
               609       0.278515904            -81.518        0.959290183              8.411        0.959953066              8.424        0.277907329            -81.449
               610       0.278099367            -81.603        0.959179747               8.33        0.959069323              8.381        0.277140502            -81.585
               611       0.277204324            -81.625        0.959179747              8.288        0.959400632              8.292        0.276726022            -81.662
               612       0.276662311            -81.648        0.958848515              8.226        0.959732054              8.227        0.276375792             -81.69
