!{251R15S3R3}
!Johanson Technology Inc.
!www.johansontechnology.com
!Test Board Conditions:
!Substrate Type  RO4350B
!Substrate Thickness        20 mil
!Substrate Dk      3.66
!TL Type: GCPW 
!TL Trace Width  34 mil
!TL Gap  10 mil
!Electrode orientation      Horizontal
!DUT TOPOLOGY	SERIES
!Mounting Pad LxW         26x52 mil
! Created Thu Mar 12 16:40:11 2020
# mhz S ma R 50
! 2 Port Network Data from SP1.SP block
! freq  magS11  angS11  magS21  angS21  magS12  angS12  magS22  angS22  
!     
               500       0.718877766            -50.976        0.690327305             39.469        0.692396799             39.484        0.716316659            -50.794
               501       0.718054005            -51.014        0.691603382             39.408        0.692719014             39.466        0.715578212            -50.868
               502       0.716905474            -51.092        0.692248298             39.358        0.693764218             39.375        0.715503721            -50.922
               503       0.716942504            -51.169        0.693400784             39.252        0.693959824             39.338        0.714223817            -50.951
               504        0.71579466            -51.248        0.694126226             39.176        0.694845827             39.249        0.713819576            -51.066
               505       0.715177983            -51.313        0.694726933             39.119        0.695527228             39.187        0.712958311             -51.13
               506       0.714439088            -51.351        0.695288758              39.07        0.696330162             39.149         0.71222171            -51.188
               507       0.713767347            -51.394        0.696076026             39.013        0.696877874             39.066        0.711961773            -51.271
               508       0.713042027            -51.498        0.696811209             38.914        0.697613904                 39        0.710910826             -51.35
               509       0.712172136            -51.566        0.697404873             38.851        0.698690724             38.929        0.710043535            -51.416
               510       0.711613584            -51.641        0.697982011             38.812        0.699188425             38.878        0.709486653            -51.438
               511       0.710734924             -51.74        0.698646771             38.668          0.7000155             38.787        0.708937022            -51.578
               512       0.710066887            -51.779        0.699357538              38.66        0.700889026             38.703        0.708270674            -51.607
               513       0.709588478            -51.879        0.700336167             38.555        0.701385131             38.601        0.706816298            -51.728
               514       0.708670304            -51.965        0.701042317             38.469        0.702254021             38.521        0.706633519            -51.795
               515        0.70832851            -51.998        0.701592152             38.416        0.703209489             38.437        0.705804987            -51.839
               516       0.707449299            -52.112        0.702417496             38.303        0.703550572             38.371        0.705334815            -51.951
               517       0.706707438            -52.197        0.702974647             38.305        0.704027563             38.312        0.704351855            -51.976
               518       0.705776889            -52.287        0.703991528              38.15        0.705045968             38.213        0.703586395            -52.117
               519       0.705640681            -52.317         0.70409881             38.146        0.705559446             38.205        0.702560309            -52.098
               520       0.704640917            -52.401        0.704803186             38.038        0.706427925             38.119        0.702211372            -52.214
               521       0.703630183            -52.465        0.705902079             38.015        0.706877993             38.056        0.701931061            -52.253
               522       0.703262878            -52.522        0.706753054             37.937         0.70724143             38.007        0.700757402            -52.328
               523       0.702128724            -52.593        0.707239877             37.868        0.708054586             37.964        0.700433227            -52.406
               524       0.701831285            -52.683        0.707836125             37.794        0.708814713             37.847        0.699169901            -52.487
               525       0.700789127            -52.741        0.708414359             37.759        0.709475422             37.793        0.698694549            -52.561
               526        0.70038795            -52.824        0.709150912             37.632         0.71029485             37.665        0.698294571            -52.665
               527       0.699648454            -52.948        0.709953457              37.56        0.711016826             37.615        0.697236122            -52.674
               528       0.698868294            -52.989        0.710551135             37.474        0.711533476             37.561        0.696859681            -52.791
               529       0.698197939            -53.081        0.710932818             37.455        0.712161616             37.472        0.695550332            -52.861
               530       0.697600212            -53.114        0.711961655             37.374        0.712699745             37.439        0.694634907            -52.928
               531       0.696791762            -53.164        0.712201702             37.333        0.713761317             37.371        0.694149487            -52.983
               532       0.696124784            -53.229        0.713488694             37.271        0.714146144             37.285        0.693405203            -53.052
               533       0.695479527            -53.304        0.713895016              37.17        0.714717392             37.247        0.693081569            -53.124
               534       0.694207094            -53.393        0.715219007             37.095        0.715136669             37.188        0.692690206             -53.19
               535       0.693809739            -53.468        0.715221222             37.009        0.716292481             37.088        0.691576762            -53.298
               536       0.693288129            -53.568         0.71608366             36.977        0.716578484             37.005        0.690738661            -53.323
               537       0.692318376            -53.574        0.716730455             36.887        0.717390893             36.986        0.689851891            -53.457
               538       0.691969885            -53.695        0.717029781             36.806        0.718351816             36.867        0.689584028             -53.47
               539       0.691016711            -53.792        0.717940661             36.721        0.718767696             36.768        0.688872028            -53.598
               540       0.690468109            -53.828        0.718693346             36.688        0.719024393             36.761         0.68808743            -53.622
               541       0.689640017            -53.893        0.718989344             36.599        0.720066247             36.726        0.687183074            -53.699
               542       0.689100705            -53.947        0.720083226             36.581        0.720497859               36.6        0.686329544            -53.767
               543       0.688546366            -54.045        0.720498682             36.511        0.721079569              36.56         0.68530388            -53.803
               544       0.687598537            -54.112        0.721497688               36.4        0.721913135             36.445         0.68538555            -53.915
               545       0.687095876            -54.147        0.721966991             36.345        0.722299546             36.492         0.68386022            -53.943
               546       0.686408578            -54.269        0.722574618             36.264        0.723157179             36.339        0.683648243            -54.019
               547       0.685566252            -54.331        0.723018534             36.213        0.723684766             36.252        0.682809304             -54.15
               548       0.684596182            -54.384        0.723160127             36.139        0.724660305             36.243        0.682314299            -54.208
               549       0.684100141            -54.445        0.724301993             36.096        0.724969407             36.134        0.681898414            -54.262
               550        0.68331872            -54.522         0.72489202             36.015        0.725727063             36.089        0.681197929            -54.316
               551       0.682687702            -54.567        0.725390861             35.944        0.726477352             36.037        0.680255528            -54.401
               552       0.681869058            -54.663        0.726274814             35.879        0.727278893             35.944        0.679752766            -54.435
               553       0.681427051             -54.73        0.727142234             35.787        0.727644699             35.867         0.67876489            -54.533
               554       0.680937646            -54.798         0.72745703             35.687        0.728211185             35.807        0.677730991            -54.649
               555       0.679864371            -54.924        0.727817146             35.648        0.729243023             35.716        0.677520254            -54.659
               556       0.679254895            -54.932         0.72900881             35.597        0.729344608              35.69        0.676757031            -54.735
               557        0.67857146            -54.998        0.729030319             35.586         0.73037448             35.615          0.6762318            -54.755
               558       0.678228058            -55.077        0.730172971             35.462        0.730509306             35.568        0.675267352             -54.83
               559       0.676992755            -55.164         0.73085971              35.37        0.731196361             35.498         0.67458087            -54.962
               560       0.676413469            -55.217        0.731580712             35.343        0.731749184             35.438         0.67384847            -54.986
               561       0.675829995            -55.283        0.731791672               35.3        0.732634664             35.326        0.673422252            -55.061
               562       0.675208195            -55.335          0.7319606             35.226        0.733563484             35.296        0.672647767            -55.112
               563       0.674598643            -55.429        0.732901252             35.136        0.733998992             35.191        0.671808452             -55.21
               564        0.67401147            -55.504        0.733191274             35.067        0.734712261             35.153         0.67106917            -55.248
               565       0.673064728            -55.609        0.733933703             34.965        0.735202257             35.044        0.670975761            -55.363
               566       0.672784652            -55.644        0.734727128             34.892        0.735404148             35.009        0.670079105            -55.431
               567       0.671463649            -55.668        0.735652146             34.856        0.735991004             34.999        0.669456721            -55.501
               568       0.671160954            -55.783        0.736506668             34.779        0.736506668             34.852        0.668846845            -55.554
               569       0.670640384            -55.804        0.736783178             34.722        0.737377195             34.849        0.668174199             -55.58
               570       0.669969858            -55.914         0.73748852             34.616        0.738083105             34.746         0.66727563            -55.672
               571       0.669065116            -55.965        0.737850519             34.565        0.739125842             34.651        0.666681474            -55.765
               572       0.668612035            -55.998        0.738455262             34.547        0.738795412             34.664         0.66638343            -55.789
               573       0.667995988            -56.081        0.738879903             34.485        0.740071797             34.511        0.665079948            -55.891
               574       0.667222092            -56.163        0.739895554             34.404        0.740236367             34.463        0.664615426            -55.953
               575       0.666027663            -56.214        0.740444084             34.316        0.741382393             34.402        0.664419344            -56.035
               576       0.665831399            -56.296        0.740907979             34.274        0.741419957             34.382        0.663306528            -56.054
               577       0.665092741            -56.338        0.741621322             34.183        0.742475637             34.289        0.663104855            -56.126
               578       0.664575747            -56.419        0.742411154             34.116        0.742411154             34.225        0.661827011            -56.236
               579       0.663916173             -56.48         0.74278521             34.063        0.743469656             34.146        0.661550875            -56.263
               580       0.663302471            -56.537        0.743466861             34.022        0.744151935             34.093         0.66086327            -56.279
               581       0.662783319            -56.601        0.743826367             33.952        0.744340362             34.028        0.659966011            -56.403
               582       0.661785369            -56.662        0.744761403             33.831        0.745361852             33.979         0.65973141            -56.459
               583       0.661347093            -56.705        0.745297131             33.815        0.745726282             33.879        0.658611712            -56.554
               584       0.660356751            -56.848        0.745810721             33.747        0.746154259              33.81        0.658307226             -56.59
               585       0.659761259            -56.854         0.74685589             33.666         0.74676991              33.76        0.658092302            -56.641
               586       0.659062057            -56.923         0.74726787             33.587        0.747181842             33.711        0.657092196            -56.753
               587       0.658380095            -57.024        0.747526671             33.463        0.748387788             33.634        0.656412273            -56.824
               588       0.657996028            -57.079        0.748209593             33.458        0.748640421             33.526        0.655878315             -56.87
               589       0.657314672            -57.104        0.748812915             33.403         0.74941663             33.484        0.654746712            -56.945
               590       0.656740305            -57.194        0.749279189             33.329         0.74988328             33.441        0.654325236            -56.972
               591        0.65621935            -57.231        0.749719889             33.245        0.750583533             33.352        0.653806196            -57.084
               592       0.655584935            -57.276        0.750548852             33.227        0.750721692             33.314        0.653023733             -57.12
               593        0.65476568            -57.324        0.751338957             33.149        0.751598505             33.281        0.652357872            -57.154
               594       0.654081202            -57.448        0.751158641             33.064        0.752543602             33.163        0.651675911            -57.259
               595       0.653464968            -57.475        0.752094322             33.038        0.753047394             33.141        0.650762187            -57.266
               596       0.652990168             -57.57        0.752586879             32.925        0.753627334             33.053        0.649989951            -57.359
               597        0.65227503            -57.616        0.753235453             32.892         0.75375595             33.001        0.650325455            -57.401
               598       0.651396288             -57.68        0.753867949             32.824        0.754736372             32.922        0.649524115            -57.468
               599       0.651113416            -57.729        0.754321774             32.753         0.75492993             32.852        0.648345714            -57.589
               600       0.650475195             -57.76        0.755232621              32.71        0.755232621             32.797        0.648157783            -57.629
               601       0.649894735            -57.868         0.75560186             32.648        0.756123992             32.705        0.647057713             -57.67
               602       0.649204439            -57.907        0.756452184              32.58        0.756365099             32.641        0.646593718            -57.765
               603       0.648659857            -57.991        0.756426999             32.534        0.757124015             32.613        0.645679535            -57.785
               604        0.64787383            -58.073        0.757252014             32.404        0.757600822             32.542        0.645268459            -57.896
               605       0.647111298            -58.112         0.75758084             32.379        0.758278919              32.51         0.64480587            -57.926
               606       0.646643802            -58.132        0.757905605             32.346         0.75912819             32.473        0.643969234            -57.949
               607         0.6460678            -58.223        0.758713998             32.308        0.759150874             32.324        0.643321546            -58.072
               608       0.645483543            -58.269        0.759250652             32.243         0.75995027             32.298        0.642665777            -58.085
               609       0.644596809             -58.36        0.759867992             32.146        0.760568178             32.212        0.642300339            -58.181
               610       0.643949059            -58.455        0.760153873             32.091        0.761467746             32.117        0.641285636            -58.234
               611       0.643272318            -58.465        0.760842673             32.018         0.76171913             32.118        0.641275817            -58.293
               612       0.642827552            -58.561        0.761893876             32.001        0.761718464             32.062        0.639874028            -58.288
