!{201R07S0R5}
!Johanson Technology Inc.
!www.johansontechnology.com
!Test Board Conditions:
!Substrate Type  RO4350B
!Substrate Thickness        10 mil
!Substrate Dk      3.66
!TL Type: GCPW 
!TL Trace Width  21 mil
!TL Gap  20 mil
!Electrode orientation      Horizontal
!DUT TOPOLOGY	SERIES
!Mounting Pad LxW         16x21 mil
!Agilent Technologies,N5230A,MY45001966,A.07.50.67
!Agilent N5230A: A.07.50.67
! Created Mon Mar  9 16:15:44 2020
# mhz S ma R 50
! 2 Port Network Data from SP1.SP block
! freq  magS11  angS11  magS21  angS21  magS12  angS12  magS22  angS22  
!     
               500       0.989437643            -11.859         0.13728985             78.289        0.137796577             78.468        0.990235357            -11.762
               501       0.989337749            -11.858        0.137687521             78.287        0.138004923              78.44        0.990249382            -11.784
               502       0.988553202            -11.891        0.137816129             78.275        0.138165638             78.443        0.990261848            -11.827
               503       0.988752522            -11.923         0.13808217              78.22        0.138496119             78.385        0.990233476            -11.846
               504       0.989622001             -11.93        0.138458411              78.25        0.138697726             78.389        0.989963863            -11.858
               505       0.988370315            -11.945        0.138713808             78.217        0.138985564             78.311        0.990192638            -11.894
               506       0.989562422            -11.976        0.138945087             78.157        0.139425816             78.318        0.989904264            -11.912
               507       0.988866308            -11.986        0.139103347             78.181        0.139697161             78.302        0.990005438            -11.915
               508       0.988095713             -11.99        0.139299326             78.174        0.139893976              78.32        0.990031505            -11.937
               509       0.989427161            -12.057        0.139776393             78.105        0.140211562             78.266        0.989768956            -11.963
               510       0.989026294            -12.091        0.140057973             78.062        0.140461673             78.199        0.989937641             -11.96
               511       0.988664015            -12.098        0.140297111             78.018        0.140685302             78.189        0.989916874            -12.047
               512       0.988695435             -12.14        0.140560253             78.053          0.1409654             78.153        0.989834368            -12.046
               513       0.989072749            -12.173        0.140824506             77.969        0.141214156             78.153        0.989756212            -12.061
               514       0.988856819            -12.156        0.141183327             77.964        0.141411071             78.102        0.989768009            -12.143
               515        0.98889019            -12.191        0.141383285             77.984        0.141790805             78.083        0.989687463            -12.104
               516       0.988687875            -12.221        0.141761796             77.908        0.141957783             78.069        0.989712848            -12.156
               517       0.988542936            -12.224        0.141871623             77.938        0.142296932             77.993        0.989681693             -12.18
               518       0.988624349            -12.282        0.142030398             77.903        0.142669554             78.021        0.989535325            -12.176
               519       0.987607727            -12.301         0.14240803             77.824        0.142950105             77.949        0.989656494            -12.231
               520       0.987989576            -12.329        0.142594365             77.815        0.143038307             77.969        0.989583311            -12.269
               521       0.987534141            -12.333        0.142840749             77.869         0.14335146             77.902        0.989582756            -12.239
               522       0.988343258            -12.403        0.143204875             77.817          0.1436838             77.858        0.989481785            -12.247
               523       0.988642691             -12.36        0.143462819             77.746        0.144008909             77.944        0.989325857            -12.309
               524       0.987852814            -12.315        0.143761383             77.781        0.144175757             77.931        0.989446329            -12.307
               525       0.988326254            -12.389        0.144045711             77.756        0.144394394             77.885        0.989350852            -12.325
               526       0.986930741            -12.465        0.144090941             77.676         0.14462277             77.792         0.98943365            -12.354
               527       0.987766581            -12.473        0.144645301             77.704        0.144761918             77.795        0.989359957            -12.362
               528       0.987046361            -12.471        0.144806332             77.681        0.145156856             77.823        0.989321738            -12.385
               529       0.987465759            -12.494        0.145084843             77.661        0.145369081             77.745        0.989286414            -12.431
               530       0.988246548            -12.542         0.14528317             77.631        0.145701931             77.664        0.989157176            -12.492
               531       0.988808631            -12.612         0.14565059             77.587        0.145986349             77.683        0.988922478            -12.438
               532       0.987031727            -12.575        0.145824707             77.604        0.146059938             77.691        0.989193179            -12.467
               533       0.987783449            -12.598        0.146019798             77.583        0.146558747             77.685        0.989035191            -12.499
               534       0.987992877            -12.631        0.146353736             77.486        0.146877007             77.597         0.98901713            -12.573
               535       0.988213081            -12.641        0.146588735             77.493        0.147112846             77.624        0.988895951            -12.568
               536       0.988324908            -12.661        0.146943284             77.433        0.147417737             77.576        0.988893997            -12.587
               537       0.986906074            -12.679         0.14713833             77.473        0.147613413              77.59        0.988953386              -12.6
               538       0.987757458            -12.689        0.147468858             77.423        0.147808809             77.531        0.988895311            -12.657
               539        0.98720888            -12.703        0.147794766             77.385        0.147930952             77.548        0.988915203            -12.658
               540       0.987471893            -12.776        0.148106713             77.371        0.148362705             77.466        0.988837078            -12.678
               541       0.987389246            -12.727        0.148299058             77.427        0.148777889              77.49        0.988754317            -12.665
               542       0.988052026            -12.781        0.148415689             77.313        0.149066417              77.49        0.988507146            -12.755
               543       0.987415279            -12.839        0.148747557             77.334        0.149245018             77.434        0.988666555             -12.71
               544       0.987008691            -12.818        0.149063384             77.281        0.149338222             77.417        0.988714667            -12.759
               545       0.986727483            -12.822        0.149261302             77.238         0.14976048             77.394        0.988660594            -12.806
               546       0.987663706            -12.864        0.149488951             77.258        0.150144385             77.349         0.98845999            -12.827
               547       0.987693544            -12.905        0.149838085             77.198        0.150356503             77.313        0.988489852             -12.83
               548       0.987372925            -12.979        0.150342308             77.184        0.150498168             77.264        0.988510335            -12.842
               549       0.987757712            -12.979        0.150470176             77.163        0.150869145             77.303        0.988326475            -12.868
               550        0.98622444             -12.96        0.150617613             77.137         0.15091269             77.263        0.988497923            -12.896
               551       0.987429378             -12.97        0.150992732             77.161        0.151340807             77.258        0.988339253              -12.9
               552       0.986324526            -13.022        0.151206281             77.085        0.151607202             77.229        0.988370632            -12.956
               553       0.986702855            -13.021         0.15135138             77.108        0.151787632             77.226        0.988294515            -12.983
               554       0.987444257            -13.061        0.151936665             77.076        0.152146718             77.168        0.988240364            -12.943
               555       0.986233318            -13.071         0.15208265             77.025        0.152327976             77.163        0.988279235            -12.985
               556       0.986513567            -13.089        0.152178417             76.993        0.152617053              77.11        0.988218688            -13.061
               557       0.986045271            -13.119        0.152579734             76.959        0.152861056             77.096        0.988204562            -13.056
               558        0.98685439            -13.177        0.152845648             76.942        0.153197994             77.031        0.988104956            -13.108
               559       0.986200397             -13.16        0.153025981             76.918        0.153290476             77.072        0.988132476            -13.082
               560       0.986331192            -13.212        0.153222579             76.874        0.153717307             77.028        0.988035997            -13.157
               561       0.987044722             -13.21          0.1536692             76.905         0.15395253              77.04        0.987954243            -13.111
               562       0.986821626            -13.285        0.153917733             76.794        0.154201521             76.957        0.987958401            -13.197
               563         0.9859147            -13.267        0.154113024             76.799        0.154450508             76.966        0.987959955            -13.184
               564       0.985975933            -13.311        0.154424539             76.777        0.154727075             76.921        0.987907572            -13.224
               565       0.985486653            -13.326        0.154650293             76.758        0.154971111             76.924        0.987872161            -13.241
               566       0.986418052            -13.296        0.155010462             76.779        0.155314145             76.916        0.987781781            -13.266
               567       0.986406509            -13.381        0.155294448             76.749        0.155527048             76.818        0.987770221            -13.271
               568        0.98598856            -13.377        0.155389574             76.722        0.155891299             76.846        0.987692773            -13.327
               569       0.985313983            -13.422        0.155605393             76.677        0.156035942             76.828        0.987699073            -13.336
               570       0.986305031            -13.434         0.15606706             76.602        0.156318813             76.767        0.987668603            -13.366
               571       0.985671358             -13.46        0.156164436              76.66        0.156632593             76.717          0.9876024            -13.399
               572       0.985286822            -13.491        0.156463368             76.632        0.156950489             76.726        0.987558142            -13.393
               573       0.985286252            -13.479         0.15671567             76.598        0.157076937             76.695        0.987557571            -13.415
               574       0.986337271            -13.539         0.15713591             76.521        0.157353151             76.704        0.987473488            -13.447
               575       0.985532125            -13.573        0.157442068             76.519        0.157587144             76.586        0.987462894            -13.522
               576       0.985378577            -13.547        0.157635169             76.525        0.157689623             76.672        0.987422721            -13.507
               577       0.985549426            -13.579        0.157916827             76.509        0.158153355             76.625        0.987366548            -13.503
               578       0.984167244            -13.629        0.158040686             76.481        0.158441486             76.518        0.987344944            -13.564
               579       0.985234693            -13.654        0.158321427              76.44        0.158722939             76.545        0.987278538            -13.581
               580       0.984547058            -13.689        0.158648686             76.405        0.158868019             76.468        0.987271224            -13.622
               581         0.9855891            -13.705        0.159127739             76.399        0.159311047             76.448        0.987178963            -13.651
               582       0.985005681            -13.695        0.159106798             76.367        0.159528667             76.496        0.987162696            -13.626
               583       0.985541841            -13.761        0.159542013             76.313         0.15967064             76.411        0.987131628            -13.688
               584        0.98428458             -13.74        0.159705797             76.312        0.159797758             76.407         0.98712166            -13.692
               585       0.984771576            -13.782        0.159858416             76.272        0.160282277             76.401        0.987041708             -13.73
               586       0.984281526             -13.81        0.160184074              76.29        0.160497892             76.367        0.987004958            -13.736
               587        0.98501612            -13.844         0.16046981             76.239        0.160765678             76.384        0.986945878             -13.75
               588        0.98498916            -13.843        0.160890889             76.226        0.160964999             76.295        0.986918866            -13.818
               589       0.985261703            -13.934        0.161065158             76.146        0.161417866             76.269        0.986851038            -13.818
               590       0.985000068            -13.906        0.161393582             76.163        0.161598104             76.285        0.986816177            -13.837
               591       0.984507545            -13.911        0.161480115             76.175        0.161889637             76.253         0.98677707            -13.852
               592       0.984593696            -13.959        0.161829261             76.086        0.162090309             76.218        0.986749809            -13.901
               593       0.984223554             -13.97        0.162234702             76.075        0.162178677             76.184        0.986719598            -13.927
               594        0.98546468            -13.965        0.162457985             76.066        0.162795001             76.188        0.986599892            -13.965
               595       0.984007651            -14.004        0.162647906             76.071        0.162779037             76.207        0.986616729            -13.938
               596       0.984837435            -14.059        0.162916304             76.054        0.163216683             76.127        0.986539658             -13.97
               597       0.984792168            -14.072        0.163227972             76.007        0.163491277             76.082        0.986494313            -14.048
               598       0.984546039            -14.095        0.163431599             75.958        0.163714079              76.06        0.986474877            -14.064
               599       0.984285307            -14.115        0.163614203             75.925        0.163991373             76.059        0.986440745            -14.049
               600       0.985203805            -14.133        0.164049942             75.963        0.164314572             76.069        0.986338716            -14.037
               601        0.98464252            -14.146         0.16435336             75.875        0.164542687             76.042        0.986344407            -14.078
               602       0.984256901            -14.218        0.164440379             75.898        0.164762536             75.969        0.986298718            -14.101
               603       0.983651708            -14.202        0.164812957             75.864        0.164945834             75.968        0.986259842            -14.173
               604       0.984288326            -14.233        0.165033585             75.836         0.16524272             75.933        0.986216658            -14.178
               605       0.983586958            -14.254        0.165105964             75.816        0.165429426             75.933        0.986194921            -14.175
               606       0.983423001            -14.234        0.165478038             75.859        0.165764055             75.915        0.986144057            -14.146
               607       0.984062176            -14.265        0.165757252             75.777        0.166043752             75.834        0.986103588             -14.24
               608       0.984344711            -14.292        0.166053186             75.795        0.166397659             75.746        0.986046082            -14.264
               609       0.984412156            -14.358        0.166351595             75.739        0.166600756             75.776        0.986000121            -14.262
               610       0.983810289            -14.376        0.166652319             75.695        0.166786679             75.776        0.985964686            -14.302
               611       0.984320777             -14.32        0.166854011             75.747        0.167084688             75.776        0.985908594            -14.317
               612       0.984365608             -14.38        0.167130777             75.677        0.167419651             75.783        0.985839992            -14.341
