!{251R15S5R1}
!Johanson Technology Inc.
!www.johansontechnology.com
!Test Board Conditions:
!Substrate Type  RO4350B
!Substrate Thickness        20 mil
!Substrate Dk      3.66
!TL Type: GCPW 
!TL Trace Width  34 mil
!TL Gap  10 mil
!Electrode orientation      Horizontal
!DUT TOPOLOGY	SERIES
!Mounting Pad LxW         26x52 mil
! Created Thu Mar 12 16:42:38 2020
# mhz S ma R 50
! 2 Port Network Data from SP1.SP block
! freq  magS11  angS11  magS21  angS21  magS12  angS12  magS22  angS22  
!     
               500       0.548403225            -63.304        0.831859537             26.597        0.833297349             26.586        0.546764111            -62.988
               501       0.547456983            -63.369        0.832338532             26.524        0.833393291             26.528        0.546323648            -63.025
               502       0.546638228              -63.4        0.832817802             26.429        0.833777171             26.488        0.545380995            -63.174
               503       0.546575298            -63.506        0.834065197             26.372        0.835314461             26.421        0.545443788            -63.198
               504       0.545318209            -63.558        0.834161228             26.316        0.835795445             26.343        0.544878912            -63.254
               505       0.544439968            -63.589        0.834737645             26.227        0.835506821             26.306        0.543437996            -63.319
               506       0.543750914            -63.715        0.835506821             26.163        0.836565596             26.214        0.543000213            -63.378
               507       0.543500565            -63.844        0.836276706             26.092        0.837625712             26.132        0.542188123            -63.476
               508        0.54275021             -63.83        0.836276706             26.069         0.83830103             26.091         0.54143958            -63.506
               509       0.540878851            -63.846        0.836372992             25.975        0.837432864             26.055        0.540878851            -63.575
               510       0.540318702             -63.93        0.836276706             25.933        0.838108027             25.984        0.539200145            -63.621
               511       0.539945592            -64.023        0.837722153              25.84        0.839170097             25.883        0.538827807            -63.724
               512       0.539324314            -64.091         0.83830103             25.791        0.839749976             25.828        0.538083903            -63.799
               513       0.538393738            -64.161        0.838880308             25.701        0.840330255              25.75        0.537588537            -63.906
               514       0.537341026            -64.245        0.839170097             25.705        0.839556638              25.67        0.536969972            -63.888
               515       0.536722745            -64.343         0.84052377             25.578        0.841104584             25.591        0.535920043            -63.997
               516       0.535920043            -64.307        0.840040065             25.538        0.840814127             25.586        0.534933751            -64.017
               517       0.535303398             -64.46        0.841201426             25.442        0.841588902             25.488        0.534564359            -64.159
               518       0.534502819            -64.481        0.841395142             25.443        0.842655384             25.459        0.533826341            -64.173
               519       0.533334895            -64.558        0.841492016             25.336        0.842849435             25.367        0.533212105            -64.207
               520       0.532905251            -64.696        0.842364391             25.245        0.843528965             25.264        0.532414654            -64.333
               521        0.53278256            -64.686        0.843043531             25.198        0.844792404             25.257        0.531679603            -64.347
               522       0.531557194            -64.718        0.843334758             25.141        0.844209043             25.175        0.530517849            -64.462
               523       0.530578931            -64.847        0.843626086             25.076        0.845084235             25.114        0.529846415            -64.515
               524       0.529541498            -64.902        0.843917514             24.974        0.844986947             25.017        0.529053997            -64.578
               525        0.52911491            -64.955        0.844695149             24.942        0.845570845             24.967        0.528019547            -64.669
               526       0.528688666            -65.088        0.845181534             24.859        0.846544905             24.869        0.527290564            -64.717
               527       0.528019547             -65.11        0.845960334             24.808        0.846837341             24.865        0.526926451            -64.768
               528       0.527108476            -65.143        0.846252569              24.75         0.84732496              24.78        0.526441357            -64.835
               529         0.5261384            -65.196        0.846447448             24.682        0.847617667             24.727        0.524988754            -64.936
               530       0.525351528            -65.311        0.847520087              24.65        0.848301041             24.657         0.52517011            -64.927
               531       0.524686633            -65.352        0.847715258             24.568        0.848594085             24.571        0.523962252            -65.029
               532       0.524384686            -65.376        0.848496392             24.542        0.848496392             24.567        0.523178634            -65.087
               533       0.523540158            -65.477        0.847520087              24.45        0.850060821             24.494        0.521975357            -65.112
               534       0.522877555            -65.543        0.849082715             24.369        0.850550296             24.421        0.521915266            -65.192
               535       0.521975357            -65.601        0.849473822             24.309        0.850746165             24.365        0.520834807            -65.317
               536       0.520834807              -65.7        0.850648225             24.242        0.850648225             24.284        0.520714894            -65.335
               537       0.520595009            -65.685        0.850452378              24.24        0.851530092             24.248        0.519337879            -65.382
               538       0.519936133            -65.822        0.850648225             24.128        0.852511017             24.165        0.518740313            -65.431
               539       0.519218311            -65.862        0.852216621             24.098        0.852609171             24.107        0.518083785            -65.522
               540       0.518800039            -65.937        0.852118511             24.013        0.852609171             24.019        0.517130318            -65.552
               541       0.517606832            -65.977        0.853394815             23.929        0.853591339             23.955        0.516892225             -65.71
               542       0.516832719            -66.053        0.852511017             23.876        0.853198336             23.898        0.515703406            -65.732
               543       0.516356918            -66.085        0.853198336              23.79        0.853689618             23.851         0.51487286            -65.794
               544       0.515406629            -66.177        0.853001903              23.76        0.854082847             23.825        0.514221227            -65.826
               545        0.51493214            -66.234        0.854082847             23.681        0.855756093             23.744        0.514102836            -65.915
               546       0.513925302             -66.24        0.854377888              23.67        0.855854621             23.699        0.513274868            -65.958
               547       0.513570418            -66.314        0.854574639             23.585        0.856248848             23.635        0.511917528            -66.012
               548       0.512625257             -66.39        0.855263622             23.511        0.857037845             23.575        0.511446252            -66.111
               549       0.511976468             -66.52        0.855756093             23.453        0.857037845             23.451        0.510269958            -66.145
               550       0.511210776            -66.527        0.856840528             23.383        0.857333907             23.425        0.509682826            -66.242
               551       0.510269958            -66.583        0.856347433             23.385        0.857136521             23.369        0.509272236            -66.244
               552       0.510152477            -66.694        0.858025115             23.227        0.858519176             23.327        0.508861976            -66.368
               553       0.508861976            -66.733         0.85782757             23.227        0.858123904             23.224         0.50792548            -66.398
               554       0.508861976            -66.819        0.858321517             23.122        0.859409203             23.196        0.507457879            -66.499
               555       0.507341046            -66.857        0.858519176             23.057        0.859508152             23.111        0.506873983            -66.534
               556       0.507049081            -66.916         0.85891463             23.048        0.859607112             23.041        0.505882901            -66.604
               557       0.506349051            -67.017        0.859310266             22.949        0.860498267             23.011        0.505010026            -66.677
               558       0.505649987            -67.059        0.859508152             22.921        0.861092883             22.924        0.504254752            -66.731
               559       0.504893756            -67.095        0.859805067             22.871         0.86129118             22.835         0.50379053            -66.766
               560       0.503848535            -67.186        0.859409203              22.75        0.861489523             22.812        0.502458271            -66.824
               561       0.503732533            -67.246        0.860597341             22.718         0.86248192             22.778        0.502284759            -66.909
               562       0.502689715            -67.307        0.860399204             22.642        0.862382629             22.698        0.501533561             -66.93
               563       0.502053501            -67.347         0.86129118             22.602        0.862680537             22.658        0.500668191            -66.996
               564       0.501418092            -67.438        0.862382629             22.523        0.863475461             22.577        0.500437678            -67.104
               565        0.50101416            -67.476        0.862283349              22.48        0.863674307             22.536        0.499114285            -67.123
               566       0.500207271            -67.539        0.863177279             22.419        0.863873198             22.465        0.498712209            -67.161
               567       0.498884487             -67.58        0.863177279             22.376        0.863574878              22.42        0.498253089            -67.227
               568       0.498712209            -67.636        0.863475461             22.289        0.864967919             22.365        0.497565202            -67.363
               569       0.497737085            -67.725        0.863873198             22.281        0.864868341             22.265        0.496763868             -67.35
               570       0.497107139            -67.733        0.864470147             22.172        0.865864631             22.238        0.496192277            -67.443
               571       0.496878265            -67.824        0.865565624             22.122        0.866263468             22.163        0.495564286             -67.51
               572       0.495393153            -67.844        0.864967919             22.097        0.865764951              22.13        0.494823139            -67.517
               573       0.494766174             -67.92        0.864967919             22.036        0.866363207             22.059        0.494026221            -67.609
               574       0.494253781            -68.035        0.865964323             21.928        0.867061694              21.98         0.49334417            -67.711
               575       0.493287374            -68.053        0.865964323              21.94        0.866462956             21.952        0.492606343            -67.688
               576       0.492889992            -68.104        0.866762273             21.813        0.867361218             21.846        0.491982891            -67.802
               577       0.492209509            -68.183        0.867261365             21.789        0.868260412              21.81          0.4914168            -67.845
               578       0.491643158            -68.247        0.867560959             21.741        0.867960577              21.74        0.490173694            -67.925
               579          0.491134             -68.32        0.868460359             21.647        0.868960429             21.691        0.489948012            -67.982
               580       0.490399479            -68.333        0.868660353             21.589        0.868960429             21.645        0.489158945            -68.076
               581       0.489440609            -68.427        0.868460359               21.5        0.869661011             21.612        0.488146298            -68.062
               582       0.488821163            -68.454        0.869260609             21.512        0.870261959             21.513        0.488258711            -68.148
               583       0.488314927            -68.494        0.869961433             21.438        0.870462367             21.483        0.487304027            -68.236
               584       0.487472365            -68.529        0.870061597              21.43        0.870161772              21.41         0.48674332            -68.222
               585       0.486911464            -68.623        0.869961433             21.297        0.871465101             21.343        0.485791599             -68.35
               586       0.486463209            -68.669        0.870261959             21.274        0.871966901             21.281        0.485344374            -68.414
               587        0.48495339            -68.755        0.870362157             21.198        0.871264462             21.202        0.484172368            -68.483
               588       0.485120916            -68.766        0.870662822             21.152        0.872368549             21.228        0.483893736            -68.452
               589       0.484506938            -68.791        0.871766147             21.087         0.87246899             21.164        0.483114419            -68.556
               590       0.483893736            -68.923        0.871866518             21.009         0.87287087             21.102        0.482447433            -68.589
               591       0.483225673            -68.955        0.872368549             20.999        0.872770382             21.027        0.481781367            -68.676
               592       0.482391892            -69.019        0.873172401             20.939        0.873272934             20.969        0.481005453            -68.749
               593        0.48144868            -69.066        0.873675184             20.869        0.873976993             20.927        0.480728644             -68.79
               594       0.481005453            -69.096        0.873775775             20.878        0.874178256             20.895        0.480341378            -68.784
               595       0.480673301            -69.194        0.874178256             20.728        0.874681619             20.819        0.479788683            -68.899
               596       0.479512574            -69.249        0.874178256              20.74        0.874580923               20.8          0.4786852            -68.866
               597       0.479291801            -69.307        0.875386813             20.666        0.875890871             20.692        0.478740314            -68.992
               598        0.47885056            -69.311        0.874883045              20.59        0.875689213              20.65        0.477529274            -69.083
               599       0.478244517            -69.366        0.875185271             20.548         0.87639522             20.585        0.476760207            -69.084
               600       0.476979814            -69.463        0.876294327             20.483        0.875689213             20.503        0.476266462            -69.161
               601       0.476376139            -69.571         0.87639522               20.4        0.876294327             20.484        0.475335226            -69.224
               602       0.475937582            -69.605        0.877101795              20.37        0.876899859             20.454        0.475171079            -69.229
               603       0.475444689             -69.64        0.877303779             20.324        0.877303779             20.392        0.474296588            -69.318
               604         0.4741328            -69.679        0.877404788             20.306        0.877202781             20.299        0.473914504            -69.372
               605       0.474023639            -69.734        0.878112178             20.214        0.878112178             20.243        0.473478213            -69.467
               606       0.473260219            -69.811        0.877910008             20.138        0.878718966             20.214        0.472824531            -69.488
               607       0.472715671              -69.8        0.878112178             20.131        0.879022517              20.14         0.47157416            -69.527
               608       0.471845698            -69.882        0.878820138             20.007        0.878516656             20.122        0.471085785            -69.623
               609       0.471682757            -69.911        0.879224943             20.032        0.880237771             20.089        0.470814685            -69.599
               610       0.470923106            -69.982        0.879832499             19.956        0.879731211             20.026         0.46994821            -69.736
               611       0.470002318            -70.046          0.8799338             19.905        0.880440476             19.902        0.469299401            -69.819
               612       0.469299401            -70.099        0.879832499             19.829        0.880440476             19.849        0.468867359            -69.876
