!{251R15S100}
!Johanson Technology Inc.
!www.johansontechnology.com
!Test Board Conditions:
!Substrate Type  RO4350B
!Substrate Thickness        20 mil
!Substrate Dk      3.66
!TL Type: GCPW 
!TL Trace Width  34 mil
!TL Gap  10 mil
!Electrode orientation      Horizontal
!DUT TOPOLOGY	SERIES
!Mounting Pad LxW         26x52 mil
! Created Thu Mar 12 16:45:47 2020
# mhz S ma R 50
! 2 Port Network Data from SP1.SP block
! freq  magS11  angS11  magS21  angS21  magS12  angS12  magS22  angS22  
!     
               500       0.296312519            -78.307        0.952357486             11.584        0.953235044             11.592         0.29590343            -78.121
               501         0.2959375            -78.408        0.952686476             11.512         0.95345456             11.501        0.295460889            -78.202
               502       0.295188885             -78.45        0.952796164             11.503        0.953783928             11.465        0.294645627             -78.23
               503       0.294849231            -78.449        0.952686476             11.427        0.954333128             11.431        0.294272718            -78.302
               504       0.294001807             -78.52        0.952905865             11.371        0.954223263             11.354        0.293291853            -78.355
               505       0.293224328             -78.54        0.953893743             11.345        0.953783928             11.306        0.292785793            -78.395
               506       0.292785793            -78.587        0.953783928              11.27        0.954333128             11.311        0.292347914            -78.424
               507       0.292179674            -78.644         0.95411341             11.187        0.955322486             11.264        0.291709115            -78.511
               508       0.291407013            -78.723        0.954443006              11.18        0.954443006             11.178        0.290904206            -78.559
               509       0.290937699             -78.73          0.9546628             11.136        0.954992586             11.171        0.290101517            -78.547
               510       0.290368834            -78.878        0.955212507             11.082        0.955542482             11.081        0.289634305            -78.637
               511       0.289767718            -78.856        0.954882645             11.028        0.955872572             11.042        0.289001436              -78.7
               512        0.28920114             -78.99        0.955872572              10.99        0.956753369             10.979        0.288735378             -78.79
               513        0.28823718            -79.034        0.955212507             10.918        0.956533093             10.926        0.287706716            -78.819
               514       0.288038141             -79.05        0.955652499             10.892        0.956753369             10.931        0.287342589            -78.858
               515       0.286945884            -79.151        0.955762529             10.829        0.956753369             10.856        0.286450774            -78.908
               516       0.286681719            -79.128        0.955652499             10.768        0.956312869             10.779        0.285791955            -78.939
               517       0.286088236            -79.262        0.956092695             10.752        0.957524732             10.678        0.285003373            -79.022
               518       0.285298836             -79.25        0.956643225              10.72        0.957083877             10.713        0.284413365            -79.068
               519       0.284642667            -79.365        0.956422975              10.63        0.958186395             10.635        0.283857256            -79.136
               520       0.284020704            -79.322        0.956753369             10.574        0.956863525             10.572        0.283400101            -79.161
               521       0.283400101              -79.4        0.956422975             10.541        0.957083877             10.567        0.282455477             -79.17
               522       0.282455477            -79.511        0.958296716             10.486        0.957414499             10.484         0.28242296            -79.269
               523       0.282000579            -79.499        0.957745235             10.462        0.957194071             10.453        0.281514002            -79.315
               524       0.281643673            -79.526        0.957634977             10.333        0.958296716             10.393        0.280769546            -79.419
               525       0.281222458            -79.567        0.957414499             10.395        0.958627757             10.379        0.280446484            -79.341
               526       0.280317364            -79.673        0.958848515             10.298        0.957965789             10.283        0.279930358            -79.513
               527       0.279704852             -79.72        0.957414499             10.234        0.958517398             10.246        0.278644195            -79.508
               528       0.279318692            -79.763        0.958076086             10.209        0.959069323             10.209        0.278451781            -79.513
               529       0.278451781              -79.8        0.958517398             10.183        0.958517398             10.109        0.277907329            -79.573
               530       0.277875335            -79.848        0.958296716             10.125        0.959511093             10.147        0.277172411            -79.645
               531        0.27726816            -79.916        0.959179747              10.08        0.959511093             10.088        0.276917244            -79.698
               532       0.276662311            -79.951        0.959069323             10.022        0.959511093             10.023        0.276439437            -79.723
               533       0.275994228            -80.071        0.959400632              9.938        0.959400632              9.996        0.275454581             -79.77
               534        0.27542287            -80.056        0.958848515              9.907        0.959732054              9.915        0.274631279            -79.855
               535       0.275359459            -80.071        0.960174129              9.881        0.960063591              9.915        0.274473234            -79.854
               536       0.274536441            -80.232        0.959511093              9.826        0.960395242              9.812        0.273684373            -79.923
               537       0.273810438            -80.215        0.960284679              9.821        0.961058889              9.812        0.273180691            -79.919
               538       0.273337992            -80.263        0.960174129              9.718        0.961169542               9.76        0.272395545            -80.049
               539       0.272834948            -80.345        0.960505818               9.69        0.960837623              9.718        0.272082118            -80.031
               540       0.272270131            -80.381        0.960505818              9.603        0.961058889              9.606        0.271206441            -80.212
               541       0.271643927            -80.407        0.959842554              9.609        0.961280207              9.588        0.270551534            -80.148
               542       0.270956766             -80.42         0.96094825              9.511         0.96094825              9.592        0.270209118             -80.23
               543       0.270146907            -80.572        0.960395242              9.467        0.961612278              9.488        0.269432512            -80.215
               544       0.269556619            -80.593        0.960395242              9.454        0.961944465              9.441        0.268843784            -80.307
               545       0.269556619            -80.675        0.961501575              9.415        0.962055219              9.452        0.268565363            -80.352
               546       0.268750945             -80.64        0.961833723              9.378        0.962055219              9.392        0.267731826              -80.4
               547       0.268410808            -80.754        0.961390884               9.36        0.961944465              9.299        0.267331417            -80.478
               548       0.267516147            -80.799        0.962165986               9.28        0.962720013              9.277         0.26687015            -80.419
               549       0.266808708            -80.784        0.962609182              9.244        0.962055219              9.217        0.266133778            -80.532
               550        0.26637901            -80.803        0.961944465              9.222        0.962609182              9.186        0.265827557            -80.573
               551       0.266011248            -80.949        0.961722994              9.162        0.961833723              9.132        0.264880508             -80.56
               552       0.265307789            -80.951        0.962165986              9.063        0.962941713              9.105        0.264453915            -80.729
               553       0.264880508            -81.002        0.962498364              9.078        0.963496186              9.077        0.263997613            -80.699
               554       0.264240876            -80.996        0.962055219              9.041        0.963274359              9.033        0.263329794            -80.752
               555       0.263602788            -81.097        0.963274359              8.954        0.963385266              9.002        0.262754402            -80.789
               556       0.262875432            -81.099        0.963496186              8.853        0.963385266              8.964        0.262240642            -80.884
               557       0.262512507            -81.162        0.963274359              8.875        0.963829024              8.899        0.261517045            -80.879
               558       0.262059555            -81.296        0.963607119              8.857        0.964050979              8.786        0.260975657            -80.961
               559       0.261607385            -81.318        0.963052582              8.725        0.963939995              8.818        0.260345455            -80.959
               560       0.261035756            -81.353        0.963718065              8.713        0.963607119              8.765        0.259686875             -81.03
               561       0.260315483            -81.364        0.963829024                8.7        0.963829024              8.714        0.259328352             -81.04
               562       0.259866322            -81.389        0.963829024              8.664        0.963607119              8.647        0.258851091            -81.094
               563       0.258821292            -81.459        0.963496186              8.613        0.963718065              8.616        0.258166567            -81.126
               564       0.258434209            -81.499        0.964272986              8.574        0.964939312              8.568        0.258017997            -81.206
               565       0.258017997            -81.601        0.963829024              8.528        0.964717152              8.499        0.257306051            -81.191
               566       0.257572801            -81.586        0.964828225              8.464        0.965494935              8.472        0.256921234            -81.314
               567       0.257069173            -81.664        0.964161976              8.414        0.965383785              8.459        0.256182819            -81.335
               568       0.256271317            -81.708        0.964828225              8.415        0.965383785              8.402        0.255770234            -81.352
               569       0.256035391            -81.688        0.964828225              8.337        0.964939312              8.357        0.255240743            -81.424
               570       0.255505351             -81.77        0.964939312              8.284        0.965272648              8.319        0.254712348            -81.466
               571       0.255093857            -81.766        0.964828225              8.236        0.965828463              8.248        0.253980281            -81.541
               572       0.254389979            -81.865        0.965828463              8.191        0.965494935              8.211        0.253600438            -81.559
               573        0.25377568            -81.914        0.965717274              8.191        0.965939665              8.178        0.253192012            -81.603
               574       0.253308638            -81.974        0.966050879              8.125        0.966495864              8.138        0.253017174            -81.583
               575         0.2529298            -81.977        0.966162106              8.065        0.966050879              8.101        0.252202856            -81.704
               576       0.252580605            -82.088        0.965606099              8.037        0.966829738              8.012         0.25144905            -81.764
               577       0.251709728            -82.076        0.965494935              8.016        0.966162106              8.012        0.250957396            -81.726
               578       0.251246488            -82.151        0.965717274              7.934        0.966718434              7.921        0.250322565            -81.824
               579       0.250668637             -82.21        0.966273346              7.915        0.967275082              7.926        0.250034536            -81.852
               580       0.250322565            -82.164        0.966384599              7.869        0.966829738              7.888        0.249459473            -81.865
               581       0.249660594            -82.217        0.966607143              7.786        0.966941055              7.823        0.248885732            -81.943
               582       0.249344619             -82.28        0.966273346              7.796        0.967720631              7.771        0.248284724            -81.938
               583       0.248570737            -82.318        0.967052384              7.737        0.966607143              7.755        0.247827788            -81.975
               584       0.248056151            -82.322        0.967275082               7.69        0.966829738              7.744        0.247400174            -81.981
               585       0.247713685            -82.373         0.96783205              7.692        0.967720631              7.684        0.246944865            -82.096
               586       0.247058614            -82.406        0.967609225              7.597        0.967609225              7.637        0.246376908            -82.179
               587       0.246603934            -82.469        0.967609225                7.6        0.967275082              7.606        0.246008436            -82.137
               588       0.245810257            -82.586        0.966941055              7.501        0.968054928              7.498        0.245019134            -82.212
               589       0.245640515            -82.569        0.967943483              7.492         0.96838934              7.493        0.244990926            -82.229
               590       0.245188445            -82.609        0.967720631              7.443        0.967943483              7.445        0.244230557            -82.272
               591       0.244709033            -82.727        0.968054928              7.376        0.968500836              7.398        0.243837221            -82.356
               592       0.244230557            -82.708         0.96783205               7.38        0.968166386              7.383        0.243276411            -82.329
               593       0.243668842            -82.783        0.968166386               7.33        0.969058511              7.322         0.24266101            -82.437
               594       0.243304421            -82.704        0.968054928              7.306        0.969058511               7.32         0.24224231            -82.418
               595       0.242716891            -82.804        0.968166386              7.222        0.969616506              7.253        0.241935724            -82.475
               596       0.242325992            -82.815         0.96838934              7.219        0.968612345              7.233        0.241157071            -82.499
               597       0.241712995            -82.862        0.969058511                7.2         0.96928167              7.179        0.241101549             -82.56
               598       0.241462671            -82.957         0.96894695              7.143        0.969616506               7.11         0.24032558            -82.644
               599       0.240602425             -82.92         0.96894695              7.063         0.96928167              7.117        0.239855676            -82.632
               600       0.240297914            -83.019        0.968835402               7.02        0.969728144              7.041        0.239276474            -82.668
               601       0.239717644            -83.055        0.969616506              6.975        0.969728144              7.039        0.238808621            -82.748
               602       0.239028673            -83.081        0.968277856              6.972        0.969616506              6.949        0.238231947            -82.711
               603       0.238946129            -83.205        0.969728144              6.895        0.970733461               6.93        0.238177098            -82.822
               604       0.238396569            -83.183        0.969504881              6.872        0.970733461              6.882        0.237547246            -82.844
               605       0.237656666            -83.188        0.968723867              6.801        0.970509967              6.841          0.2366737            -82.892
               606       0.237164674            -83.272        0.970733461              6.798         0.97039824              6.842         0.23661921            -82.927
               607       0.236455816            -83.364        0.969951458              6.762        0.969839794              6.761        0.236020649            -82.971
               608        0.23631974            -83.412        0.970286525                6.7        0.970733461              6.683        0.235396499            -83.038
               609       0.235749076            -83.392        0.969728144              6.701        0.970063134              6.693        0.235071512            -82.972
               610       0.235477816            -83.462        0.969616506              6.629        0.970174823              6.669        0.234449872            -83.069
               611       0.234963282            -83.596         0.97039824              6.599        0.971516095              6.618        0.233829876            -83.134
               612       0.234503862            -83.472        0.971180603              6.609        0.970845227              6.582        0.233453291            -83.154
