!{251R15S151}
!Johanson Technology Inc.
!www.johansontechnology.com
!Test Board Conditions:
!Substrate Type  RO4350B
!Substrate Thickness        20 mil
!Substrate Dk      3.66
!TL Type: GCPW 
!TL Trace Width  34 mil
!TL Gap  10 mil
!Electrode orientation      Horizontal
!DUT TOPOLOGY	SERIES
!Mounting Pad LxW         26x52 mil
! Created Thu Mar 12 16:52:46 2020
# mhz S ma R 50
! 2 Port Network Data from SP1.SP block
! freq  magS11  angS11  magS21  angS21  magS12  angS12  magS22  angS22  
!     
               500     0.00497487634            -108.32        0.998606274             -6.221        0.999277802             -6.182      0.00378165835           -105.154
               501     0.00481296024           -111.117        0.999200227             -6.217         0.99851484              -6.24      0.00342738012           -104.891
               502      0.0049784505           -110.917        0.998865454             -6.191        0.998955732               -6.2      0.00379790584           -105.427
               503     0.00467148392           -110.879        0.999249934             -6.228        0.998569066             -6.268      0.00361413906           -106.341
               504     0.00491510351           -111.308        0.998768228             -6.237        0.998879772             -6.274      0.00338323892           -106.082
               505     0.00458927515           -113.069        0.998558807              -6.32         0.99915783             -6.294      0.00321324689           -105.105
               506     0.00441339795            -110.02         0.99882922              -6.31        0.999131356              -6.32      0.00309687081           -106.133
               507     0.00448743043           -112.043        0.998663964             -6.359        0.999084219             -6.333      0.00303527279           -106.451
               508     0.00434782083           -112.474        0.999278019             -6.361        0.998736425             -6.314      0.00326829793           -104.021
               509     0.00413316795           -114.968        0.999391964             -6.361        0.998393288             -6.355      0.00305585718           -104.401
               510     0.00422123728           -110.355        0.998136104             -6.354        0.999521395             -6.347      0.00296237316            -104.92
               511     0.00392119355            -114.63        0.998049265             -6.416        0.999346232             -6.423      0.00271999609           -111.961
               512     0.00421790454           -114.784        0.998756219             -6.375        0.998910083              -6.45      0.00283267498           -109.168
               513     0.00402504578           -115.176        0.997518192             -6.425        0.999419398             -6.474      0.00253671002           -111.646
               514     0.00412455166           -115.798        0.998810152             -6.403        0.998803827             -6.424      0.00291022621           -111.245
               515     0.00402049161           -115.551        0.998272966             -6.462        0.999215841             -6.426      0.00244359462           -108.704
               516     0.00381040854           -114.618        0.999242143             -6.446        0.998722058             -6.471      0.00246247337           -105.067
               517     0.00391954583           -116.957        0.999252393             -6.517        0.998222597             -6.469      0.00248648445           -109.347
               518     0.00343717256           -116.983        0.999041861             -6.497        0.999102064             -6.549      0.00253192791           -107.683
               519     0.00348224504           -117.877        0.998516805             -6.547        0.999347289             -6.517      0.00218554286           -106.014
               520     0.00344141566           -119.293        0.999175011              -6.57        0.998632811             -6.531      0.00217163649           -109.838
               521      0.0034893751           -116.328        0.998604015             -6.547        0.999235979             -6.549      0.00205185968           -108.651
               522     0.00338897495           -120.061        0.998807359              -6.57        0.998720257             -6.613      0.00196638412           -118.951
               523     0.00323194823           -119.337        0.999376298             -6.597        0.998014831             -6.617      0.00207402695           -116.675
               524     0.00321620786           -119.164        0.999192139             -6.626        0.998543775             -6.603      0.00201462449            -115.38
               525     0.00303461227           -121.328        0.999010861             -6.627        0.998922073             -6.663      0.00178526713           -113.097
               526     0.00316465081           -120.965        0.998549034             -6.691        0.999062358             -6.684      0.00163653688           -117.719
               527     0.00302828606           -122.788         0.99866119             -6.661        0.998952982              -6.67      0.00168479435           -121.457
               528     0.00302715286           -128.231        0.998365241             -6.726        0.998944712             -6.698      0.00155501417           -125.147
               529     0.00295100996           -123.864        0.999356694             -6.726         0.99805822             -6.709      0.00151555142           -117.088
               530     0.00308194475           -127.808        0.998974146             -6.722        0.998345348             -6.723      0.00156485769           -123.077
               531     0.00272100625           -128.822        0.999167476             -6.716        0.998579139             -6.745      0.00146632264           -117.231
               532     0.00272981716           -124.632        0.998942543             -6.771        0.998899877             -6.723      0.00157864166           -120.782
               533     0.00279135028           -130.936        0.998912133             -6.746        0.998734698             -6.797      0.00115681614            -118.21
               534     0.00265169513           -125.526         0.99822833             -6.763        0.999264804             -6.815      0.00128950666           -127.176
               535     0.00261914721           -126.981        0.998578723             -6.774        0.999113307             -6.814      0.00108220593           -124.511
               536     0.00261435725            -133.68        0.999107532             -6.842        0.998298073             -6.849       0.0012322957           -129.079
               537     0.00239899841           -136.525        0.998656976             -6.872        0.998886537             -6.866     0.000925294456           -138.814
               538     0.00244117597            -133.85        0.998426125             -6.869        0.998988839             -6.869      0.00117773908           -139.855
               539     0.00245440459            -136.58        0.998854267             -6.888         0.99851606             -6.906     0.000905724581           -146.399
               540     0.00216016608           -132.011        0.999126646             -6.926        0.998689403             -6.896     0.000839435132           -138.938
               541     0.00235251585           -138.348        0.998793501             -6.929        0.998536415             -6.881     0.000929570981           -153.962
               542     0.00190074026           -145.039        0.999342421             -6.925        0.998012827             -6.922     0.000702461899           -163.277
               543     0.00214282626           -138.758         0.99883088             -6.902        0.998742568             -6.947     0.000635750867           -163.707
               544     0.00222909432            -136.65         0.99880059             -6.932         0.99867136             -6.964     0.000481701995           -179.884
               545     0.00208038281           -142.957        0.999130476              -6.96        0.998538252             -7.011     0.000405175574           -161.067
               546     0.00196665214           -138.681        0.998593879             -6.993         0.99909532             -6.995     0.000381221644            169.564
               547     0.00183403455           -150.374        0.998786267              -7.03        0.999025589             -7.026     0.000467474055            -175.22
               548     0.00204234539           -148.964        0.999129286             -7.001        0.998471537             -7.089     0.000372159568           -176.269
               549     0.00180889259           -153.103        0.999046101             -7.005        0.998799989              -7.06     0.000343409875            157.602
               550     0.00174594418           -152.256        0.998978188              -7.07        0.998633787             -7.116     0.000650324859             160.33
               551      0.0018825824           -157.242        0.999072704             -7.077        0.998350738              -7.07     0.000589866855            138.214
               552     0.00186852415           -153.375        0.998893912             -7.107        0.998623809             -7.101     0.000600341984            131.806
               553     0.00154490055           -159.197        0.999114996             -7.172        0.998689141             -7.134     0.000624454109            128.817
               554      0.0017176502           -157.319        0.999039421             -7.098        0.998671774             -7.148      0.00061856412            108.972
               555     0.00175666709           -164.552        0.998957426             -7.121        0.998704979             -7.194     0.000649216374            115.837
               556     0.00172197931           -159.713        0.998576127             -7.176        0.998848862             -7.166     0.000846794306            134.364
               557     0.00141437406           -164.384        0.999360388             -7.194        0.998038584             -7.206     0.000876524947            124.506
               558     0.00153082252           -162.679        0.999113537             -7.234        0.998573745             -7.175     0.000787000201            118.153
               559     0.00139415249           -170.008        0.998938908             -7.224        0.998985999             -7.238     0.000791334826             116.96
               560     0.00146962453           -171.385        0.998794154             -7.236        0.998945723             -7.284     0.000970189102            110.667
               561     0.00129531956           -174.525         0.99878572             -7.258        0.999104521             -7.239      0.00105372413            104.664
               562     0.00144046818           -178.802        0.998609327             -7.287        0.999024797             -7.278      0.00120851952            106.877
               563     0.00124836218            177.155        0.998643787             -7.292        0.999111147             -7.294      0.00123506725            112.332
               564      0.0013180936           -173.845        0.999175215             -7.286         0.99878176             -7.314      0.00101436966             96.947
               565        0.00139859            177.217        0.998599329             -7.318         0.99911399             -7.326      0.00120528685            105.395
               566     0.00150627235            173.843        0.998359154             -7.381        0.999132427             -7.323      0.00146421046             98.152
               567     0.00139720434            168.109        0.999039769             -7.356        0.999036434             -7.369      0.00123953823             90.501
               568      0.0014600576            160.825        0.998735962               -7.4        0.999191517             -7.402      0.00146494051             91.654
               569     0.00180550763            175.251        0.998990119             -7.369        0.998357713             -7.375      0.00137689026             97.116
               570     0.00124665014            165.748        0.999106053             -7.419        0.998940314             -7.398      0.00136519469             95.515
               571     0.00148757607            163.107        0.999288369             -7.421        0.998227391             -7.407      0.00162061249             94.333
               572     0.00157716866            159.175        0.998898677              -7.47        0.998744586             -7.452      0.00173431563             96.105
               573      0.0015759666            157.369        0.998755675              -7.49        0.998882858             -7.496      0.00181028524             95.466
               574     0.00158225194            155.403        0.998268657             -7.519        0.999196573             -7.461      0.00192941493             93.213
               575     0.00166930404            149.138        0.999017175             -7.502        0.998605364             -7.464      0.00192502088             96.692
               576     0.00157076411            143.941        0.998755812             -7.522        0.999117049             -7.516      0.00201122644             91.264
               577     0.00177203751             146.23        0.999140725             -7.532        0.998294116             -7.484      0.00202033278             97.643
               578     0.00175629096            140.226         0.99905343             -7.525        0.998890689             -7.588      0.00208039818             88.415
               579     0.00182140057             139.97        0.998940955             -7.576        0.998963841              -7.58      0.00212865593             88.212
               580     0.00159632216            143.932        0.999138729             -7.597        0.998650661             -7.541      0.00207548951             91.299
               581     0.00180093151            137.546        0.999158061             -7.588        0.998911002             -7.598      0.00214263008              84.42
               582     0.00181003952            140.554        0.999312749             -7.613        0.998017273             -7.609      0.00222709149             93.818
               583     0.00183663547            135.588        0.999078772             -7.612        0.998609668             -7.656      0.00245908175             90.557
               584     0.00188540961            132.576        0.999228509             -7.648        0.998290829             -7.661      0.00262667122             90.385
               585     0.00184510297            133.274        0.999320412             -7.696        0.998064155             -7.682      0.00256342496             91.256
               586     0.00199472209            129.388        0.998702524             -7.708        0.999161572             -7.643      0.00258304753             87.388
               587     0.00206507169            126.842        0.999151818              -7.69        0.998735031             -7.711      0.00259588311             88.816
               588     0.00226752663            131.692        0.998695161             -7.701        0.998950562             -7.699      0.00275297581             87.261
               589     0.00219835777            121.496         0.99901181             -7.735        0.999085307             -7.697      0.00279607214             85.574
               590     0.00220605337             123.69        0.999091846             -7.776        0.999023294             -7.764      0.00282693625              82.29
               591     0.00220008138             118.73        0.998368327             -7.748        0.999439811             -7.791      0.00284111455             87.739
               592     0.00221351936            128.743        0.998650674             -7.761        0.999003188             -7.798      0.00284369703             88.336
               593     0.00229983698            123.711        0.999123565             -7.778        0.998473522             -7.772      0.00287837287             92.146
               594     0.00235012029            122.801        0.999190376             -7.809        0.998487063             -7.764      0.00314405469             86.084
               595     0.00241755642            114.614         0.99882607             -7.865        0.999202171             -7.846      0.00318622631             86.784
               596     0.00251518308            117.939        0.998999862             -7.879        0.999009925             -7.862      0.00335714116             82.249
               597     0.00244935995             112.71        0.999061361             -7.927        0.999066652             -7.909      0.00330257442             85.293
               598     0.00237040366            112.289         0.99910037             -7.893        0.998945627              -7.85      0.00343654717              84.91
               599      0.0028500486            120.558        0.999073906              -7.95        0.998781561             -7.851      0.00326890475             83.328
               600     0.00255957984            116.085        0.998432433             -7.935        0.999300904              -7.91      0.00350403698             84.173
               601     0.00285540545            114.488        0.998705599             -7.978        0.999042789             -7.952      0.00374341335             85.725
               602     0.00278857874            115.225        0.998747517             -7.951        0.999021783             -7.997      0.00367141022             85.582
               603     0.00273362831            110.902        0.998914951             -7.979        0.998932547             -7.966      0.00374575582              87.44
               604     0.00295375778            116.236        0.998032947             -7.968        0.999295493             -7.969      0.00395070752             83.926
               605     0.00304811746            114.145        0.999378261             -8.027        0.998002658             -8.011       0.0038236814             85.174
               606     0.00285551364            115.038        0.998621676              -8.02        0.998909488             -8.022      0.00393671739             86.988
               607     0.00296278764            112.581        0.999389597              -8.01        0.998275756             -8.039      0.00393233514             81.796
               608     0.00298362819            110.183        0.998836609             -8.062        0.998910438             -8.071      0.00409444179             85.961
               609     0.00341023099             110.46        0.998748516             -8.062         0.99908801             -8.065      0.00417382078             83.821
               610     0.00329885941            110.361        0.999041908             -8.084        0.998735625             -8.057      0.00420982271             84.424
               611     0.00331091186             108.08        0.998973618             -8.109        0.998870079             -8.137      0.00427954522              85.01
               612     0.00324416448            110.174        0.998728319             -8.145        0.998896553             -8.139      0.00440253548             84.996
