!{201R07S0R8}
!Johanson Technology Inc.
!www.johansontechnology.com
!Test Board Conditions:
!Substrate Type  RO4350B
!Substrate Thickness        10 mil
!Substrate Dk      3.66
!TL Type: GCPW 
!TL Trace Width  21 mil
!TL Gap  20 mil
!Electrode orientation      Horizontal
!DUT TOPOLOGY	SERIES
!Mounting Pad LxW         16x21 mil
!Agilent Technologies,N5230A,MY45001966,A.07.50.67
!Agilent N5230A: A.07.50.67
! Created Mon Mar  9 16:17:35 2020
# mhz S ma R 50
! 2 Port Network Data from SP1.SP block
! freq  magS11  angS11  magS21  angS21  magS12  angS12  magS22  angS22  
!     
               500       0.974157543             -16.21        0.221962291             73.817         0.22260207             73.968          0.9748307            -16.058
               501       0.974264173              -16.2        0.222421483             73.789        0.223036906              73.96        0.974712941            -16.056
               502       0.973545253            -16.226        0.222718423             73.794        0.223437541             73.931        0.974666733             -16.11
               503       0.973863669            -16.294        0.223176347             73.738        0.223871168             73.859        0.974536622            -16.126
               504       0.973901806             -16.28        0.223648078              73.74        0.224215262             73.888         0.97446259            -16.144
               505        0.97328442             -16.33        0.224124726             73.726        0.224667251             73.819          0.9744056            -16.191
               506       0.974153228            -16.383        0.224609062             73.672        0.225126839             73.789        0.974041081            -16.209
               507       0.973367126            -16.377        0.224945171             73.666        0.225593548             73.788        0.974151883             -16.23
               508       0.973298764            -16.388        0.225292208             73.616        0.225941586             73.755        0.974083467            -16.259
               509       0.973744859            -16.479        0.225889049             73.558        0.226435845             73.686        0.973856972             -16.29
               510       0.973037857            -16.501        0.226115189             73.514         0.22668863             73.643        0.973934471            -16.331
               511       0.973016835            -16.518         0.22655328             73.481        0.227180136             73.625         0.97380131            -16.369
               512       0.972926683            -16.572        0.226976092             73.502        0.227577915             73.564        0.973711086            -16.388
               513       0.972640527             -16.59        0.227484788             73.435        0.227982946             73.558        0.973648864            -16.424
               514       0.972561337            -16.618        0.227859427             73.403        0.228332116             73.505        0.973569592            -16.484
               515       0.972810165            -16.647          0.2282591             73.367        0.228890675             73.498         0.97337032            -16.506
               516       0.972127882            -16.673         0.22870381              73.32        0.229231027             73.455        0.973359786             -16.57
               517       0.972212597            -16.709        0.229171836              73.33        0.229753028             73.428         0.97322049            -16.559
               518       0.972383146            -16.737        0.229661091             73.251        0.230296545             73.431        0.973055077             -16.59
               519       0.972146033            -16.766        0.230107889             73.248        0.230558697             73.373        0.973041825            -16.633
               520       0.971694293            -16.809        0.230345457             73.164          0.2310094             73.325        0.972925648             -16.69
               521       0.971389461            -16.833        0.230724327              73.17        0.231389361             73.313        0.972844409            -16.676
               522       0.971947305            -16.932        0.231389006             73.124        0.231842323             73.243        0.972730917             -16.68
               523       0.971651289            -16.884        0.231798398             73.116        0.232199046             73.282          0.9726586            -16.746
               524       0.971422749            -16.866        0.232090984             73.108        0.232652793             73.257        0.972541785            -16.771
               525       0.971636853            -16.961        0.232543379              73.11        0.233079447             73.173        0.972420215            -16.788
               526       0.970772571            -17.022        0.232845311              73.04        0.233516459              73.14        0.972338534            -16.816
               527       0.971430757            -17.013        0.233244735             73.022        0.234078675             73.102         0.97210203            -16.865
               528        0.97120314            -17.051        0.233835302             72.981        0.234428321             73.092        0.972098063            -16.893
               529       0.971246109            -17.037        0.234222867             72.983         0.23473578             73.077        0.972029157            -16.888
               530       0.971678703            -17.126        0.234705185              72.94         0.23530041              72.98        0.971678703             -16.99
               531       0.971545589            -17.189        0.235105714               72.9         0.23567482             72.957        0.971657449            -16.954
               532       0.969784967            -17.155        0.235518728             72.868        0.235790036             72.996        0.971796762            -16.998
               533       0.970806065            -17.201        0.235848154             72.772        0.236473501             72.967        0.971588758            -17.063
               534       0.970576303            -17.237        0.236363103             72.772        0.236989816             72.889        0.971470648            -17.079
               535       0.970728061             -17.26        0.236672383             72.771        0.237245282             72.867        0.971398848            -17.086
               536       0.970911459            -17.285        0.236989785             72.722        0.237837114             72.843        0.971023246            -17.141
               537       0.969369147            -17.317        0.237486645             72.693        0.237979306             72.801        0.971268252            -17.169
               538       0.970218864             -17.34        0.238105657             72.629        0.238544668             72.779         0.97111288            -17.215
               539       0.970107626            -17.368        0.238325174             72.634         0.23892958              72.76         0.97100154            -17.238
               540       0.969791149            -17.424        0.238796642             72.598        0.239374683             72.724        0.970908305            -17.253
               541         0.9701315            -17.409        0.239293337             72.615         0.23976214             72.719        0.970801875            -17.267
               542       0.970210154            -17.449        0.239726374             72.542         0.24022368             72.681        0.970657055            -17.325
               543        0.96953462            -17.503         0.23989065             72.535        0.240692923             72.638        0.970539737             -17.32
               544       0.969843133            -17.521        0.240547859             72.487        0.240963629             72.606        0.970513308             -17.38
               545       0.969708196            -17.537        0.240957843             72.443        0.241652374             72.565        0.970266566            -17.436
               546       0.970127713            -17.611        0.241367566               72.4        0.242091149             72.507        0.969681056            -17.477
               547       0.969644916            -17.629        0.241747908             72.406        0.242360994             72.468        0.970091557            -17.476
               548       0.969377196            -17.674        0.242266184             72.352        0.242768759             72.449        0.970047049            -17.504
               549       0.969618945            -17.689        0.242717501             72.321        0.243249016              72.47        0.969842234            -17.535
               550       0.968752436             -17.73        0.243003656             72.277        0.243563837             72.395        0.969868395            -17.595
               551       0.968895696             -17.76        0.243515734             72.286        0.243908551              72.38        0.969788493            -17.593
               552       0.967688757            -17.757        0.243857263             72.215        0.244306879              72.37        0.969696204            -17.645
               553       0.968987605             -17.83        0.244240805             72.199          0.2449166             72.328        0.969433944            -17.644
               554       0.968949186            -17.843        0.244794132             72.144        0.245273711             72.296        0.969395507            -17.695
               555       0.968535644            -17.886        0.245197257             72.127        0.245705913             72.263        0.969316506            -17.739
               556       0.968749369            -17.899        0.245392583             72.081        0.246241605             72.214        0.968972457            -17.789
               557       0.967698859            -17.925        0.246002901             72.063        0.246456473             72.195         0.96914828            -17.783
               558       0.968250587             -17.99        0.246313247             72.006        0.247023214             72.137        0.968919661            -17.819
               559         0.9681383            -17.971        0.246795594             72.012        0.247279094             72.161        0.968918842            -17.833
               560       0.968177873            -18.043        0.247175347              71.94        0.247802197             72.109        0.968735362            -17.902
               561       0.968576754            -18.051        0.247847214              71.96        0.248189864              72.09        0.968576754            -17.892
               562       0.968043605            -18.119        0.248167508             71.886        0.248539214              72.04        0.968601016            -17.948
               563       0.967355139            -18.135         0.24839105             71.844        0.249020983             72.007         0.96846949            -17.977
               564       0.967287467            -18.146        0.248860266              71.84        0.249347812             71.984         0.96840174            -18.001
               565       0.967263456            -18.188        0.249255517             71.815         0.24983011             71.948        0.968266218            -18.032
               566       0.967616346            -18.182        0.250007592             71.774        0.250237963             71.928        0.968173512            -18.086
               567        0.96760351            -18.288        0.250263454             71.753        0.250638299             71.854         0.96804921            -18.093
               568       0.966520777            -18.291        0.250588533             71.705         0.25105056             71.836        0.967968433            -18.135
               569       0.966721361             -18.33         0.25098705             71.648        0.251507717              71.81        0.967834981            -18.164
               570       0.966992755            -18.353        0.251665231             71.622        0.251781154             71.773        0.967772373            -18.214
               571       0.966325002            -18.377        0.251810141             71.644        0.252245378             71.738        0.967660952            -18.239
               572       0.966520816            -18.416        0.252238405              71.62        0.252732569             71.687        0.967522809            -18.266
               573       0.966220286            -18.425        0.252683074             71.538         0.25303241             71.678        0.967444703            -18.302
               574       0.966353845            -18.498        0.253154807             71.521        0.253417253             71.654        0.967355664            -18.318
               575       0.966325337            -18.538        0.253701694             71.454        0.253906236             71.568        0.967215765            -18.392
               576       0.965706509            -18.514        0.253918976             71.469        0.254182214             71.623        0.967152945            -18.388
               577       0.965880683            -18.543        0.254433025             71.432         0.25472612             71.556        0.966993335            -18.401
               578       0.964913719            -18.587         0.25467627             71.423        0.255087091             71.526        0.966915408            -18.462
               579       0.964918473             -18.63        0.255117718             71.362        0.255441009             71.452        0.966808858             -18.49
               580       0.965459899            -18.669        0.255554916             71.337        0.255937686             71.413        0.966683353            -18.534
               581       0.965749198            -18.686        0.256102817             71.305        0.256486408             71.395        0.966527814            -18.571
               582       0.964890859            -18.722        0.256346972             71.246        0.256760488             71.367        0.966447333             -18.57
               583       0.964897134            -18.785        0.256939584              71.23        0.257176343             71.293        0.966342358            -18.619
               584       0.964366312            -18.785        0.257123654             71.234        0.257568074             71.313        0.966255615            -18.633
               585       0.964165209            -18.811        0.257514362             71.178        0.257900068             71.298        0.966165346             -18.68
               586       0.964043851            -18.867         0.25801609             71.137        0.258343054             71.239        0.966043736             -18.72
               587       0.964465425            -18.886         0.25854531             71.101        0.258843142              71.24        0.965910002            -18.727
               588       0.964253648            -18.914        0.259054589             71.056        0.259144079             71.154        0.965809094            -18.815
               589        0.96467451            -18.954        0.259346746             71.021        0.259675396             71.164        0.965674588            -18.796
               590       0.964129997            -18.991        0.259767967             70.991        0.260067208             71.121        0.965574072            -18.832
               591        0.96420665            -19.025        0.260057942             70.962        0.260597426             71.077        0.965428515            -18.884
               592       0.963690774            -19.041         0.26063798             70.941        0.260848114             71.034        0.965356447            -18.915
               593       0.963485446            -19.064        0.261183152             70.913        0.261032846              71.02        0.965261887            -18.939
               594       0.964352263            -19.068        0.261448229               70.9        0.261719272             70.998        0.965129753            -18.989
               595       0.964004875            -19.119         0.26186607             70.851        0.262197913             71.007        0.965004259            -18.982
               596       0.963678961            -19.186        0.262199813             70.822        0.262562306             70.917        0.964900158            -19.016
               597       0.964105002            -19.197        0.262708628             70.794        0.263011257             70.886        0.964771212            -19.075
               598       0.963353986            -19.227        0.263048542             70.763        0.263351562             70.823        0.964685828            -19.129
               599       0.963197247            -19.281         0.26336935             70.746        0.263915704             70.807        0.964528873            -19.112
               600       0.963334212            -19.281        0.263953232             70.735        0.264226872             70.825         0.96444393              -19.1
               601       0.963533413            -19.312        0.264433686             70.655        0.264616414             70.786        0.964310242            -19.164
               602       0.962688338            -19.361        0.264749843             70.644        0.264963292             70.731         0.96424126            -19.211
               603       0.962576884            -19.365        0.265268345              70.62        0.265298887             70.712        0.964129625            -19.246
               604       0.962354819            -19.416        0.265634956             70.572        0.265757314             70.705        0.964018183             -19.27
               605       0.961920562            -19.447        0.265820952             70.578        0.266157806             70.647        0.963916043            -19.276
               606       0.961705969            -19.457        0.266221001             70.572        0.266527676              70.63        0.963811961            -19.293
               607       0.962209249            -19.488        0.266605759             70.491         0.26712807             70.574        0.963650447            -19.401
               608        0.96221915            -19.517        0.267253866             70.487        0.267407754             70.524        0.963549424            -19.392
               609       0.962393412            -19.559        0.267517774              70.41        0.267918462             70.504        0.963391125            -19.428
               610       0.962182231            -19.614        0.267983054             70.419         0.26841534             70.466        0.963290623            -19.457
               611        0.96199569            -19.584        0.268425102             70.417        0.268672444             70.474        0.963214754            -19.467
               612       0.961744878             -19.61         0.26897374             70.327        0.269097636             70.458        0.963074496            -19.523
