!{201R07S0R7}
!Johanson Technology Inc.
!www.johansontechnology.com
!Test Board Conditions:
!Substrate Type  RO4350B
!Substrate Thickness        10 mil
!Substrate Dk      3.66
!TL Type: GCPW 
!TL Trace Width  21 mil
!TL Gap  20 mil
!Electrode orientation      Horizontal
!DUT TOPOLOGY	SERIES
!Mounting Pad LxW         16x21 mil
!Agilent Technologies,N5230A,MY45001966,A.07.50.67
!Agilent N5230A: A.07.50.67
! Created Mon Mar  9 16:16:46 2020
# mhz S ma R 50
! 2 Port Network Data from SP1.SP block
! freq  magS11  angS11  magS21  angS21  magS12  angS12  magS22  angS22  
!     
               500       0.978962783            -15.221        0.193805538             74.934        0.194319409             75.106        0.980541957            -15.271
               501       0.978914368            -15.228        0.194332171             74.941        0.194623242              75.07        0.980493464             -15.28
               502       0.978106774            -15.255        0.194507462             74.907        0.194955848              75.07        0.980474418            -15.339
               503       0.978621725            -15.293        0.194721924             74.894        0.195553167             74.992        0.980313205            -15.342
               504       0.979598939              -15.3        0.195208312             74.841        0.195770976             75.006        0.979937339            -15.366
               505       0.977749885            -15.327         0.19562654             74.798        0.196009795             74.943        0.980342371             -15.44
               506       0.979342878            -15.381        0.195967824             74.773        0.196600569             74.922        0.979793986            -15.446
               507       0.978484389            -15.365        0.196315188             74.793        0.197039774             74.919        0.979949964            -15.466
               508       0.977650226            -15.379         0.19664527             74.745        0.197189373              74.89          0.9801296             -15.46
               509       0.979087472            -15.444        0.197138521             74.713        0.197752277             74.874        0.979538463            -15.504
               510       0.978305736            -15.508        0.197367027             74.661        0.197958703             74.776         0.97988385            -15.519
               511       0.977831534            -15.517        0.197862749             74.607        0.198250385             74.763        0.979860021            -15.596
               512       0.978347075            -15.566        0.198195117              74.64        0.198812163             74.703         0.97958686            -15.602
               513       0.978206413            -15.595        0.198554853             74.563        0.199035482             74.718        0.979558789            -15.641
               514       0.977877085            -15.569        0.198968474             74.568        0.199335325             74.673        0.979567278            -15.696
               515       0.978211795            -15.618        0.199197047             74.571        0.199886238             74.641        0.979338652            -15.679
               516       0.977962537            -15.652        0.199743299             74.435        0.200203755             74.603         0.97942733            -15.757
               517       0.977682663            -15.674        0.200054311             74.493         0.20070025             74.566        0.979259772            -15.778
               518       0.976900944             -15.72        0.200332093             74.421        0.200932658             74.608        0.979265669            -15.809
               519       0.977101671            -15.773        0.200719588             74.369         0.20139086             74.471        0.979241378            -15.854
               520        0.97728578            -15.805        0.201220202             74.288        0.201660844             74.465        0.979200394            -15.873
               521       0.976528148            -15.785        0.201411733             74.342        0.202108587             74.468        0.979117395            -15.888
               522       0.977915051            -15.908        0.201906886             74.269        0.202605453             74.384        0.978816159            -15.876
               523       0.977221898            -15.864        0.202322038             74.267        0.202951932             74.424        0.978798264            -15.949
               524       0.977452758            -15.833        0.202719617             74.269        0.203233725             74.357        0.978804092            -15.966
               525       0.977519685            -15.893        0.203060528             74.276        0.203458347             74.345        0.978645744            -15.962
               526       0.975816362            -15.949        0.203290974              74.14        0.203759608             74.305        0.978854396             -16.02
               527       0.977062325            -15.991          0.2036912              74.19        0.204395941             74.247         0.97852577            -16.033
               528       0.976324692            -15.988         0.20398314              74.17        0.204665327             74.248        0.978575352            -16.052
               529       0.976620433            -15.993        0.204491757              74.14        0.205033963             74.254        0.978421092            -16.095
               530       0.976784274            -16.032        0.204761668             74.074        0.205446458             74.147        0.978359934            -16.177
               531       0.976972849            -16.137        0.205273314             74.057         0.20550978             74.114         0.97832352            -16.114
               532        0.97592732            -16.091        0.205621004             74.018        0.206023839             74.175        0.978289688            -16.179
               533       0.976690932            -16.156         0.20587668             73.962        0.206612768             74.121        0.978041213            -16.215
               534       0.976844891            -16.206        0.206383802             73.942        0.206931025             73.997        0.977970173            -16.285
               535       0.976599965            -16.195        0.206617311             73.898        0.207284441             74.037         0.97795012            -16.286
               536       0.976680969            -16.227        0.207134636             73.911        0.207636034              73.98        0.977806062            -16.322
               537       0.975434556            -16.222        0.207227857             73.862        0.207992721             74.032         0.97790831            -16.318
               538       0.976199894            -16.272         0.20777283             73.823         0.20837171             73.921        0.977774611            -16.383
               539       0.975862821             -16.29        0.208251804             73.784        0.208539713             73.933        0.977774647            -16.391
               540       0.975523268            -16.368         0.20868327             73.719        0.209116178             73.887        0.977659518            -16.439
               541       0.975891927            -16.327        0.208858294             73.798         0.20938797              73.91        0.977466147            -16.437
               542       0.976350799            -16.378        0.209100892             73.683        0.209945169             73.855        0.977250465             -16.51
               543       0.975371316            -16.433        0.209541467             73.689        0.210218039              73.82          0.9773947            -16.486
               544       0.975695583            -16.425        0.209997604             73.621        0.210675648             73.817        0.977269487            -16.539
               545       0.975209826            -16.443        0.210449583             73.618        0.210983294              73.78        0.977232875            -16.584
               546       0.976304847            -16.502        0.210807203             73.583        0.211487861             73.686        0.976867015            -16.631
               547       0.975497554            -16.539        0.210972663             73.599        0.211726971             73.685        0.976958655            -16.627
               548        0.97576875            -16.592        0.211590861             73.508        0.212103046              73.63        0.976892792            -16.669
               549       0.975508031            -16.631        0.211924345             73.506        0.212388427             73.669        0.976744218            -16.669
               550        0.97448126             -16.61        0.212213736             73.453        0.212629487             73.591        0.976952597            -16.723
               551       0.975141991            -16.657         0.21270018             73.437        0.213067818             73.574        0.976715002            -16.761
               552       0.974262123            -16.672        0.213022667             73.439        0.213366296             73.549        0.976732904            -16.775
               553       0.974893874            -16.682        0.213332657             73.421        0.213701387              73.52        0.976578911            -16.815
               554       0.975252164            -16.739        0.213829157             73.348        0.214223407             73.472        0.976488027             -16.81
               555       0.974161729            -16.743         0.21420572             73.315        0.214477167              73.48        0.976519823            -16.852
               556       0.974726505            -16.776        0.214305233             73.291        0.215046697             73.423        0.976298845            -16.917
               557       0.973583844            -16.833         0.21481933             73.249        0.215190631             73.387        0.976390081            -16.923
               558       0.974304195            -16.884        0.215151596             73.219        0.215722067             73.315        0.976212968            -16.974
               559        0.97445134            -16.854        0.215431972             73.209        0.216003186             73.364        0.976135611            -16.956
               560       0.974383941            -16.942        0.215764563             73.152        0.216511076             73.296        0.975955729             -17.03
               561       0.974931352            -16.947        0.216358537             73.158        0.216732498             73.285        0.975829711            -17.001
               562       0.974675297            -17.005        0.216700523             73.067        0.217150063             73.224         0.97579808            -17.085
               563       0.973750892            -17.009        0.217044042             73.058        0.217419187             73.211         0.97588326            -17.082
               564       0.973558877            -17.046        0.217276232             72.996        0.217827256             73.171        0.975803162            -17.147
               565       0.973054613            -17.066        0.217689367             73.035        0.218115845             73.141         0.97574698            -17.134
               566       0.973516446             -17.04         0.21814401             73.037        0.218420448             73.126        0.975648301            -17.162
               567       0.973734406            -17.152        0.218444199             72.929        0.218897356             73.065        0.975529744            -17.209
               568       0.973186051            -17.142        0.218824465             72.939        0.219379416             73.053        0.975429477             -17.25
               569       0.972706083            -17.203        0.219145033             72.893        0.219624928             73.024        0.975397486            -17.268
               570       0.973541221            -17.226        0.219636414             72.862        0.220016041             72.989        0.975223919            -17.311
               571       0.972836597            -17.231        0.219806181             72.856        0.220338252             72.967        0.975191484            -17.358
               572       0.972901114             -17.29        0.220073982              72.82        0.220759144             72.892        0.975143883            -17.353
               573       0.972390146            -17.293        0.220516225             72.788        0.220973681             72.919        0.975080675            -17.398
               574       0.973367116            -17.349         0.22111931             72.755        0.221272106             72.858        0.974937264            -17.406
               575       0.972488454            -17.388        0.221454471             72.714        0.221684053             72.747        0.974954737            -17.482
               576       0.972521676            -17.361        0.221717151             72.682        0.221921454             72.824        0.974875801            -17.483
               577       0.972491492              -17.4        0.222119052             72.695        0.222349322             72.813        0.974733316            -17.481
               578       0.971364975            -17.457        0.222373197             72.613        0.222706268             72.732        0.974725751            -17.571
               579       0.971646022            -17.489        0.222745058             72.569        0.223053004             72.677        0.974671073            -17.589
               580       0.971853015            -17.526        0.223151899             72.556        0.223563338             72.618        0.974542057            -17.632
               581       0.971829053            -17.543        0.223712308             72.513        0.223944231             72.624         0.97440584            -17.689
               582       0.971439302             -17.58        0.223828647               72.5        0.224370456             72.617        0.974351526            -17.657
               583       0.971940555            -17.626        0.224434545             72.462        0.224563777             72.515        0.974293272            -17.711
               584       0.970815513             -17.62        0.224536375             72.464        0.224769152             72.528        0.974286551              -17.7
               585       0.971467047             -17.65        0.224945896             72.381        0.225256885             72.527        0.974155022            -17.761
               586       0.970733833            -17.714        0.225294281             72.386        0.225657705             72.429        0.974092426            -17.776
               587       0.971575793            -17.734        0.225827427             72.325        0.226035517              72.48        0.973927627            -17.807
               588       0.972098841            -17.756        0.226261377             72.303        0.226548101             72.381        0.973779046            -17.892
               589       0.971651663            -17.828        0.226469957             72.262        0.226730841             72.356        0.973779434            -17.876
               590       0.970803085            -17.823        0.226950502             72.236        0.227133476              72.35        0.973713402            -17.911
               591       0.970852789            -17.836        0.227040525             72.212         0.22753771             72.315        0.973651154            -17.935
               592        0.97086778            -17.871        0.227593623             72.189        0.227750893             72.288        0.973554096            -17.978
               593       0.970387098            -17.904        0.228084101             72.152        0.227979089             72.221        0.973520304            -17.996
               594       0.971516536            -17.892        0.228323281             72.158        0.228612618             72.224        0.973307785            -18.054
               595       0.970806601            -17.972        0.228629739             72.112        0.228945821             72.203        0.973268619            -18.046
               596       0.971355147            -17.998        0.229022444             72.074        0.229339069             72.174        0.973146098            -18.074
               597       0.971340341             -18.02        0.229361978             72.049        0.229837784             72.106        0.973019235            -18.147
               598       0.970920793            -18.041        0.229659176             71.986        0.230109104             72.074        0.973046964             -18.16
               599       0.970556305            -18.061         0.23002272             72.002        0.230526436             72.093        0.972905672            -18.166
               600       0.971017079            -18.103        0.230662433             71.972        0.230662433             72.089        0.972807407            -18.154
               601       0.970653583            -18.137        0.230921443             71.903        0.231134227             72.035        0.972779169              -18.2
               602       0.969719281            -18.185        0.231177749              71.87        0.231364131             71.972        0.972738333            -18.261
               603       0.969847114             -18.18        0.231661187             71.808        0.231767896             71.953         0.97264258            -18.329
               604       0.970169231            -18.221        0.231924963              71.81          0.2321654             71.935        0.972517661            -18.338
               605        0.96900857            -18.245        0.232101324             71.831        0.232529265             71.924        0.972473147            -18.306
               606       0.969239032            -18.238        0.232611346             71.862        0.232825688             71.919        0.972368531            -18.302
               607       0.969177116            -18.272         0.23283762              71.75        0.233213212             71.835        0.972306415            -18.438
               608       0.969736991            -18.289        0.233294211              71.79        0.233589847             71.777        0.972196296            -18.433
               609        0.97016208            -18.389        0.233772971             71.712        0.233961445             71.752        0.972062738            -18.445
               610       0.969768937            -18.416        0.234028241             71.675        0.234351787             71.721        0.972004486            -18.477
               611       0.969773459            -18.362        0.234379862             71.721        0.234622843             71.736        0.971897117            -18.501
               612       0.969458444            -18.382        0.234789785             71.638        0.235087316             71.751        0.971805153            -18.544
