!{251R15S620}
!Johanson Technology Inc.
!www.johansontechnology.com
!Test Board Conditions:
!Substrate Type  RO4350B
!Substrate Thickness        20 mil
!Substrate Dk      3.66
!TL Type: GCPW 
!TL Trace Width  34 mil
!TL Gap  10 mil
!Electrode orientation      Horizontal
!DUT TOPOLOGY	SERIES
!Mounting Pad LxW         26x52 mil
! Created Thu Mar 12 17:15:32 2020
# mhz S ma R 50
! 2 Port Network Data from SP1.SP block
! freq  magS11  angS11  magS21  angS21  magS12  angS12  magS22  angS22  
!     
               500      0.0271394359            -96.839        0.998635305             -4.381        0.999110368             -4.414       0.0264850511            -94.741
               501      0.0268853114            -96.989         0.99890011             -4.419        0.998510236             -4.383          0.0262129            -95.516
               502      0.0266473861            -96.736         0.99876362             -4.446        0.998998105             -4.463        0.026103853            -95.264
               503      0.0264017831            -97.397        0.998852382             -4.483        0.998623219             -4.493       0.0259527426            -95.448
               504      0.0260768276            -96.994        0.998746926             -4.477        0.999126449             -4.517       0.0258943346            -95.059
               505      0.0261328114            -96.687        0.998774358             -4.521        0.999128239               -4.5       0.0257120162            -95.237
               506        0.02594933            -97.138        0.999066966             -4.558        0.998490528             -4.557       0.0253557318            -95.505
               507      0.0258435037            -97.518        0.999122508             -4.578        0.998439129             -4.564       0.0254742492            -95.197
               508      0.0255126048             -97.39        0.999067892             -4.565        0.998655163             -4.596        0.025240898            -95.282
               509       0.025360394            -97.861        0.998660784             -4.591        0.998834067             -4.628       0.0249836563             -95.51
               510      0.0253907445            -96.876        0.998333017             -4.609        0.999259842             -4.637       0.0246817208            -95.442
               511      0.0251440778            -97.344        0.998945883             -4.644        0.998972335             -4.663       0.0246823048            -95.147
               512      0.0248036808            -97.189        0.998961114             -4.682        0.998948693             -4.673       0.0245904306            -95.561
               513       0.024849923            -97.254        0.998824527             -4.694         0.99911861             -4.732       0.0242507429            -95.183
               514      0.0244592465            -97.398        0.999110273             -4.734         0.99854749             -4.708       0.0242573344            -95.907
               515      0.0244733815            -97.743        0.998768713             -4.767        0.998983878             -4.763       0.0240294582            -95.527
               516      0.0246145117             -98.24        0.998826507             -4.693        0.998565654             -4.778       0.0238666368            -95.622
               517      0.0241449363            -97.661        0.998655881             -4.796        0.999100127             -4.812        0.023657893            -95.629
               518      0.0238400906            -97.608        0.998230195             -4.798        0.999381228             -4.779       0.0236787026            -95.354
               519      0.0241507396            -97.261        0.998899704             -4.829        0.999077974             -4.767       0.0234628322            -95.388
               520      0.0236506498            -97.714         0.99881459             -4.851        0.999015042             -4.819       0.0232993109             -95.78
               521      0.0233722064            -97.653        0.999311908             -4.846        0.998273891             -4.877       0.0229086614            -95.769
               522      0.0234154697            -97.842        0.998682923             -4.929        0.999044593             -4.869       0.0229220193             -95.97
               523      0.0231889138            -97.522        0.999020973             -4.917        0.999003031             -4.949       0.0228470644            -95.838
               524      0.0230744558            -98.238        0.998908897             -4.926        0.998952369             -4.934       0.0226011983            -95.497
               525      0.0232407426            -97.904        0.998504439             -4.932        0.999119304             -4.924       0.0225190466            -95.627
               526      0.0227147015             -97.71        0.998730548             -4.939        0.999136878             -4.936       0.0223129521            -96.035
               527      0.0226307447            -98.204        0.999224895             -5.014        0.998132038              -4.99       0.0220342791            -96.276
               528      0.0223062349            -98.163        0.998774444             -5.018        0.998985929              -5.01       0.0218739025            -96.231
               529      0.0223720016            -97.643        0.998629844              -5.02        0.999368694             -5.066       0.0217547873            -95.474
               530      0.0221398141            -98.158        0.999460809             -5.025        0.997870007             -5.049       0.0216433244            -95.628
               531      0.0217925528            -98.824        0.999001928             -5.069         0.99885226             -5.024       0.0216624766            -95.649
               532      0.0219322155            -98.515        0.999344795              -5.08        0.998264678             -5.131       0.0213787597            -95.633
               533      0.0220497812            -98.207        0.999153487             -5.138        0.998701342             -5.147       0.0212865012            -95.833
               534      0.0215819346            -98.442         0.99903297             -5.116        0.998613186             -5.131       0.0209189736            -96.475
               535      0.0212943203             -98.84        0.999401697             -5.155        0.998008368               -5.2       0.0208840047            -95.799
               536      0.0215375828            -97.949        0.999076079             -5.167        0.998882744             -5.156       0.0209072523            -96.279
               537      0.0212229102            -97.996        0.999322661             -5.178        0.998581316             -5.241       0.0205236659            -96.016
               538      0.0207167812            -98.288        0.999212892             -5.248        0.998752958             -5.214       0.0202195869            -96.275
               539      0.0208005629              -98.8        0.998314749             -5.198        0.999290566             -5.285       0.0201453625            -96.123
               540       0.020474587            -98.845        0.998887089             -5.273        0.998882374             -5.277       0.0200131361            -96.688
               541      0.0204134845            -98.384        0.998970916             -5.303        0.999165188             -5.305       0.0198891922            -96.048
               542      0.0205813156            -99.019         0.99887302             -5.307        0.998985496             -5.285       0.0199146709            -96.081
               543      0.0202184368            -98.732        0.999142136              -5.35        0.998857591             -5.351        0.019769586            -96.292
               544      0.0200866518            -98.622        0.999084451             -5.365        0.999181996             -5.358       0.0195459845            -95.633
               545      0.0200811707              -98.9        0.999193025             -5.363        0.998785615             -5.376       0.0193014097             -95.84
               546      0.0200083345            -98.644        0.999470405             -5.351          0.9979877             -5.378       0.0194652927            -96.325
               547      0.0195422549             -98.71        0.999244979             -5.391        0.998857362               -5.4       0.0191811515            -96.302
               548      0.0195708777            -98.961        0.999354662             -5.426        0.998183308             -5.436       0.0189347817            -96.693
               549      0.0191204988            -99.026        0.998590929             -5.456        0.999502907             -5.437       0.0187628677            -95.484
               550      0.0192371148            -99.378        0.999399535             -5.485        0.998307506             -5.489       0.0189426152             -96.28
               551       0.019170772            -99.753        0.999126936              -5.46        0.998803263             -5.509       0.0184009228            -95.788
               552      0.0187107595           -100.134        0.999257383             -5.529        0.998576556             -5.495       0.0183248917            -95.982
               553      0.0187435696           -100.046        0.999023635             -5.506        0.998895376             -5.495       0.0181657069            -96.034
               554      0.0185337389            -99.403        0.998489357              -5.54         0.99920291             -5.561       0.0179561424            -97.187
               555      0.0184626051            -99.278        0.998601079             -5.604        0.999368556             -5.552       0.0178481407            -96.253
               556      0.0184650007            -99.265          0.9992726             -5.597        0.998778372             -5.599       0.0178381302            -96.375
               557      0.0182110036             -99.55        0.998769177             -5.616        0.999292737             -5.606       0.0175927561            -96.149
               558      0.0179998007             -99.89        0.999145407             -5.614        0.998768867             -5.562       0.0173427393            -96.483
               559      0.0177605057            -99.106        0.999377593             -5.661        0.999078189             -5.637       0.0173183028             -95.83
               560      0.0176614554            -99.814        0.998975161             -5.654        0.999173069             -5.652       0.0170559726            -96.154
               561       0.017665496            -99.767         0.99829084             -5.721        0.999357983              -5.67       0.0170402451            -97.019
               562      0.0173191688            -99.606        0.999259408             -5.737        0.999133098             -5.684       0.0169834941            -96.031
               563      0.0172005275            -99.334        0.999060908             -5.785        0.999268542             -5.751       0.0167722669            -96.574
               564      0.0171178424            -99.797        0.999274425             -5.759        0.998900366             -5.732       0.0167108685            -96.556
               565      0.0172913094            -99.989        0.998770676             -5.745        0.999024256             -5.777       0.0164126188            -97.276
               566      0.0169596023            -99.889        0.998945547             -5.789        0.999111862             -5.772       0.0164046008            -97.028
               567      0.0167942929           -100.277        0.998839191             -5.803        0.999136844             -5.826       0.0160015379            -96.721
               568      0.0168276571           -100.249        0.998789582             -5.819        0.999260738              -5.86       0.0158698804            -95.983
               569      0.0164096753           -100.108        0.999123415             -5.858        0.998897065             -5.842       0.0157597741            -97.208
               570      0.0162574874           -100.414        0.999378703             -5.854        0.998671084             -5.876        0.015741765            -96.506
               571      0.0160542199           -100.814        0.999392088             -5.896        0.998472728             -5.903       0.0156220926            -96.723
               572       0.016075879           -100.285        0.999340363             -5.962         0.99874169             -5.972       0.0152818076            -96.557
               573      0.0159012646           -100.515        0.999255996             -5.915        0.998685773             -5.954       0.0151768507            -97.124
               574      0.0156783581           -100.698        0.999136281             -6.008        0.999327709             -5.946       0.0150418267            -95.418
               575      0.0157462403            -100.87        0.998937287             -5.992         0.99907266             -5.959       0.0149736223            -96.932
               576      0.0156007223           -100.751            0.99864             -5.989        0.999268719             -5.962       0.0149707896             -97.31
               577      0.0152595827           -100.705        0.999283361             -6.052        0.998707281             -6.029       0.0145895755            -97.335
               578      0.0151876892           -101.022        0.998901699             -6.029        0.999314644             -6.032       0.0144757709            -96.171
               579      0.0152368188           -102.068        0.998948395             -6.075        0.998913088             -6.048       0.0144908648            -96.864
               580      0.0147740626           -101.095        0.999025408             -6.121        0.999104888             -6.095       0.0143466312            -97.414
               581       0.014656418           -101.282        0.998930311             -6.147        0.999191375             -6.128       0.0140080551            -97.067
               582      0.0145272251           -101.196        0.998850209             -6.102        0.999360109             -6.112       0.0139937034            -96.656
               583      0.0144627749           -101.162        0.998955117             -6.122        0.999308487             -6.154       0.0138309377            -96.598
               584      0.0143667432           -101.217        0.999262018              -6.15        0.999226585             -6.181       0.0139527024             -96.14
               585      0.0142188269            -101.62        0.998305394             -6.177        0.999541586             -6.199        0.013646264            -96.539
               586       0.014283604           -101.255        0.998825685             -6.221        0.999319246             -6.189       0.0136910829            -97.171
               587      0.0138829073           -101.661        0.999053448             -6.259        0.999234691             -6.215       0.0131531697            -96.453
               588      0.0137441837           -101.515        0.998962193             -6.289        0.999318441             -6.224       0.0130833498            -96.735
               589      0.0137202681           -101.808        0.998542828             -6.262         0.99947261             -6.325       0.0129886076             -96.63
               590      0.0134659115           -102.605        0.999023504             -6.339        0.999234697             -6.228       0.0128302688            -96.142
               591      0.0134991505           -102.195        0.999052563             -6.289        0.999144009             -6.288       0.0127881122            -96.765
               592      0.0131131509           -102.486        0.999290097             -6.347        0.998932766             -6.317       0.0126112187             -96.81
               593      0.0130359905           -100.836        0.999397219             -6.337        0.999272272              -6.32       0.0125992309            -96.616
               594      0.0129757429           -102.784        0.998815748             -6.349        0.999280082             -6.336       0.0125150397            -97.157
               595      0.0126028841            -102.42        0.999398172             -6.392          0.9989379             -6.396       0.0123415566            -96.853
               596      0.0128115006           -102.961        0.998619403             -6.399         0.99922456             -6.394       0.0120281823            -97.404
               597      0.0125345419            -103.18        0.999423704             -6.403        0.998573107              -6.44       0.0118061546            -96.624
               598      0.0125360502           -102.895        0.998442305             -6.449        0.999426071             -6.445       0.0118907904            -97.484
               599      0.0123547397           -103.882           0.998996             -6.473        0.998906754             -6.477       0.0116582563            -97.771
               600       0.012284105           -103.157        0.998933938             -6.473        0.999258539             -6.433       0.0117677523            -97.119
               601       0.012024599           -102.617        0.998562956             -6.504        0.999460422             -6.559       0.0113023981            -97.496
               602       0.011837111           -103.778        0.999199986             -6.556        0.999006213             -6.491       0.0112355858            -96.897
               603      0.0117655736           -103.296        0.998461576             -6.548        0.999540985             -6.536       0.0112205232            -96.865
               604      0.0117633949           -103.302        0.999344044              -6.58         0.99890199             -6.531       0.0109139681            -96.444
               605       0.011444722           -103.013        0.998604451              -6.58        0.999551666             -6.578        0.011048549            -97.154
               606      0.0117869527           -103.684        0.998573854             -6.579        0.999242255             -6.632       0.0107251047            -97.833
               607      0.0113079613           -103.817        0.999110938             -6.596        0.999115309             -6.605       0.0106239083            -97.251
               608      0.0114673637           -104.685         0.99926169              -6.64        0.998840602             -6.609       0.0108258894            -96.785
               609      0.0111715666           -104.032         0.99839231             -6.657        0.999555072             -6.615       0.0103350856            -96.184
               610       0.010863944           -104.519        0.999157077             -6.629        0.999320471             -6.715       0.0104444967            -96.002
               611      0.0110419919            -103.22        0.999296982             -6.704        0.999051039             -6.661       0.0102387615            -97.086
               612       0.010528289               -105        0.999462451             -6.713        0.998749897             -6.711       0.0100892248            -96.528
