!{251R15S0R8}
!Johanson Technology Inc.
!www.johansontechnology.com
!Test Board Conditions:
!Substrate Type  RO4350B
!Substrate Thickness        20 mil
!Substrate Dk      3.66
!TL Type: GCPW 
!TL Trace Width  34 mil
!TL Gap  10 mil
!Electrode orientation      Horizontal
!DUT TOPOLOGY	SERIES
!Mounting Pad LxW         26x52 mil
! Created Thu Mar 12 16:29:40 2020
# mhz S ma R 50
! 2 Port Network Data from SP1.SP block
! freq  magS11  angS11  magS21  angS21  magS12  angS12  magS22  angS22  
!     
               500       0.973782391            -19.635        0.226184019             70.459        0.226731529             70.513        0.972661928            -19.634
               501       0.973640575              -19.7        0.226672411              70.34        0.227378116             70.474        0.972520275            -19.706
               502       0.973528462             -19.75        0.226985781             70.271        0.227666249             70.448        0.972632222            -19.762
               503       0.973435992            -19.763         0.22751362             70.286         0.22801184             70.404        0.972651811            -19.785
               504       0.973480285            -19.763        0.227733626             70.279        0.228416336             70.432        0.970570664            -19.782
               505       0.973312705            -19.845        0.228219312             70.228        0.229008917             70.313        0.971409603            -19.846
               506       0.973167247            -19.866         0.22873756              70.22        0.229370459              70.32        0.971711816             -19.86
               507       0.973196486            -19.913         0.22929814             70.089        0.229615146             70.272        0.971069988             -19.94
               508       0.972876598            -19.972        0.229777636             70.084        0.230280814             70.237        0.972204791            -19.944
               509       0.972906949            -19.954        0.230049506             70.095        0.230712596             70.211         0.97100464            -19.982
               510       0.972657664            -20.012         0.23073316             70.022        0.230998954             70.173        0.972209842            -20.032
               511       0.972713195             -20.03        0.230746333             70.017        0.231491371             70.122        0.970699503            -20.087
               512       0.972627102            -20.108        0.231151314              69.97         0.23192436             70.083        0.970166707            -20.102
               513       0.972506455            -20.101        0.231548778             69.921        0.232376653             70.082         0.97049319            -20.141
               514       0.972267836            -20.235         0.23239989             69.838        0.232801578             69.952        0.971484596            -20.235
               515       0.972253551              -20.2        0.232664186             69.856         0.23330795              69.98        0.970575977            -20.224
               516       0.972132709            -20.285        0.233171548             69.778        0.233735972             69.867        0.970902358            -20.309
               517       0.972081877             -20.31        0.233616141             69.768         0.23399299             69.842         0.97085159            -20.314
               518       0.971962207            -20.385        0.234045006             69.663        0.234530526             69.825         0.97039685            -20.378
               519       0.971781289            -20.375        0.234378911             69.699        0.234919211             69.831        0.970774887            -20.361
               520       0.971716351            -20.421         0.23487647             69.641        0.235445021             69.743        0.970598265            -20.424
               521       0.971669385            -20.412         0.23518982              69.63        0.235731988             69.747          0.9701045            -20.462
               522       0.971545185            -20.473        0.235647591             69.595        0.236272406             69.696        0.969422296            -20.518
               523        0.97144037            -20.586        0.236083778             69.463        0.236764261             69.671        0.969764199            -20.512
               524       0.971351404            -20.582        0.236470175             69.514        0.237069876             69.572        0.969452137            -20.598
               525       0.971260934            -20.622        0.236884105             69.432        0.237621603             69.588        0.968915539            -20.597
               526       0.971106602            -20.616        0.237392452             69.452        0.237939698             69.583        0.968984671            -20.661
               527       0.971047377            -20.689        0.237706151             69.385        0.238308986             69.471        0.969037133            -20.728
               528       0.970784116            -20.751        0.238134688             69.363        0.239013627             69.416        0.969555472            -20.735
               529       0.970827452            -20.747        0.238611872             69.297        0.239244547             69.448        0.968817663            -20.769
               530       0.970592858             -20.82        0.239131667             69.298        0.239710518             69.373        0.969364456            -20.807
               531         0.9706227            -20.817        0.239662698             69.213        0.239994033             69.353        0.968613335            -20.892
               532       0.970343812             -20.89        0.240090868             69.151         0.24047816             69.334        0.969450504            -20.925
               533       0.970437858            -20.922        0.240335392             69.135        0.240889423             69.264        0.967983001            -20.943
               534       0.970077204            -20.969        0.240883082             69.102        0.241438375             69.222        0.969518944             -20.97
               535       0.970102272            -20.955        0.241222338             69.131        0.241889781             69.199        0.968762951            -20.981
               536       0.970090774             -21.05        0.241525158             68.987        0.242304999              69.13        0.967636795            -21.089
               537       0.969898786            -21.058        0.242229156             68.994        0.242787552             69.131        0.968336753            -21.089
               538       0.969649474            -21.121         0.24275309             68.984        0.243144677             69.069        0.968868344            -21.126
               539       0.969746688            -21.148        0.243113069             68.899        0.243617401             69.008        0.967961993            -21.181
               540       0.969650552            -21.179        0.243621296             68.901        0.243958104             68.958          0.9676432            -21.216
               541       0.969455821            -21.231        0.243965279             68.837        0.244386956              68.95        0.968340336            -21.245
               542       0.969472926            -21.275        0.244222507             68.801        0.244700967             68.927         0.96702051            -21.267
               543       0.969253389            -21.316        0.244814608             68.731        0.245265989             68.857        0.968138137            -21.344
               544       0.969085205             -21.34        0.245138748             68.735        0.245901945             68.851        0.967635879            -21.349
               545       0.969064232             -21.36        0.245698533             68.662        0.246179885              68.83        0.967614938            -21.391
               546       0.969012246            -21.421        0.245996691             68.614        0.246450252             68.773        0.966338462            -21.488
               547       0.968402676            -21.486        0.246749329             68.625        0.247175818             68.734         0.96829119            -21.451
               548        0.96866671            -21.557        0.246987159             68.556        0.247499528             68.672        0.967329371            -21.495
               549        0.96857692            -21.525        0.247163374             68.561        0.247904332             68.655        0.966683077            -21.572
               550       0.968438162            -21.611        0.247868818             68.514        0.248354421             68.624        0.966878482            -21.557
               551       0.968469035            -21.609        0.248133693             68.415         0.24864844              68.55        0.966352867            -21.676
               552       0.968282456            -21.673        0.248486079              68.42         0.24920231             68.562         0.96638919            -21.623
               553       0.968198625            -21.704        0.248922676             68.319        0.249640165             68.526        0.965638253            -21.742
               554       0.968055927            -21.742        0.249517177              68.32        0.249890904             68.464        0.966274344            -21.783
               555       0.967976697            -21.808        0.249956769             68.272        0.250417631             68.414        0.966306504            -21.762
               556       0.967829762            -21.834        0.250321973             68.245        0.250985697             68.392        0.965603815            -21.821
               557       0.967656578            -21.832        0.250796374              68.23        0.251403462             68.403        0.966209389            -21.823
               558        0.96772764            -21.937        0.250988108             68.128        0.251769516             68.238         0.96427997            -21.908
               559       0.967439041            -21.892        0.251752394             68.184        0.252100443              68.29        0.966103397            -21.936
               560       0.967306275            -21.955        0.252094868             68.162        0.252530597             68.237        0.965859609            -21.973
               561       0.967281034            -22.005        0.252436804             68.095        0.253018731             68.192        0.964834163            -22.028
               562       0.967134663            -22.036        0.252951319             68.049        0.253301026             68.172        0.965688254            -22.047
               563       0.967067256             -22.07        0.253254213              67.95         0.25401343             68.098        0.964843063            -22.142
               564       0.967016924            -22.111        0.253707949             67.958        0.254146466             68.114         0.96457072            -22.099
               565       0.966821663            -22.162         0.25421219             67.907         0.25459295             68.062        0.965153462            -22.171
               566        0.96667049            -22.237        0.254523836             67.869         0.25528686             67.977        0.964669307            -22.219
               567       0.966675785            -22.244        0.255082603             67.811         0.25540585             67.935        0.965118943            -22.248
               568       0.966528503            -22.258        0.255484564             67.776        0.256044037             67.915        0.964638666            -22.294
               569       0.966413805            -22.317        0.256072608               67.7        0.256367593             67.887        0.964524193            -22.357
               570       0.966149185            -22.354        0.256415451             67.718        0.256976963             67.844        0.964815322            -22.386
               571       0.966082859            -22.444        0.256663656             67.665        0.257284946               67.8        0.964304906            -22.421
               572       0.966099888            -22.474         0.25690469             67.623        0.257585868             67.748        0.963212327            -22.469
               573       0.965934951            -22.462        0.257660521             67.601        0.258165307             67.708        0.964157271            -22.489
               574       0.965783885            -22.492        0.258035794             67.543        0.258660406             67.678        0.964117475            -22.554
               575       0.965648771            -22.544        0.258415877             67.541        0.258922143             67.677        0.963649704            -22.579
               576       0.965565663            -22.536        0.258870053             67.555          0.2591981             67.674        0.964010608            -22.544
               577       0.965037939            -22.674        0.259354858             67.437        0.259952733             67.532        0.964815756            -22.666
               578       0.965406857             -22.66        0.259782791             67.412        0.260171894             67.512        0.963186482            -22.685
               579       0.965143856            -22.708         0.26028075             67.399         0.26079067             67.444        0.963811381            -22.736
               580       0.965100767            -22.758        0.260688973             67.307        0.261079433             67.462          0.9636574            -22.744
               581       0.965022001            -22.764        0.261028071             67.311        0.261449138             67.408        0.962802512            -22.822
               582       0.964643218            -22.796         0.26152711             67.254        0.262099816             67.385        0.964088085             -22.84
               583       0.964750379            -22.875        0.261887613             67.195        0.262400681             67.336        0.962642337            -22.906
               584        0.96463421            -22.845        0.262550385             67.173        0.262610847             67.319         0.96341335            -22.933
               585       0.964626603            -22.944        0.262911289             67.142        0.262971834             67.229        0.961854176            -22.961
               586       0.964529361            -22.962        0.263066443             67.114        0.263369484             67.196        0.961978692            -23.011
               587       0.964285735             -23.02        0.263849176             67.052        0.263970711             67.189         0.96262191            -23.029
               588       0.964086198            -23.032        0.264220108             67.075        0.264676794             67.095        0.962976892             -23.06
               589       0.964057746             -23.08        0.264608048                 67        0.264729932             67.129        0.962394314            -23.094
               590       0.964001716            -23.092        0.264775506             66.946        0.265324777             67.078        0.961673851            -23.161
               591       0.963800276            -23.153        0.265544338             66.908        0.265758428             67.025        0.962358854            -23.189
               592       0.963610768            -23.215        0.265736765             66.852        0.266441362             66.989        0.962169629            -23.225
               593       0.963629463            -23.242         0.26650789             66.831         0.26635452              66.93         0.96196677            -23.256
               594       0.963332429            -23.287         0.26673265             66.814         0.26707066             66.843        0.962556387            -23.332
               595       0.963291366            -23.293        0.267151531             66.786        0.267336137             66.886        0.962072205            -23.334
               596       0.963317092            -23.325        0.267589622             66.782         0.26768206             66.767        0.961101524            -23.394
               597       0.963204327            -23.408        0.267928199             66.654        0.268175084             66.778        0.960989018             -23.42
               598       0.962982896            -23.413        0.268236932             66.668        0.268700561             66.746        0.961542697            -23.454
               599        0.96278852            -23.442        0.268955793             66.658        0.269141645             66.731        0.961680706            -23.456
               600       0.962839206            -23.478        0.269186804             66.608        0.269279794              66.71        0.960514148            -23.503
               601       0.962535146            -23.487        0.269691089             66.541         0.27012613             66.649        0.961427624            -23.603
               602        0.96236259            -23.592        0.270326569             66.512        0.270326569              66.58        0.961365941             -23.63
               603       0.962393762             -23.61        0.270490987             66.472        0.270646739             66.563        0.960622599            -23.674
               604       0.962334852            -23.656        0.270723661             66.419        0.271160368             66.503        0.960453215            -23.701
               605       0.962181804             -23.71        0.271367066             66.374        0.271523323             66.458        0.960411031            -23.752
               606       0.962002874            -23.741        0.271629147             66.331        0.272129967             66.475        0.960011354            -23.783
               607       0.961823667            -23.782        0.272267284             66.291        0.272518167              66.38        0.961048841            -23.807
               608        0.96177401            -23.824         0.27281801             66.275         0.27281801             66.337        0.959782964            -23.885
               609       0.961619613            -23.848        0.273151326             66.302         0.27330861             66.324        0.959849875            -23.856
               610       0.961650791            -23.851        0.273348939             66.194        0.273506337             66.308        0.959439056            -23.939
               611        0.96130617            -23.929        0.273975501             66.173        0.274196388             66.277        0.960310615            -23.923
               612       0.961225062            -23.963        0.274457489              66.15        0.274615525             66.198        0.960119047            -23.978
