! Created Tue May  5 12:29:12 2020
# mhz S ma R 50
! 2 Port Network Data from SP1.SP block
! freq  magS11  angS11  magS21  angS21  magS12  angS12  magS22  angS22  
!     
               500       0.993116048             -10.18        0.107460783             79.576        0.107349494              79.45        0.993230392            -10.157
               501       0.993344748            -10.146        0.107745713             79.529         0.10753504             79.498        0.993687897            -10.165
               502       0.993687897            -10.183        0.107919519             79.517        0.107807754             79.431        0.992658807             -10.19
               503       0.993230392            -10.182        0.108031399             79.533        0.107969229             79.452        0.993230392            -10.212
               504       0.992887401            -10.247        0.108267972             79.503        0.108093605             79.431        0.993116048            -10.211
               505       0.993459118            -10.257        0.108580041              79.48        0.108180753             79.409        0.992887401            -10.208
               506       0.993719628            -10.238        0.108696077             79.416        0.108683563             79.387        0.992919107            -10.285
               507       0.993459118            -10.314        0.108867939              79.39        0.108880473             79.446        0.992887401             -10.27
               508       0.993116048            -10.295        0.109219454             79.357        0.108955711             79.361        0.993001718            -10.306
               509       0.993541923            -10.281        0.109379566             79.362        0.109253711             79.383        0.993198825            -10.336
               510       0.993242009            -10.313        0.109699609             79.386        0.109510328             79.303        0.993470738            -10.371
               511       0.993312983            -10.349        0.109846472             79.328        0.109795897             79.339        0.993427349            -10.382
               512       0.992201776            -10.349        0.110052522             79.355        0.109900584             79.277        0.993344748            -10.379
               513       0.993189549            -10.404        0.110276288             79.286        0.110136721             79.267          0.9933039            -10.362
               514       0.992970648            -10.413         0.11046798              79.29        0.110442546             79.307        0.993542413            -10.416
               515       0.993230392            -10.441        0.110713352             79.197        0.110535047             79.231        0.992887401            -10.443
               516       0.993255172             -10.42        0.110971341             79.258        0.110818135             79.286        0.993255172            -10.446
               517       0.992995648            -10.432        0.111121308             79.223        0.110980671             79.217        0.993338676            -10.489
               518       0.992665732            -10.537        0.111417403             79.126         0.11119955             79.217        0.993466049            -10.517
               519       0.993220616            -10.479        0.111466849             79.192        0.111402702             79.155        0.993106274            -10.553
               520        0.99327839            -10.541        0.111730306             79.121        0.111678864             79.166        0.992935383            -10.547
               521       0.993302954            -10.557        0.111951967             79.122        0.111848902             79.163        0.992845626            -10.544
               522       0.993140463             -10.55        0.112204604             79.122        0.111985212             79.151         0.99302613            -10.563
               523         0.9931427            -10.584        0.112269465             79.111        0.112243617             79.068        0.992914047            -10.584
               524        0.99338913            -10.627        0.112465522             79.017        0.112517326             79.102        0.992246107            -10.639
               525       0.992697196            -10.611        0.112918941             79.106        0.112827975             79.074        0.993268802            -10.647
               526         0.9933561            -10.646        0.112993891              79.03        0.113032924             79.077        0.991984676            -10.627
               527       0.992980828             -10.66         0.11319855             79.005         0.11319855              79.05        0.992980828            -10.687
               528        0.99211421            -10.672        0.113543341             78.971        0.113360478             79.044        0.993257082            -10.678
               529       0.993034274            -10.647        0.113700988             78.976         0.11367481             79.057        0.992805646            -10.731
               530       0.993064193            -10.728        0.114005899              78.96        0.113769886             78.924        0.992492704            -10.741
               531       0.992975972            -10.732        0.114140229             78.986        0.114008896             79.014        0.992861658             -10.72
               532       0.993076707            -10.745        0.114388613             78.854        0.114270149             78.978        0.992390951            -10.806
               533       0.993101925            -10.794        0.114562854             78.838        0.114576044             78.957        0.992187665            -10.794
               534       0.993016892            -10.792        0.114790682             78.845        0.114737831             78.938        0.992331177            -10.797
               535       0.992948756            -10.802        0.115007678             78.842         0.11502092             78.944        0.992491592            -10.814
               536       0.993025862            -10.825        0.115188881             78.809        0.115162361             78.877        0.992111673            -10.868
               537       0.992822915            -10.866        0.115510587             78.799        0.115258189             78.852        0.992480065            -10.854
               538       0.992725492            -10.857        0.115672248             78.833        0.115565759              78.86        0.992611207            -10.836
               539       0.992316014            -10.899         0.11583772             78.779        0.115784387             78.856        0.992773098            -10.869
               540       0.992931405            -10.935        0.115989652             78.727        0.116056441             78.811        0.991903099            -10.889
               541       0.992765926              -10.9        0.116371562             78.703        0.116170769             78.841        0.992308845            -10.934
               542       0.992591964            -10.934        0.116592538             78.727        0.116485201              78.83        0.992591964            -10.928
               543       0.992759972            -11.012        0.116665987             78.667        0.116746605             78.744        0.992188658            -10.961
               544       0.992707408            -10.967        0.116969131             78.614        0.116955665             78.757        0.992136125            -11.022
               545       0.992797453             -11.01        0.117154953             78.647        0.117047099             78.705        0.991769286            -10.998
               546       0.992087551            -11.036         0.11736808             78.641        0.117206042             78.682        0.991744955            -11.029
               547       0.992430265            -11.059        0.117503283              78.58        0.117557408             78.699        0.991630783            -11.055
               548       0.992711808            -11.051        0.117780444             78.558        0.117766885             78.695         0.99168373             -11.05
               549       0.992387866              -11.1        0.118135778             78.538        0.117877644             78.587         0.99227362            -11.128
               550       0.991744955            -11.092        0.118317777             78.536        0.117991304              78.62        0.991859141            -11.115
               551       0.991630783            -11.134        0.118467712             78.483        0.118249687              78.59        0.991744955            -11.153
               552       0.992201776            -11.134        0.118850223             78.496        0.118576875             78.586        0.992201776            -11.172
               553       0.991630783            -11.163         0.11883654             78.469        0.118645153             78.585        0.991516624            -11.156
               554       0.991630783            -11.204        0.119151633             78.456        0.119028237             78.492        0.991744955            -11.217
               555       0.991859141              -11.2        0.119385065             78.458        0.119179072             78.538        0.992201776            -11.207
               556       0.991600019            -11.265        0.119642788             78.377        0.119340135             78.511        0.992513737            -11.264
               557       0.991973339            -11.234        0.119770538             78.408         0.11956388             78.463        0.990946025            -11.261
               558       0.991973339            -11.249        0.119936121             78.441        0.119811912             78.485        0.991288345             -11.25
               559       0.991973339            -11.286        0.120309522             78.379        0.120088107             78.417        0.991973339            -11.304
               560       0.991516624            -11.319        0.120420382             78.323        0.120157255             78.386        0.991288345            -11.317
               561       0.991973339            -11.296        0.120614633             78.374        0.120461981             78.393        0.991060119            -11.352
               562       0.990946025             -11.36        0.120767479             78.286        0.120642409             78.378        0.990831945            -11.385
               563       0.991288345            -11.357        0.121018008             78.285        0.120823107             78.335        0.991174225            -11.391
               564       0.991402478            -11.377        0.121283019             78.266        0.121115576             78.366        0.990717878            -11.396
               565       0.991288345            -11.413        0.121478662             78.253        0.121422732             78.379        0.991174225             -11.41
               566       0.992087551            -11.451        0.121772718             78.202        0.121646607             78.313        0.991288345            -11.428
               567       0.990603824            -11.456        0.121800761             78.199        0.121716653             78.238        0.991288345            -11.453
               568       0.991288345            -11.461        0.122179966             78.222        0.122025333             78.268        0.990946025            -11.458
               569       0.990717878            -11.496        0.122377056             78.206        0.122039382             78.192        0.991174225            -11.537
               570       0.990946025            -11.532        0.122503924             78.163        0.122405237             78.216        0.990375755            -11.534
               571       0.991288345            -11.563        0.122828741             78.149         0.12246162             78.131        0.990717878            -11.573
               572       0.990147739            -11.537        0.122970234             78.134        0.122645043             78.147        0.990375755            -11.572
               573       0.991402478            -11.576        0.123225333             78.056        0.123012714             78.109        0.990717878            -11.595
               574       0.990831945            -11.587        0.123623205             78.097        0.123069376             78.138         0.99026174            -11.621
               575       0.991174225            -11.643        0.123665911             77.981        0.123452532              78.08        0.990375755            -11.632
               576       0.990717878            -11.603        0.123893922             78.036        0.123495178             78.075        0.990375755             -11.68
               577       0.990946025            -11.623        0.123893922             78.041        0.123822623             78.065         0.99003375            -11.676
               578       0.990603824            -11.673        0.124293953             77.985        0.123893922             78.064        0.990603824            -11.714
               579       0.990603824            -11.697        0.124594824             77.994        0.124265336             78.001        0.990603824            -11.712
               580        0.99026174            -11.728        0.124781442             77.903        0.124408485              77.98        0.989919775            -11.745
               581       0.990603824            -11.712        0.124982728             77.958         0.12458048             78.004         0.99003375            -11.756
               582       0.990375755            -11.748        0.125227583             77.917        0.124910803             77.997        0.989691864             -11.76
               583       0.990717878            -11.748        0.125516263             77.915        0.125069093             77.971        0.989805813            -11.786
               584       0.990717878            -11.775        0.125588537             77.879        0.125213167             77.919        0.989122315            -11.814
               585       0.991060119            -11.786        0.125907036             77.852        0.125472919             77.897        0.989919775            -11.853
               586       0.989350095            -11.831        0.126081103             77.843        0.125574079             77.912        0.989919775            -11.846
               587        0.99026174            -11.829        0.126313567              77.84        0.125878048             77.879        0.989464005             -11.88
               588       0.989577928            -11.884          0.1263863             77.816        0.126037564             77.817        0.989122315            -11.893
               589       0.990603824            -11.882        0.126765187             77.832        0.126459075             77.779        0.989919775            -11.913
               590       0.990375755            -11.896        0.126925826             77.699        0.126415405              77.82        0.989805813            -11.958
               591       0.989691864            -11.918        0.127291675             77.729        0.126721411             77.785        0.989691864            -11.942
               592       0.989805813            -11.938        0.127379635             77.762        0.126896604             77.727        0.989464005            -11.983
               593       0.989236199            -11.991        0.127467656             77.637        0.127115936             77.761        0.989464005            -11.991
               594       0.989577928            -11.951        0.127776209             77.671        0.127408969             77.755        0.988780744            -12.015
               595       0.989691864             -11.99         0.12805602             77.621        0.127511689             77.736        0.988894588            -12.095
               596        0.99026174            -12.078        0.128203535             77.668        0.127790921             77.687        0.989236199            -12.046
               597        0.99003375            -12.026        0.128321669             77.621        0.128100257             77.679        0.989008445            -12.078
               598       0.989919775            -12.062        0.128676725             77.593        0.128144509             77.604        0.988553095            -12.145
               599        0.99003375             -12.06        0.128943662             77.578        0.128513869              77.66        0.988894588            -12.142
               600       0.989805813            -12.109        0.129255788             77.558        0.128691541             77.652         0.99003375             -12.17
               601       0.989350095            -12.141        0.129389788             77.572        0.128721176             77.594        0.989236199             -12.16
               602       0.989122315            -12.156        0.129538839             77.477        0.129017909             77.576        0.989008445            -12.205
               603       0.989122315            -12.164        0.129837457             77.516        0.129211152             77.534        0.988666913            -12.167
               604       0.989805813            -12.208        0.129912219             77.447         0.12956867             77.492        0.988780744            -12.257
               605       0.989350095            -12.216        0.130166732             77.481        0.129777678              77.51        0.989350095            -12.238
               606       0.989805813            -12.236        0.130481818             77.398        0.129972059             77.469        0.989122315            -12.294
               607       0.989008445            -12.271        0.130451777             77.403        0.130106801             77.443        0.988211719             -12.28
               608       0.988211719            -12.319        0.130918192             77.313        0.130301675             77.408        0.989236199            -12.337
               609       0.989577928            -12.332        0.131038828              77.39        0.130632128             77.385        0.988666913            -12.354
               610       0.989691864            -12.341        0.131325783             77.286          0.1307525             77.347        0.988325498            -12.414
               611       0.988780744            -12.419        0.131356026              77.38        0.131084095             77.287        0.989008445            -12.336
               612       0.988894588            -12.397        0.131749811             77.323        0.131204884             77.263        0.989008445            -12.462
               613       0.989122315            -12.447        0.131977531             77.271        0.131552771             77.267         0.98843929            -12.466
               614       0.988325498            -12.428        0.132144776             77.235        0.131567917              77.23        0.988666913            -12.488
