! Created Tue May  5 12:31:24 2020
# mhz S ma R 50
! 2 Port Network Data from SP1.SP block
! freq  magS11  angS11  magS21  angS21  magS12  angS12  magS22  angS22  
!     
               500       0.950385934             -21.63        0.304824591             68.144        0.304649171             68.072        0.950495358            -21.471
               501       0.950167125            -21.621        0.305386616             68.156        0.305281158             68.095        0.950385934            -21.505
               502       0.950385934            -21.701        0.306125847             68.105        0.305738408             68.004        0.949620322            -21.558
               503       0.949948366            -21.726        0.306407929             68.046        0.306407929             67.985        0.949620322             -21.61
               504       0.949183106            -21.802        0.307078917             68.011        0.306725583             67.935        0.949839005            -21.602
               505       0.949905186            -21.831        0.307914584             67.985        0.307100313             67.869         0.94946784            -21.646
               506       0.949839005            -21.817        0.308318795             67.939        0.308212324             67.879        0.949073834            -21.714
               507       0.949292391            -21.915        0.308673965             67.887        0.308531848             67.827        0.949073834            -21.742
               508       0.949073834            -21.942        0.309599321             67.866        0.309171889             67.786        0.949292391            -21.776
               509       0.948902108            -21.948        0.310149733             67.819        0.309792865             67.772        0.949229904            -21.847
               510       0.948932172            -22.006        0.310802978             67.759        0.310481102             67.713        0.948822929            -21.917
               511        0.94851382            -22.058         0.31120292             67.717        0.311238751              67.67        0.948841482            -21.947
               512       0.947817708            -22.078        0.311763177              67.67        0.311583763             67.623        0.948800311            -21.965
               513       0.948618174            -22.154        0.312278037             67.649        0.312134261             67.631        0.948072263            -21.963
               514       0.947829805            -22.181        0.312809808             67.551        0.312773796             67.549         0.94815723            -22.052
               515       0.947981801             -22.22        0.313364648             67.552        0.313292501             67.524        0.947436256            -22.057
               516       0.947763545            -22.224        0.314231704             67.544        0.313797876             67.546        0.947872667            -22.121
               517       0.947346428            -22.285        0.314636297             67.442        0.314491435             67.443        0.947564587            -22.183
               518       0.946975021            -22.404         0.31520168             67.385        0.315274266             67.398        0.947629394            -22.204
               519       0.947327185            -22.351        0.315500462             67.435        0.315536788             67.342        0.947000046            -22.249
               520       0.947337666            -22.439        0.316231265             67.314        0.316158458             67.305        0.946465538            -22.314
               521       0.946923561            -22.473        0.316894661             67.296        0.316675834             67.315        0.946705549             -22.31
               522       0.947003176            -22.499         0.31735945             67.293        0.317249857             67.275        0.946240289            -22.336
               523       0.946175301            -22.551         0.31788615             67.191        0.317776375             67.182        0.946502154            -22.427
               524       0.946639022            -22.605        0.318408317              67.11        0.318408317             67.189        0.945767536            -22.488
               525       0.945514701            -22.597        0.319167224             67.133         0.31913048             67.162        0.946385954              -22.5
               526       0.946241787            -22.692        0.319559787             67.066        0.319743793             67.097        0.945153012             -22.52
               527        0.94573577            -22.746        0.320125165              67.07        0.320235751              67.01        0.945626894            -22.575
               528       0.945167303             -22.78        0.320781039             66.992         0.32085491             67.016        0.945711542            -22.613
               529       0.945444535            -22.772        0.321244763             66.978        0.321392735             66.986        0.945118047            -22.665
               530       0.945166599            -22.853        0.322076002             66.915        0.321705411             66.894        0.944731434            -22.696
               531       0.945237571            -22.876        0.322471231             66.924        0.322508359              66.93        0.944693605            -22.708
               532       0.945019756            -22.921        0.323028535             66.814        0.323065727             66.858        0.944258467            -22.805
               533       0.944816704            -22.976         0.32351734             66.748        0.323629098             66.847        0.943946897            -22.805
               534       0.944543753            -23.008        0.324094813             66.721         0.32420677             66.799        0.943891511            -22.852
               535       0.944230195             -23.05        0.324808873             66.699         0.32477148             66.776        0.944012803            -22.889
               536       0.944328756            -23.074        0.325216981             66.656        0.325142106             66.701        0.943242183            -22.943
               537       0.943825652            -23.134        0.325905565             66.594        0.325718013             66.644        0.943282499            -22.975
               538       0.943902225            -23.157        0.326232339             66.626        0.326758587              66.66        0.943141836            -22.994
               539       0.943517588            -23.235        0.326964047              66.58        0.327076996             66.581        0.943191764            -23.028
               540       0.943506619            -23.272        0.327374578             66.485         0.32786492             66.576        0.942420992             -23.06
               541       0.943182384            -23.261         0.32809203              66.46        0.328205369             66.521        0.942422575            -23.137
               542       0.943001247            -23.327        0.328558167             66.448         0.32882306             66.503        0.942458568            -23.137
               543       0.942719269             -23.41        0.329179199             66.374        0.329406666             66.411        0.942176752            -23.195
               544       0.942493211            -23.405        0.329745009             66.306        0.329858918             66.386        0.942059277            -23.292
               545       0.942688239            -23.464        0.330231189             66.303         0.33042134             66.355        0.941278391            -23.279
               546       0.941998042             -23.52        0.331016773             66.264        0.330864369             66.291        0.941564336             -23.33
               547       0.941672743            -23.537        0.331359938             66.178        0.331359938             66.292        0.941239187            -23.377
               548       0.941997437            -23.563        0.331932457              66.21        0.332200071             66.251        0.940913546            -23.389
               549       0.941558353            -23.629        0.332772355             66.127        0.332542564             66.179        0.941124849            -23.484
               550        0.94080583            -23.641        0.333311271             66.106        0.332966085             66.164        0.940697522            -23.494
               551       0.941022484            -23.707        0.333695231             66.047        0.333656815             66.108        0.940480943            -23.546
               552       0.940885362            -23.726        0.334415741             66.013        0.334223291             66.038          0.9403439            -23.599
               553       0.940047936            -23.793        0.334734133             65.959        0.334695598             65.982        0.939831506            -23.611
               554       0.940156169            -23.841        0.335544404             65.933        0.335505775             65.952        0.940156169             -23.69
               555       0.939939715            -23.847        0.336008296             65.868        0.336008296             65.964        0.940047936            -23.715
               556       0.939450118            -23.954        0.336529953             65.797         0.33641374              65.85         0.94020753            -23.779
               557       0.939939715            -23.957        0.337054399             65.817        0.336938005             65.841        0.938858192            -23.802
               558       0.940132115            -23.967        0.337667209             65.776        0.337550603             65.868         0.93872609            -23.812
               559       0.939278532             -24.02        0.338449905             65.723        0.337982642             65.768          0.9391704             -23.87
               560       0.939161405            -24.075         0.33907068             65.654        0.338641545             65.716        0.938729005            -23.924
               561       0.938858192            -24.064        0.339468905             65.682        0.339078302             65.706        0.938209876            -23.975
               562       0.937885885            -24.171        0.339742595             65.535        0.339781712              65.66         0.93799387            -24.026
               563       0.938317897            -24.192        0.340447383             65.544        0.340173125             65.552        0.937777913            -24.058
               564        0.93799387            -24.225        0.341114358             65.535        0.340918053             65.594        0.937130343            -24.075
               565       0.937885885            -24.302        0.341703951             65.465        0.341585951             65.553        0.937454072            -24.125
               566       0.938101866            -24.339        0.342373388             65.404        0.342136966             65.487         0.93723824            -24.169
               567       0.936806726            -24.351        0.342609972             65.416         0.34257053             65.438         0.93734615             -24.19
               568       0.937454072            -24.381        0.343281184             65.367         0.34316264             65.435        0.936914586            -24.228
               569       0.936698878             -24.43        0.343795351              65.32        0.343439308              65.34        0.936914586            -24.319
               570       0.936806726            -24.503        0.344349931              65.25        0.344151764             65.316        0.936159826            -24.355
               571       0.936806726            -24.536        0.345183478             65.173        0.344349931             65.255        0.936159826            -24.408
               572       0.935621084            -24.549        0.345461775             65.207        0.344984831             65.232        0.935621084             -24.43
               573       0.936793024            -24.602        0.346253082             65.117        0.345854673             65.195        0.935715122            -24.469
               574       0.936159826            -24.651        0.346976451             65.102        0.346019042             65.159        0.935621084            -24.517
               575       0.936267611            -24.681        0.347256193             65.031         0.34685663              65.14        0.935405674            -24.536
               576       0.935836544            -24.692        0.347816355             65.012        0.347216216             65.058        0.935190314            -24.626
               577       0.935728808            -24.742        0.348176937             64.992        0.348056701             65.078         0.93465213            -24.628
               578       0.935082652            -24.821        0.348899221              64.92        0.348257117             65.005        0.934759742            -24.705
               579       0.934759742             -24.86        0.349582754             64.884        0.348859055             64.941        0.934759742            -24.716
               580       0.934329368            -24.885        0.349985458             64.801        0.349341355             64.927        0.933684179            -24.758
               581       0.934329368            -24.906         0.35067112             64.871        0.349703517              64.89        0.933684179            -24.785
               582       0.934114256            -24.957        0.351398578             64.765        0.350227303             64.877        0.933469215            -24.823
               583       0.934221806            -24.974          0.3516414             64.766        0.350832647             64.795        0.933146862            -24.853
               584       0.934221806            -25.057        0.352452017             64.689         0.35123679             64.719        0.932717231            -24.934
               585       0.934341448            -25.077        0.353147076             64.598         0.35209156             64.701        0.932836681            -24.992
               586       0.932717231            -25.114        0.353386537             64.593        0.352492597             64.688        0.932717231            -25.002
               587       0.933039436            -25.153        0.354119629             64.614        0.353101856             64.638        0.932287798            -25.043
               588        0.93250249            -25.226        0.354568377             64.527        0.353549315             64.565        0.931751284             -25.08
               589       0.933039436            -25.257        0.354976824             64.527        0.354282744             64.555        0.932395138            -25.125
               590       0.932717231            -25.281        0.355795131             64.419        0.354650029              64.55        0.931858562            -25.174
               591       0.931536765            -25.328        0.356122981             64.382        0.355222118             64.464        0.931429524            -25.195
               592       0.932073155            -25.374        0.356697446             64.382        0.355836095             64.419        0.930893505            -25.248
               593       0.931322296            -25.459        0.357149462             64.304        0.356287019              64.36        0.931000684            -25.295
               594       0.931322296            -25.411        0.357684401             64.268        0.356574269              64.41        0.930143595            -25.312
               595       0.931536765            -25.504        0.358261385             64.192        0.357313973             64.317        0.929822391            -25.421
               596       0.930893505            -25.585        0.358880615             64.229        0.357807962             64.238        0.930357793            -25.403
               597       0.931322296            -25.549        0.359335397             64.142        0.358632794             64.249        0.929073344            -25.455
               598       0.930464911            -25.608        0.359956483             64.145        0.358797989             64.151         0.92939429            -25.519
               599       0.930464911            -25.647        0.360620159             64.095        0.359583703             64.174         0.92939429            -25.527
               600       0.930679183            -25.726        0.361368256              64.03        0.360495626             64.067        0.930143595            -25.618
               601       0.930357793             -25.76         0.36186785              64.08        0.360827808             64.048        0.929287296            -25.592
               602        0.92939429            -25.799        0.362159598             63.955        0.361077145             64.018        0.928645589            -25.658
               603        0.92939429            -25.817        0.362827336             63.938        0.361659602             64.017         0.92853868            -25.668
               604       0.929501297            -25.896        0.363287119             63.863        0.362493313              63.91        0.928645589            -25.772
               605       0.928431785             -25.89         0.36370561             63.819        0.363078055             63.923         0.92853868            -25.798
               606       0.929180314            -25.943         0.36433425             63.752        0.363621873             63.841        0.928004324            -25.861
               607        0.92821803            -26.012         0.36458601             63.736        0.363915036              63.79        0.927256743            -25.873
               608       0.927149994             -26.09        0.365678983              63.64         0.36433425             63.728        0.928324901            -25.945
               609       0.928431785            -26.088        0.365889545              63.66        0.365048022             63.744        0.927043258            -25.965
               610        0.92853868            -26.151        0.366606364             63.601        0.365636885             63.658        0.926616437            -26.045
               611       0.927043258            -26.218        0.366859694             63.577        0.365931672             63.621        0.926936535            -26.012
               612       0.926829823            -26.249        0.367705393             63.543         0.36656416             63.552        0.926829823             -26.13
               613       0.927043258            -26.295        0.368128974              63.46          0.3672823             63.506        0.926083188            -26.143
               614       0.926189813            -26.326        0.368680358             63.397        0.367620736             63.473        0.926189813            -26.214
