!{251R15S3R0}
!Johanson Technology Inc.
!www.johansontechnology.com
!Test Board Conditions:
!Substrate Type  RO4350B
!Substrate Thickness        20 mil
!Substrate Dk      3.66
!TL Type: GCPW 
!TL Trace Width  34 mil
!TL Gap  10 mil
!Electrode orientation      Horizontal
!DUT TOPOLOGY	SERIES
!Mounting Pad LxW         26x52 mil
! Created Thu Mar 12 16:39:43 2020
# mhz S ma R 50
! 2 Port Network Data from SP1.SP block
! freq  magS11  angS11  magS21  angS21  magS12  angS12  magS22  angS22  
!     
               500       0.742249647            -48.283        0.665119989             41.469        0.666499764             41.486         0.74028679            -48.154
               501       0.741139568             -48.35        0.665809519             41.413        0.666806769             41.416         0.73986077            -48.163
               502       0.740457267            -48.395        0.666346314             41.321        0.667344369              41.38        0.738924387            -48.306
               503       0.740627784            -48.495        0.667498048             41.212        0.668959769             41.313        0.738924387            -48.393
               504       0.739434994             -48.57        0.667882401             41.181        0.669730381             41.208        0.738414132             -48.42
               505       0.738754263            -48.608         0.66903679             41.079        0.670116019             41.164        0.737309789            -48.495
               506       0.738159137            -48.716        0.670038874             41.009         0.67119699             41.084        0.737055175            -48.572
               507       0.737564491            -48.839         0.67119699             40.914         0.67181547             41.001        0.736546211             -48.68
               508       0.737309789            -48.814         0.67111972             40.905        0.672976656             40.972        0.735359995             -48.68
               509       0.735359995            -48.862        0.671738129               40.8        0.672899181             40.921        0.735190692            -48.797
               510       0.735021428            -48.948        0.672202309             40.747        0.673674331             40.852          0.7334998            -48.846
               511       0.734598437            -49.059        0.673364164             40.689         0.67460569             40.727        0.733415358            -48.909
               512        0.73426022            -49.127         0.67413985             40.588        0.675460567             40.679        0.732487133            -49.025
               513       0.733246502            -49.205        0.675149577             40.509        0.676316527               40.6        0.732318491            -49.112
               514       0.732234184            -49.263        0.675538336              40.49        0.676238667             40.512        0.731391654            -49.124
               515       0.731728549            -49.367        0.676861793             40.395        0.677485493             40.426        0.730718327            -49.219
               516       0.730802459            -49.352        0.676861793             40.338        0.677719528             40.416        0.729625493            -49.258
               517       0.730886601            -49.494        0.677953645             40.254        0.679047258             40.301        0.729205608            -49.368
               518       0.729877541             -49.52        0.678734617             40.234        0.679907763             40.303        0.728869874            -49.403
               519       0.728953793            -49.616        0.679281833             40.131        0.680690987             40.189        0.728618175            -49.458
               520       0.728282711             -49.73        0.680299262             40.079        0.681161354             40.087        0.728031214            -49.539
               521       0.728282711            -49.753         0.68084774             39.983        0.682338694             40.065        0.726691366            -49.578
               522       0.727360981            -49.801        0.682024538             39.938        0.682417256             39.973        0.726105957            -49.699
               523       0.726105957            -49.915        0.682181598             39.843        0.683282031             39.923        0.725353983             -49.76
               524       0.725604554            -50.007        0.682652995              39.75        0.684305452             39.789        0.724352561            -49.833
               525       0.725186983            -50.025        0.683832914             39.704        0.684778317             39.763        0.723769037            -49.934
               526       0.724853099            -50.142        0.684463037             39.626        0.685725027              39.67        0.722936247            -49.988
               527       0.724269172            -50.229        0.685488226             39.576        0.686514951             39.625         0.72285302            -50.017
               528       0.723352522            -50.258        0.686119875             39.514        0.687147546             39.554        0.722353864            -50.096
               529       0.722603399            -50.303        0.686435918             39.432        0.687701545             39.491         0.72085846            -50.217
               530        0.72177195             -50.41        0.687622375             39.358        0.688652296             39.428        0.721107479            -50.243
               531       0.720941457            -50.467        0.688335233             39.288         0.68889019             39.331         0.72011192            -50.337
               532       0.720609528            -50.495        0.688573017             39.265        0.689128165             39.304        0.718952172            -50.396
               533       0.719780373            -50.614        0.688414485             39.193        0.690557744             39.224        0.718042251            -50.387
               534        0.71969751            -50.668        0.690319275             39.093        0.691671689             39.171        0.718042251            -50.507
               535       0.718786646            -50.714        0.690955376              39.03        0.692149644             39.114        0.717133483            -50.624
               536       0.717546417            -50.788        0.691990289              38.95        0.692388746             39.044        0.717050924            -50.665
               537       0.717546417            -50.814        0.692388746             38.945        0.693585492             38.986        0.715896106            -50.704
               538       0.716968376             -50.96        0.693026753             38.806        0.694704321             38.877        0.715566499            -50.787
               539       0.716555774            -50.964        0.694224602             38.779        0.695264412             38.848        0.714743147            -50.871
               540       0.715896106            -51.081        0.695184371             38.674        0.695424521             38.736        0.714085147            -50.932
               541       0.715013389            -51.115        0.696088043             38.626        0.696488859             38.676        0.713697498            -51.044
               542       0.714331826            -51.211        0.695905069              38.57        0.696546317             38.602        0.712524825            -51.077
               543       0.713756375            -51.258        0.696546317              38.47        0.697348707              38.56        0.711786915            -51.144
               544       0.712606862            -51.318        0.696706721             38.405         0.69791093             38.527        0.710967912            -51.211
               545         0.7120328             -51.39        0.697669922             38.323         0.69943925             38.441        0.710804224            -51.312
               546         0.7112954            -51.432        0.698714893             38.317        0.699841996             38.365        0.710640574            -51.343
               547       0.711213514            -51.514        0.699278217             38.223        0.700728853             38.307        0.709087778            -51.423
               548       0.710068096            -51.609        0.699841996             38.153        0.701536061             38.222        0.708761306            -51.496
               549        0.70982289            -51.732        0.701051624             38.107        0.701859205             38.106        0.708027294            -51.537
               550       0.708924524            -51.731        0.702020832             38.019        0.702263344             38.092        0.707131201            -51.628
               551       0.707945784            -51.808        0.701859205             37.986         0.70291045              38.01          0.7066429             -51.67
               552       0.708098059            -51.909        0.703223546             37.866        0.704114688             37.973        0.706144212            -51.754
               553       0.706887008            -51.939        0.703477157              37.83        0.704206452             37.882        0.705261213             -51.83
               554       0.706996202            -52.027        0.704153076             37.747        0.705451369             37.834        0.704883071            -51.905
               555       0.705261213            -52.102        0.704611943             37.669        0.705748559             37.741        0.704206452            -51.962
               556       0.705180022            -52.147        0.705667311              37.65         0.70656155             37.657        0.703720172            -52.038
               557       0.704611943            -52.238        0.705992358             37.536        0.707456922             37.647        0.702505939            -52.112
               558       0.703639158            -52.286         0.70680563             37.519        0.708027294             37.542         0.70210166             -52.16
               559        0.70299138            -52.347        0.707212617             37.471        0.708434985             37.444        0.701455298            -52.226
               560       0.701940014            -52.454        0.707294042             37.333         0.70916942             37.398        0.700244973            -52.284
               561       0.701940014            -52.519        0.708516551             37.256        0.710231614             37.358        0.700083755            -52.398
               562       0.700970918            -52.586         0.70884291             37.206        0.710558763             37.289        0.699358729            -52.418
               563       0.700486871            -52.612        0.709741173             37.168        0.710886063             37.252        0.698554026            -52.463
               564        0.70011579            -52.711        0.710918593              37.07         0.71222936             37.158        0.698505568            -52.585
               565        0.69968087            -52.798        0.711213514             37.028        0.712606862             37.076        0.697188155            -52.626
               566       0.698875796            -52.856        0.712114781             36.939        0.713181387             37.007        0.696786937            -52.677
               567       0.697268426            -52.882         0.71227877             36.891         0.71301719              36.98        0.696145468            -52.754
               568       0.697107893            -52.956         0.71301719             36.821         0.71424959             36.904         0.69574485            -52.882
               569       0.696145468            -53.032        0.713509894             36.799        0.714743147             36.817        0.694784306            -52.874
               570       0.695424521            -53.072        0.714331826             36.667        0.715648887             36.768        0.694224602             -52.97
               571       0.695446945            -53.147         0.71591919             36.631        0.716331425             36.697        0.693847462            -53.027
               572       0.693904973            -53.208        0.715566499             36.595        0.716638275             36.641        0.693266157            -53.066
               573       0.693026753            -53.265        0.715648887             36.535        0.716885836             36.564        0.692229335            -53.146
               574        0.69294697            -53.368        0.716638275             36.405        0.718124924             36.498        0.691353236            -53.264
               575       0.691751326            -53.407         0.71721605             36.434        0.717876935             36.438        0.690796296            -53.236
               576       0.691592062            -53.487        0.718372998             36.297        0.719034949             36.337        0.690319275            -53.359
               577       0.690716769             -53.53        0.718952172              36.26        0.719614656             36.305        0.689763168            -53.413
               578       0.690557744            -53.607        0.719614656             36.195        0.720277751             36.233        0.688573017            -53.504
               579       0.690001445            -53.697        0.720360681             36.093        0.721107479              36.17        0.688176756            -53.568
               580       0.689048831            -53.705        0.721190505             36.042        0.721356584             36.142        0.687701545            -53.643
               581       0.688414485            -53.829        0.721190505             35.928        0.722520211             36.071        0.686673045            -53.662
               582       0.687701545            -53.845        0.722187555             35.922        0.723269248             35.969        0.686673045             -53.77
               583       0.686989343            -53.907         0.72285302              35.88        0.723435806             35.934        0.685961909            -53.819
               584       0.686198872            -53.946        0.723019483             35.849        0.723685715             35.854         0.68517262            -53.853
               585       0.685567151            -54.069        0.723602402             35.701        0.724853099             35.748        0.684226673            -53.986
               586       0.685093741            -54.087        0.724102422              35.68        0.725521021             35.705        0.683911647            -54.033
               587       0.683675473            -54.198        0.725020022             35.608        0.725186983             35.638        0.682967441            -54.109
               588       0.683754189             -54.24        0.725353983             35.531        0.726356789             35.614        0.682574406            -54.121
               589        0.68320337            -54.257        0.726440419              35.47        0.726775034             35.568        0.681789016            -54.212
               590       0.682967441            -54.373        0.726691366               35.4        0.727779805             35.508        0.681082937            -54.234
               591       0.681946021            -54.407        0.727277246             35.396        0.727696021             35.433        0.680377589            -54.294
               592       0.681632046            -54.486        0.728366562               35.3        0.728450423              35.36        0.679594726            -54.408
               593        0.68053427            -54.546        0.729205608             35.209        0.729373533             35.299        0.679594726            -54.493
               594       0.680064336             -54.58        0.729625493             35.228        0.729877541              35.27        0.679125441            -54.474
               595       0.679672972            -54.712        0.729961576             35.085        0.730718327             35.173        0.678500231            -54.598
               596       0.678500231            -54.737        0.729961576             35.053        0.730886601             35.166        0.677329514            -54.607
               597       0.678031702            -54.833        0.731812798             35.021        0.731812798             35.031        0.677641508            -54.668
               598       0.677407499            -54.836        0.731223264             34.911        0.731897056             34.985        0.675771699            -54.779
               599       0.676939724            -54.901        0.732065601             34.857        0.732908908             34.916        0.675382806            -54.813
               600       0.675849505            -55.001        0.732740168             34.811        0.732908908             34.837         0.67460569            -54.877
               601       0.675460567            -55.074        0.733415358             34.718        0.733753186             34.829         0.67390705            -54.948
               602       0.675071852            -55.133        0.734767604             34.664        0.734683016              34.78        0.674295094            -54.986
               603       0.674761042            -55.179        0.734852202             34.599        0.735275339             34.699        0.672899181            -55.084
               604       0.673209134            -55.209        0.735021428             34.567        0.735444662             34.606         0.67243452            -55.138
               605       0.672899181            -55.276        0.736207097             34.504        0.736461418             34.552        0.672511941            -55.217
               606       0.672279704             -55.36        0.736291861             34.432        0.737055175             34.528        0.671506158            -55.239
               607       0.671583473            -55.397        0.736715827             34.399        0.737479581             34.401        0.670270337            -55.296
               608       0.670656287            -55.479        0.737649411             34.294        0.737564491             34.401        0.669807491            -55.366
               609       0.670579079            -55.508        0.738414132             34.278        0.738924387             34.359        0.669653279            -55.389
               610       0.669884609            -55.558         0.73883932              34.21        0.739009464             34.297        0.668420868            -55.502
               611        0.66903679            -55.604        0.739349869             34.135         0.73986077               34.2        0.667882401            -55.606
               612       0.668036205            -55.718         0.73969043             34.083        0.740116353             34.086        0.667344369            -55.641
