!{251R15S2R2}
!Johanson Technology Inc.
!www.johansontechnology.com
!Test Board Conditions:
!Substrate Type  RO4350B
!Substrate Thickness        20 mil
!Substrate Dk      3.66
!TL Type: GCPW 
!TL Trace Width  34 mil
!TL Gap  10 mil
!Electrode orientation      Horizontal
!DUT TOPOLOGY	SERIES
!Mounting Pad LxW         26x52 mil
! Created Thu Mar 12 16:38:33 2020
# mhz S ma R 50
! 2 Port Network Data from SP1.SP block
! freq  magS11  angS11  magS21  angS21  magS12  angS12  magS22  angS22  
!     
               500       0.842186956            -39.717        0.536053962             50.519        0.537660969             50.568        0.839669756            -39.644
               501       0.841709354            -39.755        0.537232347             50.463        0.538037014             50.547        0.839193582            -39.711
               502       0.840875118            -39.808        0.537813255             50.412        0.539239257             50.481        0.839327595            -39.762
               503       0.840731229             -39.89        0.539146983             50.307         0.53933323             50.447         0.83850794            -39.815
               504       0.840186463            -39.978        0.539480411             50.244        0.540412866             50.338        0.838061095            -39.902
               505        0.83966419            -40.023        0.540512363             50.183        0.541010423             50.302        0.837829469            -39.948
               506       0.839138092            -40.051        0.540920494             50.168        0.541917824             50.275        0.836822668                -40
               507        0.83861605            -40.088        0.541767776               50.1        0.542579236             50.201        0.836879963            -40.086
               508       0.838263033            -40.204        0.542600656             50.009        0.543225708             50.117        0.836335082             -40.13
               509       0.837595727            -40.263         0.54329343             49.967        0.544232475             50.058        0.835476912            -40.202
               510       0.837069684            -40.354        0.543953297             49.924        0.544893483              49.99        0.835144477            -40.234
               511       0.836629336            -40.428         0.54466954             49.791         0.54573661             49.912        0.834512966            -40.361
               512       0.836034281            -40.459        0.545348453             49.749        0.546668545             49.844        0.834495666            -40.411
               513       0.835925595             -40.53        0.546031407              49.69        0.547164135             49.766        0.832659849              -40.5
               514       0.835296307            -40.632        0.546689284             49.594        0.548201931             49.671        0.832799702             -40.56
               515       0.834860989            -40.683        0.547790086             49.541        0.548926463             49.573        0.832653224             -40.62
               516        0.83442106            -40.762        0.548384609             49.433        0.549585489             49.529        0.832214459            -40.697
               517       0.833756012            -40.855        0.549021028             49.456        0.550096623             49.458        0.831455439            -40.734
               518       0.833150615            -40.928        0.550140375             49.299        0.551091255             49.393        0.830756063            -40.868
               519       0.832960945            -40.928        0.550585335             49.282        0.551600485             49.406        0.830088963            -40.858
               520        0.83223091            -41.039        0.551370901             49.202        0.552387499             49.288        0.830316832            -40.951
               521       0.831486877            -41.099          0.5524022             49.171        0.553165899             49.231        0.830052189            -40.989
               522       0.831285007            -41.162        0.553031601             49.088         0.55379617              49.18        0.828704978            -41.072
               523       0.830444805            -41.213        0.553682469             49.037        0.554639471             49.152        0.828725634            -41.129
               524       0.830292344            -41.292        0.554346147             48.968        0.555304296             49.053        0.827810696            -41.191
               525       0.829577567            -41.317        0.555209642             48.939        0.555913217             49.022        0.827669592            -41.254
               526       0.829370162            -41.415         0.55571025             48.809        0.556798949             48.891         0.82689127            -41.375
               527       0.828939758            -41.503         0.55638187              48.75         0.55772867             48.836        0.826367008            -41.367
               528       0.828025387            -41.574        0.557691021              48.67        0.558140648             48.771        0.826691842            -41.477
               529       0.827754237            -41.636        0.557829416             48.641        0.558922268             48.724        0.825090169            -41.543
               530       0.827386102            -41.688        0.558802347             48.564        0.559574895             48.663        0.824343507            -41.608
               531       0.826835802            -41.715        0.559331494             48.537        0.560491813             48.606        0.824079809            -41.657
               532        0.82631667            -41.783        0.560462442             48.469        0.561172673              48.52        0.823562407            -41.731
               533       0.825883653            -41.842        0.560749468             48.371        0.561783358             48.511        0.823415182            -41.789
               534       0.824974885            -41.955         0.56213513             48.301        0.562264582             48.422        0.823077495            -41.882
               535       0.824502638            -42.008        0.562525287             48.236        0.563302981             48.361        0.822606335            -41.943
               536       0.824142952            -42.109        0.563381458             48.193        0.563835672             48.275        0.821868904            -41.971
               537       0.823622427            -42.111         0.56393385             48.124        0.564648481             48.245        0.821066181             -42.09
               538       0.823181772             -42.22        0.564411358             48.017        0.565452001             48.151        0.821099419            -42.149
               539       0.822623817            -42.291        0.565133795             47.977         0.56617577             48.062        0.820353961            -42.231
               540       0.822173819            -42.331        0.565931208             47.932         0.56677886             48.043        0.819810815            -42.257
               541       0.821553997             -42.42        0.566808185              47.86        0.567461123             47.978        0.819287093            -42.322
               542       0.821427045            -42.468        0.567242807             47.829        0.568223247             47.864        0.818123745             -42.39
               543       0.820757387            -42.549         0.56815234             47.773        0.568675869             47.851        0.817645028            -42.428
               544       0.820150321            -42.603        0.569237443             47.664        0.569565217             47.749        0.817981458            -42.524
               545       0.819771202            -42.661        0.569695328             47.608        0.570023365             47.776        0.816380566            -42.564
               546       0.819278083            -42.751        0.570336724             47.527        0.571125218             47.653        0.816453277             -42.62
               547        0.81880345            -42.844        0.570794348             47.505        0.571649284             47.522        0.815604595            -42.726
               548       0.817714055            -42.895        0.571348988             47.425        0.572732018             47.536        0.815645534            -42.787
               549        0.81749304            -42.897        0.572379491             47.382        0.573170809             47.475        0.815425078            -42.839
               550       0.817010081            -43.011         0.57309605             47.315        0.573888359             47.378        0.814943341            -42.884
               551       0.816493093            -43.058        0.573789393             47.261        0.574648815             47.326        0.814240153            -42.953
               552       0.815865221            -43.121        0.574471411             47.187        0.575596865              47.27        0.813801377            -43.014
               553       0.815768694            -43.193         0.57519756             47.109        0.576059091              47.19        0.812675253            -43.083
               554       0.815265925            -43.245        0.575836634             46.964        0.576632732             47.141        0.811893923            -43.255
               555       0.814408063            -43.366        0.576556755             46.943         0.57761979             47.063        0.812160876            -43.232
               556       0.814126453             -43.36         0.57748654             46.924        0.577952127             47.034        0.811506245            -43.279
               557         0.8134343            -43.446        0.577793273              46.91        0.578925236             46.953          0.8111898            -43.308
               558       0.813255098            -43.531        0.578797697             46.788        0.579130975             46.903        0.810077919            -43.397
               559        0.81235964            -43.585        0.579559913             46.712        0.580093953             46.851        0.809745118            -43.506
               560       0.811907741            -43.638        0.580439129             46.667        0.580706493             46.796        0.809108348            -43.546
               561       0.811373392            -43.722        0.580859052             46.623        0.581662093             46.661        0.809134579            -43.614
               562        0.81091671            -43.779        0.581200862             46.566        0.582406549             46.641         0.80858606            -43.644
               563       0.810600664            -43.848         0.58191152              46.45        0.583051551              46.56        0.807526819            -43.772
               564       0.809954533            -43.923          0.5825868             46.414        0.583795362             46.514        0.807347752            -43.785
               565       0.809384332            -44.005        0.583115778             46.311        0.584459999              46.44        0.807151007            -43.886
               566       0.809185283            -44.061        0.584114484             46.252        0.584720036              46.37        0.806395277            -43.948
               567       0.808066992            -44.083        0.585190634             46.203        0.585595009             46.362        0.806301313            -44.016
               568       0.807903158            -44.175        0.586015773             46.124        0.586150724             46.251        0.805581169            -44.077
               569       0.807619636            -44.197        0.586214923             46.081        0.587025368             46.222         0.80502037             -44.11
               570       0.807113491             -44.32        0.587062861             45.979        0.587671469             46.118        0.804423235            -44.192
               571       0.806236281            -44.351        0.587912018             45.932        0.588521506             46.059        0.804381989            -44.277
               572       0.805840927            -44.394        0.588368374             45.926        0.588571625             46.057        0.803894987            -44.295
               573       0.805488658            -44.453         0.58878865             45.868        0.589874239             45.936        0.802988693            -44.374
               574       0.805018363             -44.53        0.589801383             45.773        0.590140998             45.867        0.802519857            -44.473
               575       0.804062329            -44.602        0.590255056             45.711        0.591411432             45.816        0.802213037            -44.531
               576       0.803801962            -44.695        0.591287996             45.648         0.59142416             45.766        0.801676332            -44.556
               577       0.803315559            -44.718        0.591883426             45.556        0.592497031             45.696        0.801744849             -44.63
               578       0.803022014            -44.803        0.592621565             45.495        0.592962804             45.615        0.800253259            -44.724
               579       0.802594742            -44.849        0.592852029              45.46        0.593808364             45.565         0.79982746             -44.76
               580       0.801959111            -44.917        0.594021584             45.416        0.594432061             45.506        0.799746274            -44.769
               581       0.801586702            -44.961        0.594566593             45.337        0.594840464             45.436        0.799098846            -44.893
               582       0.800933303            -45.033        0.595245817             45.241        0.595862908             45.403        0.798723297            -44.936
               583       0.800513052            -45.083        0.595961792             45.213        0.596304954             45.292        0.798120411            -45.035
               584       0.799831966            -45.179        0.596415274             45.165        0.596964846             45.255         0.79780868            -45.057
               585       0.799318069            -45.216        0.597406069             45.039        0.597750063             45.203        0.797847026            -45.135
               586       0.798879691            -45.284        0.598110437             44.998        0.598248172             45.132        0.796767077            -45.216
               587       0.798302025            -45.384        0.598642066             44.866        0.599262678             45.067        0.796465981            -45.292
               588       0.797917217            -45.429        0.599249715             44.901         0.59959477             44.976        0.795898775            -45.323
               589       0.797614388            -45.441        0.599712332             44.796        0.600610582             44.939        0.794864277            -45.428
               590       0.797032032            -45.543        0.600448516             44.742        0.601140206             44.889        0.794741288            -45.434
               591       0.796648797            -45.603        0.600989528             44.672        0.601820399              44.78        0.794542083            -45.524
               592        0.79611931            -45.629        0.601835993             44.677        0.602113213             44.758          0.7937398            -45.557
               593       0.795623393            -45.673        0.602570053             44.545        0.603194737             44.716        0.793245366            -45.642
               594       0.794965581            -45.778        0.602973638             44.503        0.603876773             44.608        0.793045902            -45.709
               595        0.79468582            -45.822        0.603733763              44.45        0.604359654             44.594        0.792219383            -45.725
               596       0.793964734            -45.913        0.604715656             44.357        0.604924553             44.504         0.79195629            -45.825
               597       0.793660481             -45.96        0.604971277             44.298        0.605598451             44.442        0.791835112            -45.874
               598       0.792985519            -46.013        0.605780454             44.261        0.606548114              44.38        0.791343895            -45.907
               599       0.792668307            -46.043        0.606235682             44.213        0.606864167             44.331        0.790390105            -46.016
               600       0.792332189            -46.111        0.607235705              44.16        0.607235705             44.238        0.789963999            -46.063
               601       0.791786962            -46.198        0.607866691             44.073        0.608076677             44.165        0.789329521            -46.135
               602       0.791273324            -46.234        0.608522337             44.032        0.608522337              44.12        0.788908299              -46.2
               603       0.790921313            -46.305        0.608812105             43.965        0.609232802             44.087        0.788285029            -46.232
               604       0.790289578            -46.407        0.609517606             43.842        0.610009017             44.011        0.787927494            -46.328
               605       0.789548062            -46.465        0.610138699             43.839        0.610700917             43.938        0.787913555            -46.353
               606       0.789125833            -46.497        0.610725791             43.788        0.611499718             43.915        0.787039013            -46.394
               607       0.789061181            -46.543        0.611308843             43.768        0.611731266             43.783        0.786340561            -46.482
               608       0.788626501            -46.582        0.611746322             43.697        0.612521542             43.775        0.785635984            -46.518
               609       0.787595295            -46.687        0.612777927             43.597        0.613271966             43.677        0.785874348            -46.625
               610       0.787224367            -46.771        0.613053715             43.528        0.614184042             43.597        0.784781088            -46.697
               611       0.786572865            -46.777        0.613958421             43.478        0.614594911             43.594        0.785125278            -46.727
               612       0.786444112            -46.836        0.614918933             43.442        0.614918933             43.562         0.78364229            -46.733
