!{251R15S6R8}
!Johanson Technology Inc.
!www.johansontechnology.com
!Test Board Conditions:
!Substrate Type  RO4350B
!Substrate Thickness        20 mil
!Substrate Dk      3.66
!TL Type: GCPW 
!TL Trace Width  34 mil
!TL Gap  10 mil
!Electrode orientation      Horizontal
!DUT TOPOLOGY	SERIES
!Mounting Pad LxW         26x52 mil
! Created Thu Mar 12 16:43:58 2020
# mhz S ma R 50
! 2 Port Network Data from SP1.SP block
! freq  magS11  angS11  magS21  angS21  magS12  angS12  magS22  angS22  
!     
               500       0.438269462            -71.123        0.892054134             19.676        0.894213476             19.649        0.436155356            -71.128
               501       0.437493897             -71.12        0.893350736             19.618        0.893556461             19.662        0.435584081            -71.217
               502       0.436460155            -71.173        0.893191544             19.611        0.894426387             19.585         0.43510553            -71.256
               503       0.436188242            -71.254        0.894177946             19.481        0.894280898             19.565        0.433984236            -71.295
               504       0.435090128            -71.368         0.89429176             19.441        0.894703692              19.47        0.433390342            -71.369
               505       0.434445795            -71.399        0.894613811             19.405         0.89512894             19.416        0.432648895            -71.417
               506       0.433638273            -71.427        0.894906383             19.333        0.895627883             19.397        0.431894433            -71.477
               507       0.433093507            -71.449        0.895430067             19.302        0.895636271             19.322        0.431550549            -71.556
               508       0.432233488            -71.581        0.895505818             19.211        0.896227801             19.237        0.430495297             -71.63
               509       0.431463854            -71.616        0.895559445             19.171         0.89700408             19.206        0.429530906            -71.654
               510       0.430650545            -71.721        0.896138221             19.139        0.896860715             19.139        0.428968104            -71.697
               511       0.429806912            -71.775        0.896444475             18.996         0.89747714             19.075        0.428177059            -71.831
               512       0.429323036            -71.785        0.896363559              18.98        0.898119637             19.023        0.427547324             -71.87
               513       0.428607515            -71.882        0.897449007             18.924        0.897759028             18.915         0.42639272            -71.971
               514        0.42769836            -71.949          0.8976098             18.843        0.898540352              18.86        0.425929368            -72.009
               515       0.427289531            -71.975        0.897991554             18.816        0.899129511             18.777        0.425326314            -72.019
               516       0.426391264            -72.036        0.898583207             18.713        0.899204141             18.741        0.424774364            -72.117
               517       0.425788383            -72.165        0.898553227               18.7         0.89917414             18.676        0.423734484            -72.173
               518       0.424725622             -72.23        0.899100959             18.573         0.89972225             18.613        0.423017623            -72.274
               519       0.424322154            -72.262        0.899074555             18.564        0.900110248             18.608        0.422080906            -72.277
               520       0.423377378            -72.337         0.89945129             18.484        0.900487418              18.51        0.421820468            -72.373
               521       0.422600484            -72.421        0.899870449             18.475        0.900492272             18.455        0.421046431            -72.402
               522       0.422008348            -72.465        0.900266402             18.384        0.900784786             18.408        0.420021037            -72.499
               523       0.421279557            -72.538        0.900161397             18.338        0.901198343             18.377        0.419343953             -72.55
               524       0.420719145            -72.584        0.900621428             18.265        0.901555102             18.289         0.41835241            -72.644
               525       0.419527262             -72.63        0.901177183             18.233        0.901592286             18.248         0.41798451            -72.717
               526       0.419242708            -72.697        0.901499556             18.158        0.902226371             18.133        0.417316462            -72.759
               527       0.418469017            -72.817        0.901494972             18.076        0.902845232              18.09        0.416306612            -72.782
               528       0.417772968            -72.858        0.902277933              18.02        0.902693543             18.023        0.415949241            -72.865
               529       0.417079043            -72.932        0.902024571             17.994        0.903063664             17.969         0.41492382            -72.955
               530       0.416495911            -72.977        0.902632034             17.907        0.903255765             17.929        0.413914597            -73.022
               531       0.415667391            -72.974        0.902601301              17.89        0.903953218             17.901        0.413471858            -73.063
               532       0.414807928            -73.059        0.903539302             17.832        0.903955493             17.806        0.412711954            -73.119
               533       0.414368258             -73.09        0.903413298             17.756        0.904245756             17.821        0.412321973            -73.179
               534       0.413351962            -73.202         0.90452381             17.657        0.904003274             17.725        0.411784508            -73.256
               535       0.412657256            -73.262        0.904252016              17.61        0.904772695             17.666        0.410950474             -73.33
               536       0.412141637            -73.358        0.904474842             17.573        0.904995649             17.579        0.409964726            -73.383
               537       0.411323147            -73.368        0.904967849             17.508        0.905176249             17.557        0.409103458            -73.476
               538        0.41087535            -73.438        0.904919791             17.448        0.905962219              17.48        0.408940465            -73.479
               539       0.410033676            -73.518        0.905252071             17.377        0.906086223             17.402        0.408055773            -73.599
               540       0.409176929            -73.565        0.906068722             17.356        0.905964413             17.374         0.40757838            -73.603
               541       0.408494194            -73.658         0.90591174             17.273        0.906537738             17.337        0.406570522            -73.673
               542       0.407940328              -73.7        0.906247124              17.27        0.906664562             17.238        0.405738894            -73.753
               543       0.407421912            -73.775        0.906764237             17.203        0.906555471             17.216        0.404850223            -73.792
               544       0.406654618            -73.816        0.907456276             17.114        0.907038473             17.122        0.404693015            -73.842
               545       0.405971391            -73.855        0.907706466             17.068        0.907079661             17.163        0.403641145             -73.87
               546        0.40531595            -73.942        0.907598344             16.998        0.907911872             17.054        0.403267938            -73.935
               547       0.404794151             -74.01        0.907787562              16.96        0.907996612             16.942        0.402331678            -74.063
               548       0.403725275            -74.074        0.907373181              16.88         0.90862763             16.952        0.401916595            -74.144
               549       0.403265695            -74.075        0.908220456             16.854        0.908848049             16.871        0.401366646            -74.167
               550       0.402595376            -74.126        0.908487138             16.807        0.909219587             16.839        0.400653354            -74.192
               551        0.40193633             -74.18        0.908776866             16.755        0.909509549             16.776        0.399721274            -74.267
               552       0.401109205            -74.248        0.908788094              16.69        0.910149278             16.731        0.399128398            -74.306
               553       0.400834071            -74.311        0.909210891             16.615        0.910258262             16.644        0.398074748            -74.397
               554       0.400123061            -74.369        0.909899827             16.522        0.910109364             16.614        0.397734792            -74.471
               555       0.399241549            -74.489        0.909883378             16.507        0.910826655              16.52        0.397132776            -74.458
               556       0.398878529            -74.469        0.910208024             16.448        0.910732132             16.531        0.396406402            -74.558
               557       0.398024342            -74.549        0.910038223             16.455        0.911506214             16.434        0.395785276            -74.572
               558       0.397483987            -74.595        0.911212435             16.345        0.911107534             16.423        0.395202459            -74.619
               559       0.396551182            -74.697        0.911379486             16.263        0.911379486             16.339        0.394320403             -74.74
               560       0.395906014             -74.74        0.911469413             16.239        0.911889257             16.288         0.39345231            -74.776
               561       0.395376753            -74.784        0.911719263             16.228        0.912139221             16.185        0.393288394            -74.828
               562       0.394770479            -74.819        0.911789671             16.167        0.912629848             16.199        0.392820974            -74.828
               563       0.394204176            -74.903        0.911845419             16.051        0.913211182             16.085        0.391761019            -74.966
               564       0.393657162            -74.971        0.911943972             16.003        0.913415038             16.064        0.391262438            -74.991
               565       0.392847614            -75.041        0.912166502             15.949        0.913637927             15.994        0.390907605            -75.068
               566       0.392600742            -75.066        0.912853564             15.892        0.913589534             15.938        0.390122605            -75.124
               567       0.391402763            -75.098        0.913532258              15.83        0.913532258             15.934         0.38946989            -75.206
               568       0.390995424            -75.161        0.914264117             15.787        0.913737976             15.826        0.388930207            -75.211
               569       0.390298101            -75.164        0.914316249             15.747        0.914210991              15.82        0.388594311            -75.254
               570       0.389743995             -75.26        0.914596283             15.666        0.914596283             15.744        0.387685387            -75.303
               571       0.388947747            -75.315        0.914621192             15.611        0.915147842             15.655        0.387026997            -75.403
               572       0.388658235             -75.34        0.914677242             15.611        0.914993215             15.661        0.386694392            -75.428
               573       0.388077746            -75.381        0.914679065             15.556        0.915838168             15.573        0.385628159            -75.489
               574        0.38746345            -75.452        0.915336416             15.498        0.915652617             15.509        0.385150744            -75.553
               575       0.386401744            -75.495        0.915459379             15.408        0.916513947             15.464         0.38458211             -75.61
               576       0.386129319             -75.62        0.915762339             15.384        0.916184161             15.402        0.383912965            -75.633
               577       0.385586718            -75.601        0.915845184             15.306        0.917005765             15.378        0.383505914            -75.675
               578       0.384941344            -75.676        0.916631037             15.255        0.916419999             15.326        0.382687748            -75.773
               579       0.384479388            -75.707        0.916585667             15.212        0.917219041             15.275        0.382008531            -75.787
               580       0.383636827            -75.793        0.916790891             15.179        0.917635676             15.215        0.381478696            -75.797
               581       0.383352118            -75.829        0.917165831             15.123        0.917482663             15.149        0.380844657            -75.903
               582        0.38237473            -75.843        0.917569953             15.041        0.917992607             15.134        0.380267477             -75.96
               583       0.381939731            -75.892        0.917793205             15.021        0.918215961             15.032        0.379659995            -76.028
               584       0.381346813             -76.03        0.917740973             14.958        0.918375145             14.987        0.378939713            -76.063
               585       0.380704744            -76.003        0.918519304             14.858        0.918730825             14.955        0.378737483            -76.118
               586       0.379928276            -76.056        0.918864804              14.81        0.918759022             14.914        0.377878007            -76.202
               587       0.379291914            -76.162         0.91869972             14.712        0.919546264             14.837        0.377288514            -76.252
               588       0.378941281            -76.178        0.919119371              14.73        0.919542738             14.773        0.376896339            -76.269
               589       0.378493307             -76.16        0.919196166              14.68        0.920043167             14.753        0.375801236            -76.344
               590       0.377804885            -76.257        0.919533529             14.627        0.920063007             14.717        0.375506595            -76.362
               591       0.377186315            -76.323        0.919614748             14.574        0.920462135              14.62        0.375021294            -76.445
               592       0.376770724            -76.334        0.920189238             14.553        0.920295185             14.605        0.374435614            -76.472
               593       0.375792605            -76.358        0.920551795             14.478         0.92108186             14.572        0.373721626            -76.494
               594       0.375462066            -76.468        0.920271698             14.413        0.921437889             14.479        0.373220995            -76.572
               595       0.374749707            -76.515         0.92085511             14.382        0.921385349             14.475        0.372427123            -76.581
               596       0.374126248            -76.591        0.921442371             14.305        0.921548462             14.364         0.37189315            -76.656
               597       0.373675376            -76.592        0.921392092             14.262        0.921922641             14.362         0.37178724            -76.694
               598       0.373086688            -76.655        0.921424496              14.24        0.922379737             14.296        0.370859795            -76.727
               599        0.37259759            -76.649        0.921594856              14.16        0.922444067             14.265        0.370245716            -76.877
               600        0.37226944            -76.681        0.922374709             14.148        0.922374709             14.196        0.370004824            -76.859
               601       0.371445285            -76.817        0.922560487             14.063        0.922666707             14.103        0.369015705            -76.939
               602       0.370897989            -76.838        0.922793399             14.039        0.922793399             14.073        0.368471989            -76.987
               603       0.370486084            -76.899        0.922724177             14.005         0.92304293             14.048        0.367893318            -77.015
               604       0.369740162            -76.989        0.923201767             13.881        0.923201767             13.991        0.367575559             -77.09
               605       0.369215462            -77.016        0.922953626             13.884        0.923804089             13.957        0.366884936            -77.107
               606       0.368393561            -77.031        0.923447118             13.848         0.92397885             13.924        0.366532113            -77.149
               607       0.368162503            -77.094        0.923718314             13.814         0.92403741             13.793        0.365754396            -77.249
               608       0.367638855            -77.098        0.923786062             13.775        0.924424411             13.823        0.365192126            -77.249
               609        0.36693309            -77.183        0.924138104             13.687        0.924776697             13.721        0.364574994            -77.331
               610        0.36630564            -77.279        0.923939651             13.635        0.925323529              13.65        0.363867784            -77.376
               611       0.365739914            -77.255        0.924426439             13.593        0.925384792             13.683        0.363682462             -77.39
               612       0.365316812            -77.346        0.925379042             13.584        0.924740034             13.617        0.362676703            -77.402
