!{251R14S680}
!Johanson Technology Inc.
!www.johansontechnology.com
!Test Board Conditions:
!Substrate Type  RO4350B
!Substrate Thickness        20 mil
!Substrate Dk      3.66
!TL Type: GCPW 
!TL Trace Width  36 mil
!TL Gap  12 mil
!Electrode orientation      Horizontal
!DUT TOPOLOGY	SERIES
!Mounting Pad LxW         26x36 mil
! Created Wed Mar 11 15:52:13 2020
# mhz S ma R 50
! 2 Port Network Data from SP1.SP block
! freq  magS11  angS11  magS21  angS21  magS12  angS12  magS22  angS22  
!     
               500      0.0168694141             -91.06        0.998274551             -3.238        0.997700064             -3.304       0.0168849586            -90.641
               501      0.0166590411             -90.89        0.998044717             -3.281        0.998389489             -3.315       0.0163832478             -90.47
               502      0.0165786819            -90.458        0.998504439             -3.325        0.998619403             -3.271       0.0164456105            -90.824
               503       0.016259231            -90.894         0.99873438             -3.305         0.99884937             -3.361       0.0162237035            -91.589
               504      0.0163474493            -91.124         0.99884937             -3.321         0.99873438             -3.314       0.0161621823            -91.455
               505      0.0161324378            -91.064        0.999092158             -3.385         0.99873438             -3.378       0.0160694125            -91.368
               506      0.0158781536            -91.484         0.99873438             -3.376        0.998159627              -3.37       0.0158471074             -90.74
               507      0.0157724805            -90.983        0.997814935              -3.37        0.998044717             -3.356       0.0157888319            -90.808
               508      0.0156621003            -90.636         0.99873438             -3.382        0.997929819             -3.437       0.0154045849            -90.975
               509       0.015332042            -90.728        0.998159627             -3.409        0.998504439             -3.456        0.015179239            -90.464
               510       0.015153048            -90.588         0.99873438             -3.438        0.998389489             -3.429       0.0153567742            -90.486
               511      0.0152528149             -90.14         0.99873438             -3.462        0.998389489             -3.463       0.0152159825             -90.53
               512        0.01513387              -90.4        0.998274551              -3.47        0.998159627             -3.532       0.0147316028            -91.115
               513      0.0149176358            -91.389        0.999256311             -3.493        0.998504439             -3.469       0.0148064178            -90.542
               514       0.014847386            -90.234        0.998274551             -3.548        0.999068463             -3.555       0.0145211162            -91.468
               515      0.0143747401            -91.794        0.998504439             -3.577        0.998389489             -3.548       0.0144777142            -91.638
               516      0.0146335602            -91.721         0.99873438             -3.531        0.999490913             -3.559       0.0142036512            -91.668
               517      0.0143449817            -91.441        0.998274551             -3.562         0.99887352             -3.581       0.0140604752            -90.213
               518      0.0142200132            -91.676        0.998389489             -3.609         0.99884937             -3.566       0.0138484128            -91.692
               519      0.0138995263            -92.719        0.998504439             -3.605         0.99873438             -3.599       0.0136709911             -91.17
               520      0.0137990758            -90.741        0.998044717             -3.611         0.99873438             -3.626       0.0135846984            -90.971
               521      0.0136019132            -91.137        0.997814935             -3.647        0.998389489             -3.665       0.0132708885            -91.838
               522      0.0132129563            -91.438        0.998159627             -3.647        0.998044717             -3.643       0.0133798117            -91.396
               523      0.0132403663            -91.101        0.998619403             -3.703        0.998389489             -3.677       0.0130526893            -91.106
               524      0.0132053525            -91.823         0.99884937             -3.737        0.998504439             -3.671       0.0128277356            -91.793
               525      0.0131144475            -92.704        0.998619403             -3.641        0.998619403             -3.737        0.012846949            -90.707
               526      0.0127159848            -92.683        0.998946777             -3.762        0.998504439             -3.766       0.0125965032            -92.056
               527      0.0125025903            -90.544        0.998619403             -3.749        0.998389489             -3.722       0.0126415405            -92.298
               528      0.0124351206            -92.059        0.998898705             -3.776        0.998619403             -3.713       0.0124308264            -91.937
               529      0.0122758055            -92.603        0.998389489             -3.847        0.999053165             -3.731       0.0123069376            -92.507
               530      0.0123239521            -92.517        0.998619403             -3.751         0.99889514             -3.737       0.0120101934            -91.779
               531      0.0122025333            -92.202        0.999201322             -3.779        0.997929819             -3.804       0.0121534618             -92.55
               532      0.0115984512            -92.172        0.999184067             -3.911        0.998389489             -3.876       0.0116600389            -92.964
               533      0.0116225119            -91.907         0.99873438             -3.818          0.9988795             -3.832       0.0115744403            -91.826
               534      0.0114485372            -93.114        0.998504439             -3.878        0.998619403             -3.927       0.0112615975            -92.154
               535      0.0114208914            -91.388        0.998389489             -3.849        0.998389489             -3.917       0.0111892248            -91.324
               536      0.0112034041             -92.01        0.998159627             -3.874        0.999389656             -3.913       0.0108730153            -92.876
               537      0.0110014518            -91.362        0.998044717             -3.942        0.998923891             -3.942       0.0109774129            -92.232
               538      0.0107053285            -91.074        0.999209145             -3.958        0.998504439             -3.904       0.0109144034            -92.464
               539      0.0110382443            -91.703         0.99884937             -3.973        0.998996577             -3.919       0.0105462971            -93.299
               540      0.0106757895            -92.559        0.999241931             -4.022        0.998274551             -3.979         0.01035023            -92.156
               541        0.01043398            -92.042        0.998044717             -3.995        0.998892265              -3.98        0.010449608             -92.61
               542      0.0103252363            -94.159        0.999116313                 -4        0.999476184             -3.963       0.0100577306            -92.905
               543       0.010070476            -93.881        0.998966444             -4.044         0.99884937             -3.999      0.00986506611            -94.185
               544      0.0100115196            -92.591        0.999181306             -4.012         0.99873438              -4.09      0.00965272648            -91.933
               545     0.00972859222            -92.153        0.998389489             -4.056        0.998389489             -4.079      0.00957083877            -92.177
               546     0.00964050979            -94.061         0.99873438             -4.082        0.998504439             -4.076       0.0095411341            -92.755
               547     0.00950167125            -91.672        0.998274551             -4.107        0.997814935             -4.113      0.00948090948            -93.003
               548     0.00945257213            -92.061        0.998504439             -4.117        0.998274551             -4.099      0.00922040505            -93.479
               549     0.00901882583            -92.768        0.998619403             -4.162        0.998044717             -4.129      0.00886441337            -93.287
               550     0.00897118887            -91.949         0.99873438             -4.167        0.999033727             -4.149      0.00899601146            -93.058
               551     0.00886849652            -92.404        0.998504439             -4.183        0.998159627             -4.198      0.00886135224            -93.935
               552     0.00878820138            -91.485        0.998274551             -4.159        0.999803148             -4.188      0.00860498267            -91.409
               553     0.00856248848            -92.665         0.99873438             -4.206        0.998504439             -4.185      0.00843334758            -92.184
               554     0.00846155146            -92.445        0.998899165               -4.2        0.998947697             -4.186      0.00833393291            -91.973
               555     0.00823095069             -92.05        0.998984615             -4.248         0.99873438             -4.217      0.00817617164            -92.486
               556     0.00850256577            -92.928        0.999207304              -4.21        0.998274551             -4.259      0.00797076491            -91.034
               557     0.00783790509            -91.791        0.998934586             -4.291        0.999515769             -4.261      0.00785959197            -92.966
               558     0.00776515269            -92.556         0.99884937             -4.266        0.999035797             -4.308       0.0076647854             -93.42
               559     0.00775086192            -92.273         0.99873438             -4.337        0.998619403              -4.28      0.00760851673            -93.605
               560     0.00751363337            -91.643        0.997929819             -4.343        0.999115393             -4.312      0.00739009464             -93.16
               561     0.00756484441            -93.671        0.998619403             -4.353        0.998619403             -4.319      0.00725103498            -94.066
               562     0.00729205608            -91.614        0.998389489             -4.366         0.99889905             -4.332      0.00727277246            -92.632
               563     0.00697348707            -91.189         0.99873438             -4.412         0.99873438             -4.384      0.00691194064            -93.609
               564     0.00688652296            -91.652        0.999096989             -4.398        0.998274551              -4.38      0.00687780724            -93.147
               565     0.00687780724             -92.06         0.99888203             -4.401        0.998274551             -4.397       0.0067982949            -92.977
               566     0.00661606861             -92.54        0.998389489             -4.422        0.998857995             -4.419      0.00659857261            -93.015
               567     0.00669711346            -89.245        0.999842417             -4.401        0.998476061             -4.449      0.00647049725            -92.015
               568     0.00651103455            -90.825         0.99873438             -4.478        0.998389489             -4.422      0.00632193462                -90
               569     0.00635843154            -91.091        0.999090087             -4.511        0.999120339             -4.494      0.00632921721             -91.51
               570     0.00628709467             -89.65        0.998953562             -4.481         0.99873438             -4.511      0.00627552407             -92.48
               571     0.00601866263            -91.727        0.998389489             -4.527        0.998504439             -4.518      0.00610239057            -90.055
               572     0.00584790084            -90.799         0.99873438             -4.549         0.99873438              -4.53      0.00581634287            -90.405
               573     0.00593676694            -89.715        0.998159627             -4.525         0.99873438             -4.503      0.00584251721            -91.071
               574     0.00568002177            -88.351         0.99873438             -4.576         0.99873438             -4.526      0.00544251958            -93.481
               575     0.00554561863            -88.094        0.998274551             -4.603         0.99873438             -4.548      0.00533764886            -90.136
               576     0.00529419581            -87.866         0.99873438             -4.606        0.998389489             -4.576      0.00523600437            -91.106
               577     0.00527472716            -87.719        0.998274551             -4.584        0.998619403              -4.59      0.00508803394            -91.616
               578     0.00515406629            -86.058         0.99873438              -4.65         0.99884937             -4.586      0.00486519218            -89.873
               579     0.00494253781            -87.939        0.998504439             -4.659         0.99905075             -4.681      0.00482947586            -86.873
               580       0.004912471            -87.778        0.998504439              -4.68        0.998389489             -4.652      0.00477144586            -89.934
               581     0.00475510471            -87.231        0.999815878               -4.7        0.999392842             -4.674      0.00449376218            -94.884
               582     0.00457140817            -87.227        0.998274551             -4.706        0.999063632             -4.654      0.00444528899            -87.361
               583     0.00455512186            -87.446        0.998984615             -4.729        0.998389489             -4.739      0.00444836075            -89.283
               584     0.00450764805            -85.784         0.99902349             -4.806        0.998044717             -4.714       0.0040968494             -89.76
               585     0.00445964203            -85.525         0.99873438             -4.749        0.998044717             -4.707      0.00395275594             -87.59
               586     0.00431519077            -86.624        0.997700064             -4.745        0.998044717             -4.759      0.00396643188             -86.64
               587     0.00396460569            -85.422        0.998619403             -4.766        0.998159627             -4.773      0.00374627798            -88.789
               588     0.00365636885            -80.245        0.998504439             -4.805        0.997814935             -4.778      0.00346776772            -84.938
               589     0.00360246691            -82.888        0.998389489             -4.842         0.99886478             -4.828      0.00338805148            -83.862
               590     0.00392735356            -85.322        0.997929819             -4.762        0.998619403             -4.808      0.00340133964            -82.483
               591     0.00347776314            -86.869        0.999260798             -4.855        0.999034877             -4.765      0.00337948093            -89.434
               592     0.00321292065            -84.686        0.998619403             -4.924        0.999345704             -4.869      0.00315827542             -82.34
               593     0.00335969614            -83.615        0.998274551             -4.895         0.99873438              -4.88      0.00300573024             -84.55
               594     0.00321403055            -83.525          0.9990228             -4.849        0.998159627             -4.844      0.00276439437            -87.109
               595     0.00296107904            -78.175        0.999135638             -4.935        0.998504439             -4.853       0.0026408881             -84.77
               596        0.00283498            -78.385        0.998885365             -4.948        0.998504439             -4.905      0.00251304346            -77.125
               597     0.00273747398            -80.327        0.997929819             -4.972        0.998504439             -4.883      0.00268040241            -80.685
               598     0.00276821616            -82.758        0.997814935              -4.95        0.999256311              -4.94      0.00249000374            -78.169
               599     0.00270644995            -82.016         0.99885144             -4.967        0.998619403             -4.951      0.00233910652            -72.807
               600     0.00243080432            -76.444        0.998044717             -4.979         0.99873438             -5.006      0.00199503262            -74.639
               601     0.00215699928            -79.022        0.998044717             -5.036        0.998389489             -5.022      0.00214165741            -81.002
               602     0.00213574796            -73.453        0.998619403              -5.05        0.998274551             -5.043       0.0017480345            -78.411
               603       0.002018134             -73.71        0.998159627             -5.096        0.998882145              -5.02       0.0018102977            -76.484
               604     0.00161994399            -66.583         0.99884937             -5.107        0.998274551             -5.048      0.00155901395            -73.607
               605     0.00180239511             -74.99        0.998389489             -5.059         0.99914208             -5.067      0.00154294342            -77.987
               606      0.0016205036            -63.387        0.998389489               -5.1        0.999010378             -5.102      0.00147621631            -63.778
               607     0.00156098957            -53.927        0.997929819             -5.139         0.99873438               -5.1      0.00141758791            -62.589
               608     0.00148559353            -56.106        0.999180386             -5.123        0.998876165             -5.128      0.00114564483            -59.557
               609     0.00122179966            -70.186        0.998389489             -5.148        0.999004168             -5.195     0.000792227657            -60.389
               610      0.0012654646            -56.015        0.998159627             -5.185        0.998044717              -5.14     0.000860003067            -48.321
               611     0.00124997118            -49.803        0.998619403             -5.163        0.998504439             -5.213     0.000861489523            -43.953
               612     0.00089227762             -44.38        0.998619403             -5.233        0.998274551             -5.174     0.000739434994             -46.92
