!{251R15S220}
!Johanson Technology Inc.
!www.johansontechnology.com
!Test Board Conditions:
!Substrate Type  RO4350B
!Substrate Thickness        20 mil
!Substrate Dk      3.66
!TL Type: GCPW 
!TL Trace Width  34 mil
!TL Gap  10 mil
!Electrode orientation      Horizontal
!DUT TOPOLOGY	SERIES
!Mounting Pad LxW         26x52 mil
! Created Thu Mar 12 17:09:29 2020
# mhz S ma R 50
! 2 Port Network Data from SP1.SP block
! freq  magS11  angS11  magS21  angS21  magS12  angS12  magS22  angS22  
!     
               500       0.137863722            -88.893        0.989122315               1.52        0.989805813              1.517        0.137293507             -88.23
               501       0.137451663            -88.942        0.989350095              1.448        0.989577928              1.446        0.136961972            -88.322
               502       0.137230296            -88.962        0.988894588               1.49         0.99003375              1.432         0.13652117            -88.319
               503       0.136946204            -88.985        0.989122315              1.419        0.989919775              1.397        0.136395487            -88.415
               504       0.136536888            -88.942        0.989122315              1.372        0.990375755              1.386        0.135909558            -88.492
               505       0.136254232            -88.961        0.989464005              1.382        0.989577928              1.343        0.135534544            -88.496
               506       0.135956508            -89.035        0.989464005              1.328         0.99003375              1.355        0.135394181            -88.432
               507       0.135626158            -89.061        0.989563026              1.252        0.990702959              1.322        0.135049649            -88.505
               508       0.135253963             -89.15        0.989919775              1.262        0.989805813              1.241        0.134663532             -88.52
               509       0.134942888            -89.177         0.99026174              1.235        0.990147739              1.241        0.134384754             -88.53
               510       0.134663532            -89.308        0.990375755              1.204        0.990375755              1.194        0.133998519            -88.607
               511       0.134431177            -89.245        0.989691864              1.173        0.990489783              1.157        0.133628779            -88.639
               512       0.133993618            -89.315        0.990453554               1.14        0.990681641              1.144        0.133516247            -88.707
               513       0.133542845            -89.423        0.989624923              1.078        0.990878999              1.093        0.132868069            -88.773
               514       0.133437018            -89.331        0.990207763              1.085         0.99089201              1.095        0.132869814            -88.755
               515       0.132831171            -89.448        0.990147739              1.042        0.990375755              1.069        0.132342703             -88.78
               516       0.132831171            -89.391         0.99003375              1.016        0.989919775              0.996        0.132144776            -88.797
               517       0.132398656            -89.582        0.990452326              1.012        0.990794475              0.905        0.131502369            -88.854
               518       0.131977531             -89.52        0.990375755               0.97        0.990717878              0.962        0.131189779            -88.944
               519       0.131630906            -89.605        0.990165684              0.893        0.991078081              0.916        0.130905493            -88.955
               520       0.131446795            -89.563        0.990489783              0.861         0.99026174              0.852         0.13066221            -89.013
               521       0.131129378            -89.585        0.989805813              0.831        0.990489783              0.873        0.130166732            -88.928
               522       0.130496841            -89.782        0.991060119              0.816        0.990717878              0.788        0.130121781            -88.991
               523       0.130361695            -89.736        0.991060119              0.799        0.990717878              0.793        0.129747799            -89.055
               524       0.130286675            -89.643        0.990603824              0.719        0.990946025              0.764        0.129374892            -89.165
               525       0.129979731            -89.716        0.990320188              0.779        0.991346853              0.762        0.129218779             -89.05
               526       0.129549486            -89.839        0.991255695              0.684        0.990457159               0.68        0.128894889            -89.286
               527       0.129226029            -89.834        0.989919775              0.668        0.990946025              0.663         0.12835122             -89.16
               528       0.129133884             -89.91        0.990695554              0.654        0.991266009              0.631         0.12817113            -89.186
               529        0.12863229            -89.883        0.990603824              0.626        0.990489783              0.555        0.127761499            -89.177
               530       0.128129756            -89.977        0.990946025              0.578        0.991402478              0.595        0.127643881            -89.253
               531       0.127761499            -90.036        0.991288345              0.553        0.991060119              0.567        0.127526371            -89.294
               532       0.127702677            -90.035        0.990946025              0.529        0.991288345              0.524        0.127218421            -89.274
               533       0.127203682            -90.196        0.991401756              0.447        0.991059397              0.491        0.126633813            -89.402
               534       0.126955056            -90.079         0.99026174              0.416        0.990946025              0.437        0.126110138            -89.454
               535       0.127028158            -90.023        0.991288345              0.461        0.991288345              0.459        0.126284486            -89.335
               536       0.126656913            -90.229        0.990669743              0.391        0.991696771              0.358        0.125756053            -89.426
               537       0.126071133            -90.204        0.991438216              0.395        0.991552366              0.393        0.125477442            -89.439
               538       0.125943221            -90.263        0.990774448              0.307        0.991687405              0.354        0.124975475            -89.578
               539       0.125566146            -90.399        0.991568143              0.307        0.991339852              0.293        0.124845406            -89.512
               540       0.125487365            -90.232        0.991288345              0.266        0.991516624              0.238        0.124666567            -89.712
               541       0.124997118            -90.285        0.990946025              0.264        0.991744955              0.222        0.124165231            -89.586
               542       0.124767077            -90.288        0.991288345              0.185        0.990946025              0.222         0.12393672            -89.623
               543       0.124351206            -90.491        0.991288345              0.162        0.991973339              0.112        0.123480961            -89.502
               544       0.123908186            -90.492        0.990946025              0.132        0.991859141              0.111        0.123310483            -89.671
               545       0.123955536             -90.67        0.991552985              0.128        0.991324698               0.14        0.123017225            -89.772
               546       0.123497665            -90.517        0.991422446              0.082        0.991879118              0.098        0.122478186            -89.774
               547       0.123480961            -90.638        0.991174225              0.087        0.991402478              0.018        0.122588576            -89.853
               548       0.123019668            -90.656        0.991230254              0.051        0.992143631              0.011        0.122116556            -89.676
               549       0.122673286            -90.563        0.992087551           -0.00901        0.991516624             -0.027        0.121800761            -89.871
               550       0.122524126            -90.573        0.991337677              0.023        0.992251154             -0.026        0.121834872            -89.823
               551        0.12229255            -90.803        0.991288345              -0.03        0.990831945             -0.077        0.121296983            -89.851
               552       0.121814784            -90.678        0.991516624              -0.12        0.992087551             -0.094        0.121087692            -90.021
               553       0.121535181            -90.773         0.99174955             -0.105        0.992092147             -0.094        0.120893239            -89.995
               554       0.121408753            -90.696        0.991174225             -0.123        0.991859141             -0.129        0.120586864            -89.975
               555       0.121056648            -90.764         0.99183321             -0.151        0.992175836             -0.132        0.120140282            -89.986
               556       0.120586864            -90.814        0.992201776             -0.241        0.991973339             -0.185        0.119880901            -90.068
               557       0.120448113            -90.856        0.991630783             -0.227        0.992087551             -0.233        0.119453808            -90.087
               558       0.120192163             -90.97        0.992147295             -0.242        0.991918871             -0.303        0.119268609            -90.155
               559       0.120046638            -90.942        0.991174225             -0.335        0.991859141             -0.253        0.118863907            -90.061
               560       0.119784328            -91.081        0.992201776             -0.342        0.991516624               -0.3        0.118740808            -90.144
               561       0.119412558            -91.015        0.991973339              -0.35        0.991516624             -0.345        0.118263302            -90.171
               562       0.119233969            -90.943        0.991859141             -0.353        0.991630783             -0.371        0.118222462            -90.176
               563       0.118631494            -91.077        0.991859141             -0.399        0.991630783             -0.378        0.117950558            -90.215
               564       0.118345023            -91.108        0.992087551             -0.421        0.992544529              -0.43         0.11774704            -90.284
               565       0.118140825            -91.216        0.991744955             -0.448        0.992316014             -0.489        0.117462706            -90.198
               566       0.117909241             -91.18        0.992311088             -0.474        0.992425339             -0.489        0.117245948            -90.374
               567       0.117598017            -91.182        0.991973339              -0.54        0.992658807             -0.518        0.116963404            -90.401
               568       0.117300537            -91.237        0.992201776             -0.512        0.992430265             -0.531        0.116586966            -90.343
               569       0.117165567             -91.23        0.991973339             -0.551        0.992430265             -0.599        0.116412603            -90.321
               570       0.116949939            -91.308        0.992201776             -0.603        0.992316014             -0.627        0.116265269            -90.434
               571       0.116717679            -91.274        0.991942829             -0.634        0.992856863             -0.656        0.115647605            -90.437
               572       0.116544692            -91.306        0.992413126             -0.711        0.992641664             -0.658        0.115502797            -90.534
               573       0.116034687            -91.463        0.992516729             -0.678        0.992631003             -0.705         0.11528899            -90.519
               574       0.115850341            -91.435        0.992424129             -0.702        0.992995579             -0.723        0.115304781            -90.419
               575       0.115557267            -91.379        0.992995456              -0.77        0.992309756             -0.771        0.114893977            -90.649
               576       0.115435476            -91.525        0.991834702             -0.782        0.992977252             -0.819        0.114350824            -90.635
               577       0.115133047            -91.388        0.991630783             -0.791        0.992316014             -0.804        0.114169474            -90.568
               578       0.114803101            -91.599        0.992324281             -0.851        0.993009991             -0.899        0.113868505            -90.661
               579       0.114446991            -91.712        0.992211781             -0.848        0.993011732             -0.867        0.113776974            -90.681
               580       0.114327314            -91.549        0.992658807             -0.895        0.992773098             -0.904        0.113370484            -90.678
               581       0.114064368            -91.485        0.992658807             -0.969        0.992658807              -0.92        0.113200931             -90.73
               582       0.113902108             -91.61        0.992502849             -0.918        0.993188683             -1.002        0.112883837             -90.65
               583       0.113422705            -91.639        0.993116048              -0.99        0.992201776             -0.995        0.112641908            -90.724
               584       0.113213965            -91.635        0.993116048             -1.017        0.992201776             -0.975        0.112395779            -90.687
               585       0.112862726            -91.687        0.993231614             -0.992        0.992660029             -1.044        0.112098689            -90.878
               586       0.112639834            -91.691        0.993326451              -1.06        0.992754811             -1.067        0.111993289            -90.903
               587       0.112577085            -91.833        0.993116048             -1.079        0.992887401             -1.101         0.11173777            -90.865
               588       0.112021143            -91.908        0.992658807             -1.145        0.993116048             -1.169        0.111109195             -90.87
               589        0.11184241            -91.806        0.992787992             -1.136        0.993474023             -1.146        0.111213246            -90.908
               590       0.111866487            -91.851        0.993230392             -1.142        0.993001718             -1.192        0.110891945            -90.829
               591       0.111425066            -92.032        0.992848306             -1.217        0.993305635             -1.215        0.110568877            -90.978
               592       0.111247107            -92.001        0.993204607             -1.226        0.993204607              -1.25        0.110379577            -90.953
               593        0.11103247            -91.968        0.992773098             -1.235        0.993344748             -1.254         0.11012857            -90.966
               594       0.110904712            -91.886        0.992773098              -1.24        0.993459118             -1.253        0.109875281            -91.034
               595       0.110482176            -91.969        0.992869611             -1.334        0.993670092             -1.315        0.109772162            -91.053
               596       0.110534345            -91.982         0.99310974             -1.337        0.993338438             -1.332          0.1093194            -91.054
               597       0.110077823            -92.045        0.993344364             -1.319        0.993458733             -1.345         0.10940819            -91.079
               598       0.109962198            -92.135        0.992758038              -1.38        0.993444048             -1.413        0.108678444            -91.215
               599        0.10945288            -92.063        0.992949569             -1.395        0.993750114              -1.43        0.108574338            -91.123
               600       0.109423995            -92.156        0.993030452              -1.45        0.993602251             -1.461        0.108308506            -91.161
               601       0.109112981            -92.201        0.993405181              -1.48        0.993290818             -1.451         0.10793851            -91.205
               602       0.108505062            -92.199        0.992658807             -1.468        0.993459118              -1.52        0.107882251            -91.133
               603        0.10868269            -92.375        0.992568248             -1.553        0.993711642             -1.539        0.107500474            -91.313
               604        0.10844036            -92.294        0.992409585             -1.532        0.993896017              -1.56        0.107409068            -91.252
               605       0.108193208            -92.206        0.992658807             -1.592        0.993802306             -1.604        0.106942418            -91.289
               606       0.107544094            -92.287        0.993885982             -1.596         0.99331402             -1.584         0.10693911            -91.399
               607       0.107473155            -92.418        0.993230392             -1.616        0.993459118              -1.64        0.106721028            -91.367
               608       0.107219978            -92.443        0.993632334             -1.685        0.993517944             -1.687         0.10623698            -91.476
               609       0.107077938            -92.437        0.993230392             -1.675        0.992887401             -1.707        0.106316336            -91.265
               610        0.10686857             -92.52        0.992773098             -1.721        0.993230392              -1.71        0.105974164            -91.475
               611       0.106465918            -92.713        0.993483374             -1.742         0.99359776             -1.727        0.105514125            -91.481
               612       0.106405639            -92.469        0.993835814             -1.725        0.993492614             -1.758        0.105308795            -91.472
