!{251R14S130}
!Johanson Technology Inc.
!www.johansontechnology.com
!Test Board Conditions:
!Substrate Type  RO4350B
!Substrate Thickness        20 mil
!Substrate Dk      3.66
!TL Type: GCPW 
!TL Trace Width  36 mil
!TL Gap  12 mil
!Electrode orientation      Horizontal
!DUT TOPOLOGY	SERIES
!Mounting Pad LxW         26x36 mil
! Created Wed Mar 11 15:50:19 2020
# mhz S ma R 50
! 2 Port Network Data from SP1.SP block
! freq  magS11  angS11  magS21  angS21  magS12  angS12  magS22  angS22  
!     
               500       0.223691767            -80.503        0.971404252              8.922        0.971627952              8.871        0.224026813            -80.602
               501       0.223074537            -80.535        0.971963598              8.831        0.972187427              8.823        0.223357222            -80.706
               502       0.222330989            -80.671        0.972075506              8.753        0.972075506              8.769        0.222638363            -80.748
               503       0.222049602            -80.647        0.971516095              8.753        0.971963598              8.732        0.222151884            -80.774
               504       0.221487897            -80.694        0.971516095              8.689        0.972523266              8.694         0.22156441            -80.816
               505        0.22095305            -80.764        0.972187427              8.683        0.972411307              8.623        0.221054826            -80.906
               506       0.220292646            -80.766        0.972075506              8.651        0.972859222              8.586        0.220241928            -80.969
               507       0.219482551            -80.878        0.972747224              8.573        0.972523266              8.557        0.219836601            -80.969
               508       0.219154302             -80.85        0.971963598              8.502        0.972635239              8.552        0.219356243            -80.976
               509       0.218876936            -80.914        0.972859222              8.476        0.973755671              8.506         0.21892734            -81.061
               510       0.218072047            -80.902        0.973307343              8.462        0.972747224              8.475        0.218398675            -81.079
               511       0.217420255            -80.926         0.97229936              8.389        0.973083257              8.428        0.217620598            -81.089
               512       0.216945177             -81.04        0.972859222              8.389        0.973419406              8.356        0.217145083             -81.13
               513       0.216371472              -81.1        0.973531481              8.281        0.973867785              8.278        0.216570849            -81.258
               514       0.215998134             -81.06        0.973531481              8.279         0.97364357              8.317         0.21607275            -81.241
               515       0.215327749            -81.171        0.972971233              8.204        0.974540742              8.256        0.215402133            -81.316
               516       0.215055226            -81.241        0.973867785              8.229        0.974652946               8.22        0.215203832            -81.379
               517       0.214264391            -81.229        0.973755671              8.145        0.974316371              8.179        0.214338408            -81.416
               518       0.213870064             -81.32        0.973867785              8.118         0.97442855              8.104        0.213894688            -81.383
               519       0.213279935            -81.281        0.973531481              8.071         0.97442855              8.099         0.21332905            -81.429
               520       0.212862912             -81.34        0.974092052              8.018        0.974316371              8.043        0.213083587            -81.475
               521       0.211982495            -81.379        0.973867785              7.982        0.973979912              8.017        0.212006902            -81.542
               522       0.211714206            -81.419        0.973979912              7.964        0.974765164              7.982        0.211592369             -81.64
               523       0.210911374            -81.491        0.974204205               7.93        0.974092052              7.896        0.211057116             -81.67
               524       0.210717206            -81.514        0.974877394              7.891        0.974877394              7.909        0.210911374            -81.662
               525       0.209869825             -81.55         0.97442855              7.871        0.974877394                7.8        0.210014848            -81.744
               526       0.209555952            -81.513        0.974316371              7.835         0.97543874              7.822        0.209435356            -81.808
               527       0.208977726            -81.579        0.974652946              7.836        0.974989638              7.784        0.208953668            -81.767
               528       0.208497091            -81.678        0.974989638              7.748         0.97600041              7.712        0.208497091            -81.813
               529       0.208305147            -81.698        0.975101894              7.697         0.97600041              7.703        0.208113379            -81.819
               530       0.207491352             -81.72        0.975551048              7.652        0.975663369              7.657         0.20739582            -81.963
               531       0.207061807            -81.778        0.975663369              7.625        0.975775703              7.626         0.20703797            -81.927
               532        0.20625287             -81.89        0.975663369              7.576        0.976225168              7.556        0.206656943             -82.07
               533       0.205896991             -81.88        0.975326445              7.534        0.975663369              7.543         0.20570744            -81.985
               534       0.205518064             -81.98        0.975775703              7.477         0.97588805               7.48        0.205139834            -82.074
               535       0.204833035            -81.962         0.97588805              7.462        0.976225168              7.464        0.205139834            -82.133
               536       0.204197302            -81.958        0.976112782              7.379         0.97543874              7.466        0.204220813            -82.105
               537       0.203563542            -81.969        0.976112782              7.369         0.97543874              7.419        0.204009316            -82.137
               538       0.203142129            -82.093         0.97588805              7.333        0.976337567              7.329        0.203142129            -82.212
               539       0.203095359            -82.135        0.976449978               7.34         0.97678729               7.28        0.202955114            -82.299
               540       0.202185497            -82.178        0.976562402              7.262         0.97701223              7.254        0.202162221            -82.354
               541       0.201859875            -82.219        0.976899753              7.248         0.97701223              7.264        0.201999363            -82.333
               542       0.201418798            -82.313        0.977349736              7.205        0.977462264               7.18        0.201557981            -82.321
               543       0.200678109            -82.307        0.976899753              7.113        0.976562402              7.163        0.200701214            -82.386
               544        0.19973308            -82.399        0.976449978               7.07        0.977799926              7.078         0.20012438            -82.473
               545       0.199457329            -82.465        0.977124719              7.053        0.976562402              7.076        0.199802078             -82.48
               546       0.199021502             -82.41        0.976562402              6.998         0.97667484              7.024        0.199227828            -82.444
               547       0.198700976            -82.408         0.97678729              6.986        0.977912506              7.037         0.19899859            -82.597
               548       0.198472345            -82.489         0.97678729              6.978        0.977349736              6.964        0.198380966            -82.531
               549       0.197879134            -82.587        0.977124719              6.937        0.977349736              6.952          0.1978108            -82.569
               550       0.197264983            -82.498         0.97701223              6.853        0.977912506              6.904         0.19706069            -82.646
               551       0.196720672            -82.518        0.977237221              6.852        0.977574805              6.861        0.196924613            -82.694
               552       0.196358633            -82.673        0.977912506              6.815        0.978700928              6.815        0.196336028            -82.706
               553       0.195952135            -82.658        0.977462264               6.79        0.977574805              6.772        0.195704134            -82.735
               554       0.195321477            -82.703        0.977687359              6.744        0.978250323              6.783        0.195366457            -82.817
               555        0.19498446            -82.725        0.977799926              6.707        0.979039017              6.736        0.195096734            -82.809
               556       0.194200346            -82.712        0.977799926              6.665        0.978250323              6.674        0.194446442            -82.792
               557       0.193999227             -82.87        0.978362955               6.63        0.978250323              6.629        0.193731392            -82.921
               558       0.193508479             -82.78        0.978250323              6.657        0.977574805              6.592        0.193263571             -82.88
               559       0.192774684            -82.952        0.978025099              6.511        0.979264475              6.578        0.192952318            -82.962
               560       0.192176376            -82.871        0.978700928              6.484        0.979039017              6.464        0.192819077            -83.084
               561       0.191933154             -82.97        0.978250323              6.477        0.979039017              6.526        0.191911058            -82.981
               562       0.191205332            -82.941        0.977912506              6.483        0.978588257               6.43        0.191337458              -83.1
               563       0.191029307            -83.032        0.978362955              6.347        0.979715547              6.447        0.190875418            -83.164
               564       0.190546072            -83.092        0.978475599              6.374        0.979377224              6.368        0.190348737            -83.112
               565         0.1900203            -83.119        0.978475599              6.344        0.979264475              6.309         0.18956144            -83.102
               566       0.189539618            -83.134        0.978250323               6.29        0.979377224              6.298        0.189626924            -83.218
               567       0.189234362            -83.239        0.979039017              6.298        0.979039017              6.275        0.189299732            -83.211
               568       0.188799135            -83.241        0.980053987               6.25        0.979828348              6.253        0.188864355            -83.235
               569       0.188126511            -83.299        0.979941161              6.181        0.979715547               6.15        0.188256509            -83.329
               570       0.187780288            -83.227        0.979489985              6.122        0.979489985              6.183        0.187715442            -83.281
               571       0.187219034             -83.25        0.978813611              6.181        0.979828348              6.127        0.187521039            -83.268
               572       0.186852968            -83.351        0.979264475              6.105        0.979377224              6.125        0.186723939            -83.421
               573       0.185908822            -83.388        0.979828348              6.054        0.979377224              6.053        0.186251595            -83.485
               574        0.18588742            -83.363        0.979489985               6.01        0.979828348              6.015        0.185844623            -83.578
               575       0.185246495            -83.462        0.979039017              5.943        0.980053987              5.972        0.184969448             -83.44
               576       0.184969448            -83.544        0.979828348               5.94        0.979489985              5.941        0.185054649             -83.55
               577       0.184480302            -83.498        0.980053987              5.915        0.980279679              5.937        0.184756616            -83.606
               578       0.183907737            -83.536        0.980166827              5.838        0.981408918              5.895        0.184098394             -83.67
               579       0.183653834            -83.662        0.980279679              5.859        0.980618314              5.831        0.183379169            -83.629
               580       0.183189256            -83.654        0.980957066              5.728        0.980279679              5.814        0.182725854            -83.729
               581       0.182599675            -83.654        0.980166827              5.722        0.980392545              5.776        0.182557635            -83.761
               582       0.181907246            -83.657        0.979264475              5.735        0.980505423              5.715        0.181823494            -83.742
               583       0.181718858            -83.724        0.980053987              5.665        0.980505423              5.713        0.181739781            -83.768
               584       0.181050613            -83.745        0.979489985              5.658        0.980844136              5.682        0.181217444            -83.808
               585       0.180925591            -83.723        0.979941161              5.668        0.980392545              5.625        0.180800655            -83.864
               586       0.180613413            -83.769        0.980731219              5.633        0.981408918               5.62        0.180696608            -83.884
               587        0.18005285            -83.801        0.980618314              5.583        0.980731219              5.577        0.180073581            -83.937
               588       0.179432042            -83.875        0.981295935              5.532        0.981521913              5.517        0.179494027            -84.003
               589        0.17895754            -83.834        0.980392545              5.472        0.980618314              5.495        0.178916338            -83.977
               590       0.178689898            -83.904        0.980392545              5.441        0.981182966              5.436        0.178648757            -84.017
               591       0.178237877            -83.883         0.98107001              5.391        0.980505423              5.472        0.178114797            -84.059
               592       0.177684686            -83.991        0.980844136               5.38        0.981521913              5.372        0.177827941              -84.1
               593       0.177480237            -84.087        0.981182966              5.328        0.981860977              5.394        0.177337262            -84.224
               594       0.177031276            -84.105        0.981408918              5.322        0.981295935              5.325        0.176949769            -84.122
               595       0.176359963             -84.11        0.980844136              5.283        0.981974025              5.271        0.176400576            -84.165
               596       0.176258472              -84.1        0.981182966              5.272        0.982087085              5.231        0.176075934            -84.228
               597       0.175812601            -84.122        0.981408918              5.229        0.981747943              5.285        0.175792361            -84.194
               598         0.1753073            -84.196        0.981747943              5.177        0.982313245              5.189         0.17514591            -84.323
               599       0.174622419            -84.239        0.981974025              5.126        0.981634922               5.14        0.174622419             -84.32
               600       0.174301049            -84.224        0.981521913              5.142        0.982426345              5.127        0.174240858            -84.257
               601       0.173840115            -84.282        0.981634922              5.071        0.982539457              5.104        0.173880148            -84.411
               602       0.173580126            -84.226        0.982087085              5.057        0.982539457              5.076        0.173780083            -84.358
               603       0.173180903            -84.199        0.982087085              4.985        0.982087085              5.077         0.17294181            -84.465
               604        0.17260366            -84.325        0.981974025              5.031        0.982313245              4.944        0.172623533            -84.416
               605       0.172206682            -84.385        0.982087085              4.946        0.983218406              4.941        0.172286005            -84.551
               606       0.171909549            -84.329        0.982652583              4.968        0.982878873               4.94        0.171949137            -84.562
               607       0.171237942            -84.428        0.982539457              4.907        0.982426345              4.878        0.171336543            -84.585
               608       0.171040911            -84.519        0.982878873              4.848        0.983218406              4.836        0.171080299             -84.65
               609       0.170490428            -84.561        0.982539457              4.809        0.983218406              4.871        0.170588598            -84.621
               610       0.169961283            -84.513        0.982539457              4.772        0.982539457              4.784        0.170019995            -84.738
               611       0.169687558             -84.48        0.981747943              4.695        0.983105215              4.778        0.169453288             -84.76
               612        0.16919986            -84.575        0.982539457              4.739        0.982878873               4.73        0.169083021            -84.833
