!{201R07S0R6}
!Johanson Technology Inc.
!www.johansontechnology.com
!Test Board Conditions:
!Substrate Type  RO4350B
!Substrate Thickness        10 mil
!Substrate Dk      3.66
!TL Type: GCPW 
!TL Trace Width  21 mil
!TL Gap  20 mil
!Electrode orientation      Horizontal
!DUT TOPOLOGY	SERIES
!Mounting Pad LxW         16x21 mil
!Agilent Technologies,N5230A,MY45001966,A.07.50.67
!Agilent N5230A: A.07.50.67
! Created Mon Mar  9 16:16:14 2020
# mhz S ma R 50
! 2 Port Network Data from SP1.SP block
! freq  magS11  angS11  magS21  angS21  magS12  angS12  magS22  angS22  
!     
               500       0.982407379            -14.532        0.175526065             75.726        0.176031997             75.882        0.984105402             -14.35
               501       0.982459927            -14.549        0.176081952             75.699         0.17644723             75.843        0.984044742            -14.371
               502       0.981964183            -14.569        0.176256705             75.671        0.176744394             75.845        0.984001244            -14.419
               503       0.982136017            -14.626        0.176612581             75.631         0.17706048             75.778        0.983946845             -14.44
               504       0.983092354            -14.631        0.176927083             75.609        0.177334942             75.766         0.98365843            -14.466
               505       0.981913251            -14.633        0.177326287             75.615        0.177694146             75.726        0.983836931            -14.507
               506       0.982810315            -14.691        0.177651838              75.56        0.178040869             75.698        0.983602686            -14.517
               507       0.982006103            -14.687        0.177895182             75.563        0.178449028             75.674        0.983703433            -14.524
               508       0.981511264            -14.732        0.178153881              75.55        0.178770267             75.641        0.983660627            -14.557
               509       0.982413014            -14.791        0.178605203             75.486        0.179140634             75.625        0.983431482            -14.577
               510       0.981672167            -14.797        0.178861339              75.42        0.179356235             75.598        0.983595374            -14.594
               511        0.98178719            -14.814        0.179232747             75.405        0.179687291             75.582        0.983484141             -14.64
               512        0.98140241            -14.876        0.179575515             75.405        0.179989479             75.503        0.983438305            -14.683
               513        0.98208874            -14.908        0.179990976             75.377        0.180426669              75.49        0.983220062            -14.704
               514       0.982317203            -14.888        0.180177995             75.345        0.180738948             75.446        0.983109176            -14.775
               515       0.981810718            -14.935          0.1805418             75.308        0.181187306             75.429        0.983168077            -14.754
               516       0.981462014             -14.97        0.180935379             75.253        0.181436014              75.41        0.983158403            -14.808
               517       0.981386818             -14.98        0.181255094             75.277          0.1818194             75.352        0.983083077            -14.834
               518       0.981058013            -14.998        0.181507548             75.227        0.182198455             75.425        0.982980018            -14.849
               519       0.980758907            -15.053         0.18201713             75.167        0.182457727             75.315         0.98301979            -14.905
               520       0.981232295            -15.091        0.182230822             75.073        0.182903423             75.247        0.982928287            -14.974
               521       0.980568671            -15.086        0.182506364             75.138        0.183116725              75.25        0.982942274            -14.914
               522       0.981520878            -15.173        0.183062564             75.099        0.183484567             75.202        0.982764685             -14.92
               523       0.981214669             -15.15        0.183363982             75.061        0.183850169             75.215        0.982684334            -15.007
               524        0.98136971            -15.113        0.183688788             75.057        0.184281886             75.197        0.982613325             -15.02
               525       0.981506605            -15.209        0.183926043             75.077        0.184541152             75.151        0.982411023            -15.021
               526       0.979738703            -15.238        0.184187547             74.974         0.18469718             75.114        0.982675808            -15.054
               527       0.980380533            -15.271        0.184754353              74.97        0.185073688             75.095         0.98252742            -15.089
               528       0.979972275            -15.257        0.184911444             75.019        0.185359048             75.098        0.982457538            -15.102
               529       0.980300308            -15.295        0.185399748             74.888        0.185634691             75.065        0.982447019            -15.141
               530       0.981112709            -15.354        0.185617493             74.908        0.186173945             74.981        0.982129829            -15.214
               531       0.981296329            -15.434        0.186101629             74.874        0.186509164             74.942        0.982087479            -15.155
               532       0.979896658            -15.373        0.186350377             74.873        0.186608008             74.967        0.982268634            -15.184
               533       0.980494051            -15.433        0.186571354             74.797        0.187152211             74.964        0.982075695            -15.229
               534       0.980992776            -15.466        0.187096563              74.78        0.187679056             74.849         0.98189672            -15.295
               535       0.980708068            -15.477        0.187365553             74.723        0.187883979             74.848        0.981950845            -15.318
               536       0.980958203            -15.528        0.187672441             74.737        0.188256727             74.797         0.98174908            -15.335
               537       0.979866704            -15.513         0.18780926             74.693        0.188524154             74.816        0.981899413            -15.347
               538       0.980109181             -15.53        0.188483986              74.69        0.188809768             74.769        0.981803232            -15.401
               539       0.979764353            -15.551        0.188634721             74.628        0.188960763             74.795         0.98179685            -15.422
               540       0.980136013            -15.643         0.18894541             74.579        0.189599133             74.722        0.981604062            -15.458
               541       0.979609431            -15.607        0.189388218             74.639        0.189759251             74.713        0.981641607            -15.438
               542       0.980352037            -15.651        0.189662755             74.515        0.190187538             74.672        0.981481359            -15.531
               543       0.979872565            -15.735        0.189832076             74.511        0.190598553             74.633        0.981453206            -15.484
               544       0.979494887            -15.715         0.19034969              74.48        0.190810458             74.668         0.98141383            -15.549
               545          0.979128            -15.732        0.190760947             74.496        0.191200697              74.58        0.981385123            -15.578
               546       0.980560352            -15.767        0.190886111             74.427        0.191612717             74.545        0.981012021             -15.63
               547       0.979938781            -15.782        0.191314966             74.423        0.191800151             74.533        0.981180583            -15.634
               548       0.980222897             -15.87        0.191811589             74.361        0.192165245             74.431        0.981126131            -15.652
               549       0.980131569             -15.88        0.191970448             74.306         0.19261246             74.493         0.98092178            -15.692
               550       0.978437569             -15.89        0.192301698             74.289        0.192656258             74.425        0.981144831            -15.744
               551       0.979614804            -15.885         0.19279925             74.296        0.193110256             74.437        0.980969127            -15.726
               552       0.978287617            -15.943        0.193115244             74.252        0.193382227             74.372        0.980994464            -15.785
               553       0.978959204            -15.952         0.19333683             74.243        0.193648704             74.359        0.980877097            -15.829
               554       0.979379489             -16.01        0.193843394             74.233        0.194111383              74.34        0.980733487            -15.793
               555       0.978841602            -15.987        0.194049451             74.195        0.194429616             74.343        0.980759264            -15.817
               556       0.978462813            -16.032         0.19430963             74.155         0.19475756             74.243        0.980718403            -15.907
               557       0.977559689            -16.084        0.194622606             74.096        0.194958998             74.222        0.980716054            -15.916
               558       0.979054998            -16.126        0.195010093             74.087        0.195504649             74.157        0.980521427            -15.954
               559       0.978683975            -16.097        0.195363073             74.064        0.195835976             74.214        0.980488439            -15.945
               560       0.978961338            -16.173        0.195575991             74.028        0.196207471             74.167        0.980314758            -15.999
               561       0.979125848            -16.172        0.196104932             74.031        0.196511747             74.163        0.980253758             -15.98
               562       0.979067133            -16.238        0.196477341             73.952         0.19679428             74.091        0.980194974            -16.067
               563       0.978235047            -16.265          0.1967176             73.911        0.197080302              74.05        0.980264372            -16.077
               564       0.977961273            -16.303         0.19704783             73.866        0.197388414             74.008        0.980215706             -16.12
               565       0.977420958            -16.308        0.197165828             73.905        0.197665851             74.035        0.980125407            -16.129
               566       0.978232096            -16.269        0.197807115             73.865        0.198012181             74.049        0.980035727            -16.145
               567       0.978367729            -16.391        0.197994041             73.837        0.198404775             73.919        0.979945943            -16.178
               568       0.977357527            -16.386        0.198177097             73.826        0.198725438             73.896        0.979948972            -16.206
               569       0.977414528            -16.436        0.198622658             73.692        0.199080531             73.891        0.979893304            -16.261
               570       0.978240765             -16.46        0.199111231             73.722        0.199524282             73.848        0.979705975            -16.295
               571       0.977145513            -16.464        0.199209132             73.706         0.19980633             73.798        0.979736397            -16.333
               572       0.977483929            -16.509        0.199553627             73.695         0.20019795             73.785        0.979624473            -16.326
               573       0.977247766            -16.509        0.199850246             73.638        0.200403216             73.786         0.97961333            -16.356
               574       0.978271117            -16.569        0.200428387             73.648         0.20070548             73.747        0.979398042             -16.38
               575       0.977220464            -16.616        0.200674668             73.596        0.200975239             73.649        0.979473189            -16.447
               576        0.97739467            -16.578        0.201011066              73.56        0.201219454             73.702        0.979422252             -16.45
               577       0.976875154            -16.632        0.201413726             73.566        0.201576112             73.658        0.979352562            -16.447
               578       0.975824886            -16.678        0.201475336             73.497        0.201916537              73.61        0.979313834            -16.528
               579       0.976098393            -16.713        0.201973131             73.452         0.20225236             73.584         0.97925004            -16.527
               580       0.976152197            -16.744        0.202263508             73.428        0.202543139             73.502        0.979191277            -16.596
               581       0.976492057            -16.777        0.202823706             73.406        0.202987229             73.474        0.979081208            -16.617
               582        0.97620427            -16.776        0.202904044             73.402        0.203348373             73.516        0.979018059            -16.592
               583       0.976478498            -16.827         0.20349919             73.356        0.203616367             73.417          0.9789549            -16.656
               584       0.975683638            -16.812        0.203591209             73.328        0.203731894             73.451        0.978946645            -16.657
               585       0.976237618            -16.867         0.20387104              73.29        0.204293965             73.421        0.978826094            -16.688
               586       0.975392618            -16.908        0.204234668              73.29        0.204587674             73.361        0.978767329            -16.722
               587       0.976621835            -16.927        0.204751188             73.225        0.204987052             73.377        0.978647813            -16.748
               588       0.976754306            -16.968        0.205085679             73.206        0.205392856             73.268        0.978555212            -16.834
               589       0.976163596            -17.023        0.205292275             73.162        0.205670786             73.267        0.978526536            -16.818
               590       0.976194785            -17.026        0.205630004             73.137        0.206056578             73.261        0.978445147            -16.842
               591       0.975592599             -17.03        0.205787266             73.134        0.206285403             73.231        0.978404625            -16.887
               592        0.97544256            -17.071        0.206419965             73.042        0.206562604             73.174        0.978366785            -16.922
               593       0.975246336            -17.106         0.20678276              73.05         0.20666376             73.163        0.978282596            -16.963
               594       0.976755844            -17.085        0.206959811             73.035        0.207413022             73.147        0.978106215            -16.996
               595       0.975637058             -17.15        0.207366352             73.047        0.207557432             73.119        0.978111326            -16.967
               596       0.976011147            -17.185        0.207756575             72.969        0.207852273             73.109        0.978035858            -17.007
               597       0.975703063            -17.219        0.208026024             72.967        0.208241685             73.032        0.977952291            -17.075
               598       0.975338655            -17.243        0.208331738             72.888        0.208571727             72.994        0.977924748            -17.119
               599       0.975440348            -17.261        0.208497435             72.908        0.209122478             72.997        0.977801538            -17.092
               600       0.975517562            -17.293        0.209042741             72.915        0.209139031             72.988        0.977766362            -17.076
               601       0.975253077            -17.316        0.209371387             72.801        0.209564314             72.962        0.977726372             -17.13
               602       0.975476468            -17.366        0.209539931             72.808        0.209950444             72.917        0.977612615             -17.17
               603       0.974889879             -17.38         0.20999336             72.743        0.210138468             72.862        0.977587324            -17.251
               604       0.975142828            -17.406        0.210459353             72.735        0.210507819             72.837        0.977503297            -17.242
               605       0.974204883            -17.421        0.210474895             72.731        0.210790145             72.852        0.977462944            -17.234
               606       0.974343303            -17.421        0.210795825             72.795        0.211111555             72.839        0.977376751            -17.211
               607       0.974596654            -17.471        0.211215077             72.673        0.211531435             72.761        0.977293287            -17.338
               608       0.974423297            -17.457        0.211518159             72.704        0.211859361              72.72        0.977231953            -17.349
               609       0.975215815            -17.541        0.212056083             72.653        0.212227049             72.685        0.977126374            -17.347
               610       0.974499071            -17.597        0.212266486             72.577        0.212559945             72.641        0.977082938            -17.398
               611       0.974628366            -17.545        0.212612624             72.647        0.212833039             72.661         0.97698759            -17.405
               612       0.974704664            -17.578        0.212947744             72.551        0.213094894             72.645         0.97695159            -17.439
