!{251R15S330}
!Johanson Technology Inc.
!www.johansontechnology.com
!Test Board Conditions:
!Substrate Type  RO4350B
!Substrate Thickness        20 mil
!Substrate Dk      3.66
!TL Type: GCPW 
!TL Trace Width  34 mil
!TL Gap  10 mil
!Electrode orientation      Horizontal
!DUT TOPOLOGY	SERIES
!Mounting Pad LxW         26x52 mil
! Created Thu Mar 12 17:12:57 2020
# mhz S ma R 50
! 2 Port Network Data from SP1.SP block
! freq  magS11  angS11  magS21  angS21  magS12  angS12  magS22  angS22  
!     
               500       0.101660524            -92.041        0.993693263             -1.491        0.994379919             -1.484        0.100983948            -91.677
               501       0.101251158            -91.979        0.993459118             -1.512        0.994374549             -1.507        0.100484714            -91.565
               502       0.101099731            -91.893        0.993344748             -1.561        0.994145612              -1.55        0.100577306            -91.645
               503        0.10108394            -92.081        0.994448186              -1.56        0.993990331             -1.586        0.100376526             -91.69
               504        0.10055415            -92.003        0.994145612             -1.591        0.993802306             -1.594        0.100138251            -91.687
               505       0.100450014             -92.06        0.994374549             -1.646        0.994031163             -1.574        0.100046062            -91.702
               506       0.100314758            -92.161         0.99417956             -1.672        0.994408505             -1.643       0.0995439408            -91.809
               507      0.0999769768            -92.078        0.993802306             -1.714        0.994718053             -1.668       0.0994031163            -91.738
               508       0.099980355            -92.231        0.994751665             -1.699        0.993721473             -1.736       0.0994179204            -91.791
               509      0.0998289328            -92.375        0.994160328              -1.73        0.994160328             -1.761       0.0989250842            -91.997
               510      0.0994644052            -92.289        0.994415053             -1.747        0.994415053             -1.799       0.0988593362            -91.928
               511      0.0993344748            -92.323        0.994603539             -1.809        0.994031163              -1.75       0.0987301962             -91.93
               512      0.0991557412            -92.337        0.994415455             -1.784        0.994415455             -1.798       0.0983485282            -91.901
               513      0.0989527946            -92.364        0.994553303             -1.807        0.994438808             -1.804       0.0983395155            -91.876
               514       0.098751674            -92.321        0.993789643             -1.868        0.994819905             -1.842       0.0979590278            -92.015
               515      0.0986160062             -92.36        0.994254145             -1.897        0.994597608             -1.875       0.0979596919            -92.146
               516      0.0983807884            -92.431        0.994283652             -1.907        0.994741642             -1.931       0.0978498803            -92.061
               517      0.0981088344            -92.487        0.994851172             -1.932        0.993706467             -1.892       0.0979170038            -92.147
               518      0.0979032182            -92.462        0.994596594             -1.949        0.994711108             -1.974       0.0971956812            -91.989
               519        0.09779676            -92.517        0.994545065             -1.996        0.994774094             -1.988       0.0972354138            -92.038
               520      0.0975116518            -92.573        0.994503952             -1.989        0.994618455             -2.017       0.0970189373            -92.197
               521      0.0973314724            -92.542        0.994611081              -1.99        0.994725596             -2.031        0.096772797            -92.115
               522      0.0973017371            -92.551        0.993963859              -2.04        0.994994302             -2.045       0.0965763068            -92.132
               523      0.0970197802            -92.659        0.994169159             -2.071        0.994856144             -2.129       0.0965073269            -92.331
               524      0.0965939665            -92.645        0.994260074             -2.108        0.994374549             -2.091       0.0963385266            -92.285
               525      0.0965956572            -92.671        0.994735464             -2.127        0.994391954             -2.122       0.0958203166             -92.38
               526      0.0963106726            -92.645        0.994773977             -2.178        0.994659456             -2.179       0.0956036373            -92.384
               527      0.0962498364            -92.645        0.994489037             -2.165        0.994718053             -2.215       0.0955872572            -92.282
               528      0.0960063591            -92.746        0.993916728             -2.222        0.995061676              -2.27       0.0949729657            -92.306
               529      0.0959114742            -92.812         0.99465064             -2.259        0.994879693              -2.28       0.0952841286              -92.4
               530      0.0958740606            -92.886         0.99483515              -2.24        0.994491605             -2.232       0.0950826159            -92.346
               531      0.0954806143            -92.816        0.994752879             -2.278        0.994981955             -2.272       0.0948233304            -92.313
               532      0.0953428821            -92.953        0.994576689             -2.339        0.994920263             -2.303       0.0947301611            -92.452
               533       0.095191901            -92.874        0.993687897             -2.351        0.995176243             -2.314       0.0942866054            -92.411
               534      0.0949292391            -92.809        0.994603539             -2.357        0.994832581             -2.357       0.0941672743            -92.368
               535       0.094997603            -93.008        0.993602435             -2.375        0.995205224             -2.368       0.0940400058            -92.474
               536      0.0945493867            -92.836        0.994852546             -2.409        0.995081646              -2.42       0.0940283285            -92.602
               537      0.0943990388            -93.078        0.994529277              -2.41        0.995101939             -2.454       0.0939112394            -92.562
               538      0.0942540456            -92.996        0.994489037             -2.451        0.994947122             -2.438       0.0936591043            -92.544
               539      0.0939831506            -93.018        0.994947122             -2.519        0.994832581             -2.516       0.0935405674            -92.532
               540      0.0938317897            -92.967        0.994374549             -2.481        0.995061676             -2.474       0.0933254301            -92.489
               541      0.0937551567            -93.066        0.994821503              -2.53        0.995050596             -2.537       0.0930990317             -92.73
               542      0.0936052053            -93.206        0.994145612             -2.572        0.995290824             -2.571       0.0930036515             -92.56
               543      0.0934177373            -93.132        0.994441738             -2.592        0.995128911             -2.568       0.0925399678            -92.868
               544       0.093379168            -93.107        0.994947122             -2.614        0.995061676             -2.576       0.0926616437            -92.699
               545      0.0929822391             -93.21        0.994832581             -2.653        0.994832581              -2.66       0.0922252837            -92.717
               546      0.0926829823             -93.31        0.994145612             -2.651        0.994031163             -2.686        0.091949633            -92.601
               547      0.0929048774            -93.196         0.99423378             -2.701        0.995379093              -2.69       0.0918202593            -92.771
               548      0.0924698174            -93.293        0.994947122             -2.655        0.995061676             -2.736       0.0917698454            -92.664
               549      0.0923276119            -93.381        0.995248662              -2.74        0.994675916             -2.729       0.0915549021            -92.885
               550      0.0921826729            -93.255        0.994258464             -2.759        0.995633032             -2.815       0.0916113529            -92.745
               551      0.0921764067            -93.366        0.994877878             -2.812        0.995221556             -2.749       0.0912052365            -92.851
               552      0.0919664735              -93.4         0.99386989             -2.793        0.995473111              -2.81       0.0909242095            -92.968
               553      0.0917082126            -93.362         0.99416445             -2.848        0.995538888             -2.785       0.0910140058            -92.996
               554      0.0916994945            -93.436        0.995444249             -2.842        0.994985935             -2.846       0.0909111061            -92.752
               555      0.0914576757            -93.479        0.995337027             -2.853        0.994535203               -2.9       0.0902755536            -93.013
               556      0.0910725393             -93.59        0.995262053               -2.9        0.995032912             -2.907       0.0904247769            -93.023
               557      0.0911068629            -93.613        0.994949626             -2.943        0.995407922             -2.905       0.0904172081            -92.935
               558      0.0907725845            -93.559         0.99484335             -2.979          0.9955308              -2.97       0.0901062055            -93.059
               559      0.0909422645            -93.697        0.995326952             -3.011        0.994639642             -2.933       0.0898495206            -93.078
               560      0.0904160464            -93.597        0.994478762              -2.97        0.995624357             -3.013       0.0897522847            -93.123
               561      0.0903866928            -93.837        0.995415722              -3.02        0.994957422             -3.047       0.0896921627            -93.024
               562      0.0900637446            -93.683        0.994832581             -3.043        0.995520024             -3.022       0.0895158624            -93.191
               563      0.0902609707             -93.76        0.994947122             -3.049        0.995176243             -3.081       0.0894334532            -93.182
               564      0.0897635459            -93.585        0.994832581             -3.048        0.995290824             -3.148       0.0891045744            -93.075
               565      0.0898462593            -93.859        0.994718053             -3.144        0.995290824             -3.114        0.089073804            -93.158
               566       0.089676337            -93.802        0.995125512             -3.157        0.995469276             -3.147       0.0888439503            -93.205
               567      0.0895759462            -93.733        0.994812892             -3.158        0.995614939              -3.09       0.0887036324            -93.211
               568      0.0894128628            -93.806        0.994947122             -3.172        0.995520024             -3.212       0.0884097169             -93.28
               569      0.0891148335            -93.789        0.995520024             -3.221        0.995290824             -3.236        0.088328326            -93.279
               570      0.0888484795            -93.905        0.994832581             -3.217        0.995634644             -3.267       0.0880846027            -93.305
               571       0.088838251            -93.746        0.995405417             -3.279        0.995405417              -3.27       0.0880846027            -93.253
               572      0.0889381557            -94.144        0.994232875             -3.258        0.995607408             -3.249       0.0877784928            -93.324
               573      0.0885485933            -93.947        0.994790585             -3.353        0.995821885             -3.305       0.0876560036             -93.26
               574      0.0882571705            -94.001        0.994489037             -3.336        0.995749278             -3.322       0.0875790036            -93.262
               575      0.0882577413            -94.049        0.995297261             -3.339        0.995526463             -3.372       0.0873379128            -93.377
               576      0.0881579656            -93.994        0.995431912             -3.384        0.995431912             -3.377       0.0871087054            -93.409
               577      0.0879224943            -94.064        0.994832581             -3.432        0.995290824             -3.417        0.086976114            -93.435
               578      0.0877547031            -94.281        0.995681416             -3.434        0.994879315              -3.41       0.0871104789            -93.512
               579      0.0875890871            -94.268        0.995520024             -3.451        0.994832581             -3.452       0.0866862069            -93.452
               580      0.0875251508            -94.343        0.995022423             -3.487        0.995595369             -3.421       0.0864734662            -93.445
               581      0.0872899195            -94.231         0.99555233             -3.472         0.99543772             -3.477        0.086619185            -93.548
               582      0.0872833437            -94.112        0.995706576             -3.554        0.995133566              -3.53       0.0861948613            -93.665
               583      0.0870161772            -94.319        0.995290824             -3.579        0.995405417             -3.551        0.086129118            -93.782
               584      0.0868660353            -94.077        0.995176243             -3.545        0.995520024             -3.549       0.0858519176            -93.599
               585      0.0867776574            -94.198        0.995996752             -3.572        0.994850728              -3.61       0.0859227013            -93.564
               586      0.0868224313            -94.267        0.994562186             -3.599        0.995937174             -3.588       0.0856509024            -93.553
               587      0.0865167108            -94.355        0.995290824             -3.624        0.995749278             -3.664       0.0856544637            -93.673
               588      0.0863969398            -94.181        0.995401658             -3.667        0.995745517             -3.667       0.0853096892            -93.765
               589      0.0863113679             -94.47        0.994644761             -3.631        0.995790547             -3.685        0.085166343            -93.835
               590       0.086162217            -94.476        0.995329475             -3.686        0.995787946             -3.716       0.0851465126            -93.625
               591      0.0859168107            -94.304        0.994553493             -3.671        0.996043136             -3.721       0.0849333291            -93.811
               592      0.0856979809            -94.391        0.995911138             -3.743        0.995108852             -3.741       0.0849514096             -93.95
               593      0.0855673164            -94.568        0.995652782             -3.762         0.99553816             -3.743       0.0848218834            -93.836
               594      0.0852253177            -94.547        0.995677353             -3.807        0.995677353              -3.81       0.0845023193            -93.901
               595      0.0853182871            -94.577        0.995845872             -3.836        0.995272782             -3.772       0.0845166214            -93.927
               596      0.0850422684            -94.566        0.996058477             -3.817        0.995141496             -3.837       0.0842625962            -93.818
               597      0.0848105735             -94.46        0.995978584             -3.879        0.995634644             -3.847       0.0841782708            -93.802
               598      0.0848407749            -94.677        0.995416021             -3.901        0.995759885             -3.895       0.0841016713             -94.11
               599      0.0846360908            -94.501        0.995876756             -3.904        0.995762108             -3.893        0.083927753            -93.985
               600      0.0844792404            -94.725        0.995863924             -3.925        0.995634644             -3.948        0.083724006            -93.768
               601      0.0844231643            -94.638        0.995890583             -3.956        0.995661297             -3.944       0.0835914052            -93.992
               602      0.0842451197            -94.878        0.995049651             -3.973        0.995966548             -3.948        0.083434324             -94.07
               603       0.084130225            -94.868        0.995524724             -3.964        0.995868626             -3.976       0.0832534137            -93.946
               604      0.0840491763             -94.72        0.995367512              -4.05        0.996055325             -3.988        0.083067944            -94.022
               605      0.0840141128            -94.733        0.995983733             -4.035        0.995525171             -4.021       0.0830524112            -94.044
               606      0.0835707436            -94.894        0.995644426             -4.069        0.995988369             -4.124       0.0827283318            -94.066
               607      0.0833926721             -94.85        0.995813225             -4.126        0.995813225             -4.085       0.0825140473            -94.181
               608       0.083362994            -94.976         0.99580271             -4.125        0.995573444             -4.099       0.0825036769            -94.274
               609      0.0833777171            -94.969        0.995863924             -4.131        0.995405417             -4.093       0.0823948372            -94.145
               610      0.0832373607            -95.201         0.99498905             -4.164        0.996020556             -4.133       0.0820575038            -94.109
               611      0.0828548498            -94.919         0.99521734             -4.174        0.996249082              -4.16       0.0820102119            -94.172
               612      0.0828599268            -95.016         0.99470556             -4.218        0.996310129             -4.224       0.0817983504             -94.15
