!{251R15S200}
!Johanson Technology Inc.
!www.johansontechnology.com
!Test Board Conditions:
!Substrate Type  RO4350B
!Substrate Thickness        20 mil
!Substrate Dk      3.66
!TL Type: GCPW 
!TL Trace Width  34 mil
!TL Gap  10 mil
!Electrode orientation      Horizontal
!DUT TOPOLOGY	SERIES
!Mounting Pad LxW         26x52 mil
! Created Thu Mar 12 16:56:20 2020
# mhz S ma R 50
! 2 Port Network Data from SP1.SP block
! freq  magS11  angS11  magS21  angS21  magS12  angS12  magS22  angS22  
!     
               500       0.151199376             -87.95        0.985938896              2.217        0.987188301              2.206        0.150608679            -87.412
               501       0.150868996            -88.029        0.987756736              2.185        0.987529323              2.221        0.150348812            -87.592
               502       0.150210399             -88.09        0.987074653              2.124        0.987529323              2.108         0.14998575            -87.639
               503       0.149640793            -88.176        0.987415636              2.071        0.987529323              2.075        0.149589117            -87.709
               504       0.149365398            -88.125        0.986847397              2.088        0.987984202              2.046        0.149365398            -87.632
               505       0.149107676            -88.139        0.987301962               2.03        0.987529323              2.048        0.148901818            -87.641
               506       0.148696244            -88.235        0.987301962              1.989        0.987415636              1.955        0.148456768            -87.783
               507       0.148388416            -88.318        0.987984202              1.937        0.986961019              1.951        0.148200613            -87.781
               508       0.148030089             -88.31        0.987756736              1.945        0.987415636              1.914        0.147859761            -87.881
               509       0.147808701            -88.455        0.987529323              1.904        0.988097954              1.876        0.147400854            -87.891
               510       0.147332989             -88.28        0.987188301              1.864        0.987870462              1.823        0.146943371            -87.912
               511       0.147011057            -88.388        0.987301962              1.829        0.987643023              1.824        0.146672941            -87.905
               512       0.146487309            -88.394        0.987301962              1.766        0.987643023              1.776        0.146285069            -87.987
               513       0.146184053            -88.468        0.987984202              1.753        0.988211719               1.72        0.145948622            -87.976
               514       0.145898222            -88.522        0.988325498              1.723        0.987643023              1.729        0.145696796             -88.05
               515       0.145747126            -88.667        0.987870462              1.679        0.988325498              1.674        0.145411917            -88.052
               516       0.145545908            -88.726        0.988325498              1.716        0.988211719              1.625        0.145144305             -88.04
               517       0.144960607              -88.6        0.987984202              1.589        0.989008445              1.623        0.144727147            -88.122
               518       0.144228139            -88.675        0.987643023              1.583        0.988553095              1.607        0.144477427            -88.137
               519        0.14434442             -88.68         0.98843929              1.521        0.988325498              1.588        0.144145139            -88.091
               520       0.143896424            -88.752        0.987984202               1.52        0.988666913              1.522        0.143813614            -88.204
               521        0.14340028            -88.806        0.988780744              1.527        0.988211719              1.459        0.143185816            -88.229
               522       0.143119892            -88.841        0.987756736              1.423        0.988325498              1.454        0.142823608            -88.344
               523       0.142692123            -88.851        0.988325498              1.415        0.988211719              1.396        0.142675696            -88.304
               524       0.142610007             -88.94        0.989236199              1.395        0.989577928              1.387        0.142429516              -88.4
               525       0.142396725            -88.892        0.987870462              1.365        0.988325498              1.381        0.141922091            -88.386
               526       0.141840417            -88.916        0.988666913              1.351        0.989236199              1.344        0.141546782            -88.455
               527       0.141628286             -89.09        0.989122315              1.269        0.988553095              1.282        0.141091224            -88.477
               528       0.140945106            -89.068        0.987984202              1.252        0.988780744              1.246        0.140734314             -88.54
               529       0.140880213             -88.99         0.98843929              1.241        0.988666913              1.189         0.14047531            -88.484
               530       0.140442968            -89.104        0.989122315               1.19         0.98843929              1.188        0.140087698             -88.49
               531       0.140103828            -89.192        0.989122315              1.158        0.989350095              1.199        0.139974847            -88.552
               532       0.139845984            -89.203        0.989350095              1.138        0.988325498              1.099        0.139588616            -88.614
               533       0.139894294            -89.157        0.989236199              1.051        0.989350095              1.091        0.139267571            -88.779
               534         0.1393959            -89.225        0.989577928              1.063        0.989805813              1.065        0.138707518            -88.769
               535       0.138883291            -89.342         0.99026174              1.026        0.989008445              1.009        0.138723488            -88.683
               536       0.138787387            -89.284        0.988666913              0.999        0.989122315               0.98        0.138197441            -88.768
               537       0.138404433            -89.272        0.990147739              0.972        0.989577928              0.952        0.137800248              -88.8
               538       0.137879595            -89.399         0.99003375               0.89        0.989919775              0.939        0.137451663            -88.868
               539       0.137578319            -89.475        0.989122315              0.938         0.99003375               0.86        0.137293507            -88.855
               540       0.137056615            -89.504        0.988894588              0.882        0.989122315              0.871        0.136741393            -88.919
               541       0.136898913            -89.397        0.988780744              0.818        0.989464005              0.839        0.136489738            -88.923
               542       0.136725651             -89.55        0.989350095              0.777        0.989691864              0.832        0.136395487            -88.996
               543       0.136301301            -89.618        0.989691864               0.75        0.990147739              0.755        0.136003473            -88.988
               544       0.136050455            -89.517        0.989350095              0.726        0.989464005              0.735        0.135706297             -88.98
               545       0.135893912            -89.575        0.989464005              0.723         0.99003375              0.708        0.135222824            -88.946
               546        0.13548774             -89.61        0.989691864               0.72        0.989350095              0.668        0.135129447            -88.997
               547       0.134942888            -89.621        0.989577928              0.656        0.989577928              0.686        0.134632528            -89.101
               548       0.134632528            -89.744         0.99003375              0.598        0.989350095              0.606        0.134291956            -89.286
               549       0.134199223            -89.701        0.989122315              0.556        0.989919775              0.606        0.133936825            -89.151
               550       0.134029377             -89.83         0.99026174              0.534        0.989577928              0.524        0.133967669            -89.222
               551       0.133921406            -89.921        0.989919775               0.54        0.989805813              0.496        0.133290746            -89.161
               552       0.133336791            -89.992        0.990375755              0.465        0.990147739               0.49        0.133152707            -89.212
               553       0.133091402            -89.959         0.99026174              0.481        0.990375755              0.489        0.132877057            -89.266
               554       0.132800589            -89.957         0.99026174              0.425        0.990831945              0.425        0.132434154            -89.423
               555       0.132632514            -89.945         0.99003375              0.386        0.991060119              0.419        0.132205645            -89.347
               556       0.132403663            -89.962         0.99003375              0.388         0.99003375               0.35        0.131947146            -89.325
               557       0.131931956            -90.069        0.989236199              0.329        0.990375755              0.356        0.131522483            -89.358
               558       0.131492203            -90.123        0.990489783              0.319        0.989919775              0.351        0.131174676            -89.385
               559       0.131084095            -90.063        0.990489783              0.298         0.99026174              0.267        0.130948341             -89.36
               560       0.130857916            -90.146        0.990375755              0.249        0.991060119              0.247        0.130361695            -89.428
               561       0.130922101             -90.18        0.990063305              0.175        0.991317937              0.241        0.130275565            -89.593
               562       0.130301675            -90.167         0.99003375              0.161        0.990147739              0.231        0.130181718            -89.508
               563        0.13000199            -90.122        0.989577928              0.108        0.990375755              0.141        0.129688062            -89.558
               564       0.129837457            -90.187        0.990717878               0.13        0.989691864               0.14        0.129583588            -89.577
               565       0.129598507            -90.278         0.99003375              0.105        0.990489783              0.108        0.129003056            -89.717
               566       0.129211152            -90.336         0.99003375              0.056        0.990489783              0.102        0.128824955            -89.658
               567       0.128913975            -90.325        0.990489783              0.063        0.990717878              0.017        0.128292125            -89.679
               568       0.128810125            -90.347         0.99026174              0.037        0.990946025             -0.013        0.128174018            -89.605
               569        0.12835122            -90.442        0.990603824              -0.04        0.991060119              -0.02        0.127820349            -89.872
               570       0.127864505            -90.473        0.990831945             -0.027        0.990831945             -0.068        0.127702677            -89.729
               571       0.127673275            -90.561        0.991174225             -0.071        0.991060119             -0.109        0.127379635            -89.796
               572       0.127524823            -90.547        0.991504591             -0.172        0.991618749             -0.157        0.126968132            -89.885
               573       0.127247717            -90.536        0.991174225             -0.126        0.990946025             -0.172        0.126779782            -89.897
               574       0.126881995            -90.573         0.99026174             -0.227        0.990946025             -0.177        0.126255411            -89.766
               575       0.126721411            -90.699        0.990489783             -0.216        0.990946025               -0.2        0.126052075            -89.962
               576       0.126444516            -90.616        0.990489783             -0.256        0.991174225             -0.234        0.125878048            -90.051
               577       0.126066588            -90.663        0.991630783             -0.281        0.991060119             -0.301        0.125386275                -90
               578       0.125530714            -90.812        0.990489783             -0.308        0.991060119             -0.302        0.125097894            -89.981
               579       0.125472919            -90.814        0.990717878              -0.34        0.990946025             -0.303        0.125040298            -90.068
               580       0.124997118            -90.801        0.991174225             -0.378        0.991060119              -0.38        0.124767077            -90.069
               581       0.124838919            -90.835        0.991402478             -0.433        0.991288345             -0.398        0.124351206            -90.128
               582       0.124494453            -90.836        0.990603824              -0.42        0.991288345             -0.403        0.124036642            -90.073
               583       0.124136644            -90.857        0.991060119             -0.441        0.991288345             -0.462        0.123651674            -90.107
               584       0.123908186            -90.942        0.990717878             -0.487        0.991060119             -0.503        0.123580515            -90.134
               585       0.123751366            -90.983        0.990375755             -0.521        0.991630783             -0.537        0.123168599            -90.197
               586       0.123665911            -91.039        0.990946025              -0.55        0.991744955             -0.525        0.123097717            -90.234
               587       0.123081637            -91.043        0.992300624             -0.611        0.991957955             -0.575        0.122826836            -90.313
               588       0.122871172             -90.99        0.991516624             -0.629        0.991630783             -0.585        0.122348881            -90.276
               589       0.122574463            -91.149        0.991060119             -0.605        0.991859141             -0.686        0.122011285            -90.343
               590       0.122222173            -91.118        0.991060119               -0.7        0.991174225             -0.597        0.121842836            -90.241
               591       0.122194033            -91.108        0.991630783             -0.663        0.991744955             -0.644        0.121632603            -90.365
               592       0.121534618            -91.238        0.991516624              -0.73        0.991859141              -0.71        0.121269057            -90.387
               593       0.121464677            -91.154        0.991402478              -0.73        0.991630783             -0.716        0.121031942            -90.393
               594       0.121115576            -91.229        0.991288345             -0.797        0.992316014             -0.754         0.12096229             -90.54
               595       0.120684084            -91.331        0.991744955             -0.801        0.991630783             -0.829        0.120572981            -90.484
               596       0.120600748            -91.329        0.990831945             -0.851        0.991402478             -0.824        0.119963741            -90.563
               597       0.120184926            -91.432        0.992316014              -0.85        0.991630783             -0.872        0.119729178            -90.485
               598       0.120032817            -91.452        0.991859141             -0.896        0.992087551             -0.882        0.119825707            -90.618
               599       0.119687832            -91.516        0.991744955             -0.936        0.992430265             -0.929        0.119357579            -90.611
               600       0.119674053            -91.461        0.991060119             -0.937        0.991859141             -0.905        0.119083064            -90.611
               601       0.119302625            -91.458        0.991402478             -0.996        0.992658807             -1.053        0.118617837            -90.709
               602       0.119083064            -91.577        0.992316014             -1.026        0.991973339             -0.955        0.118467712            -90.656
               603       0.118604181            -91.582        0.991288345             -1.045        0.992773098             -1.038        0.118249687            -90.683
               604       0.118454073            -91.515        0.992544529              -1.12        0.992316014             -1.043        0.118004889            -90.703
               605       0.118148293            -91.629        0.992036042             -1.063        0.992950162             -1.089        0.117795161            -90.691
               606       0.118215861            -91.723        0.991803759              -1.12        0.992831963             -1.143        0.117456147            -90.841
               607       0.117584479            -91.727        0.991859141              -1.15        0.992430265             -1.138        0.117098141            -90.774
               608       0.117706379            -91.818        0.992201776             -1.182        0.992087551             -1.142        0.117152079            -90.801
               609       0.117300537            -91.674        0.992087551             -1.209        0.992887401             -1.158        0.116694396             -90.79
               610        0.11676159            -91.888        0.992087551             -1.214        0.992658807             -1.251        0.116479635            -90.826
               611       0.117111623            -91.824        0.992316014             -1.269        0.992773098             -1.214        0.116225119            -90.877
               612       0.116211739             -91.89        0.992087551             -1.272        0.991859141             -1.289         0.11597116            -90.782
