!{251R14S560}
!Johanson Technology Inc.
!www.johansontechnology.com
!Test Board Conditions:
!Substrate Type  RO4350B
!Substrate Thickness        20 mil
!Substrate Dk      3.66
!TL Type: GCPW 
!TL Trace Width  36 mil
!TL Gap  12 mil
!Electrode orientation      Horizontal
!DUT TOPOLOGY	SERIES
!Mounting Pad LxW         26x36 mil
! Created Wed Mar 11 15:51:28 2020
# mhz S ma R 50
! 2 Port Network Data from SP1.SP block
! freq  magS11  angS11  magS21  angS21  magS12  angS12  magS22  angS22  
!     
               500      0.0253980281            -90.602        0.998504439             -2.763        0.998044717             -2.791       0.0254653705            -91.665
               501      0.0252406189            -90.732        0.997585206             -2.777         0.99873438             -2.771       0.0252464315            -91.631
               502      0.0252726044             -90.28        0.997585206             -2.796        0.998389489             -2.781       0.0249315914            -91.712
               503      0.0249229818            -90.234        0.997011115              -2.81        0.998389489             -2.823       0.0247001733            -91.932
               504      0.0246065088            -90.282        0.998504439             -2.881        0.998044717             -2.815       0.0244765385            -91.314
               505      0.0244821751            -90.733        0.998504439             -2.879        0.998159627             -2.848       0.0244709033             -91.63
               506      0.0241712995            -90.838        0.998619403              -2.89        0.998504439             -2.894       0.0241740825             -91.95
               507      0.0240574726            -90.772        0.998504439             -2.885         0.99735553             -2.915       0.0239028673            -92.129
               508      0.0239855676            -90.538        0.998504439             -2.911        0.997929819             -2.947        0.024068554            -91.544
               509       0.023795783            -90.069        0.998044717             -2.975        0.998504439             -2.928       0.0235504928            -91.628
               510      0.0236973618            -90.173        0.998389489             -2.986        0.998389489             -2.974       0.0234261004            -91.901
               511      0.0235261033            -89.962        0.997700064             -2.955        0.998274551             -2.948        0.023283593            -92.092
               512      0.0234909186            -90.363        0.998044717             -2.967        0.998274551             -2.977        0.022895493            -92.007
               513       0.023283593            -89.469        0.998389489             -2.964        0.998389489              -3.01       0.0230834118            -91.509
               514      0.0227404995            -90.001        0.998159627             -3.044         0.99873438             -3.051       0.0228349466            -92.033
               515      0.0226073678            -90.674         0.99884937             -3.087        0.998159627             -3.047       0.0225761561            -91.289
               516      0.0225501793            -90.588        0.998159627              -3.06        0.998159627             -3.072       0.0223100221            -91.511
               517      0.0224284882            -90.714        0.998619403             -3.049         0.99890135             -3.099       0.0220444872            -91.603
               518      0.0219558371            -89.828         0.99884937             -3.085        0.998504439             -3.143       0.0219659505            -92.085
               519      0.0217570495            -90.457        0.998619403             -3.099        0.998619403             -3.121       0.0218097155            -91.638
               520      0.0217220095            -89.395        0.998044717             -3.203        0.997585206             -3.098       0.0215600617             -91.33
               521      0.0216271852            -89.831        0.998389489              -3.15        0.998389489             -3.169       0.0214560612            -92.224
               522      0.0214684159             -90.34        0.998159627             -3.205        0.998044717             -3.174       0.0213034529            -91.374
               523      0.0211568009            -91.094        0.998274551             -3.184        0.998999222             -3.227       0.0209749049            -92.539
               524      0.0208641165            -91.006         0.99889468             -3.204        0.998159627             -3.204       0.0208161304            -91.357
               525      0.0208377105            -90.534        0.998159627             -3.218        0.998929756             -3.231       0.0206633152            -92.047
               526      0.0205754812            -90.304        0.997929819             -3.281        0.997700064             -3.285        0.020386844            -91.832
               527      0.0206300367            -90.205        0.997814935             -3.315        0.999061907             -3.243       0.0204385461            -91.514
               528      0.0202348505            -90.094        0.998389489             -3.297        0.998619403             -3.297       0.0200216562            -91.617
               529      0.0199917126             -90.23        0.998274551             -3.335         0.99884937             -3.317        0.019842665            -91.916
               530      0.0199250766             -90.09        0.997814935             -3.324        0.998389489             -3.324       0.0197651448            -91.811
               531      0.0194267432            -90.443        0.998389489             -3.354        0.998389489             -3.373        0.019599726            -92.092
               532      0.0194131103            -90.193        0.999441369             -3.369        0.998263339             -3.365       0.0194892498            -92.097
               533      0.0192309173            -89.707        0.997585206             -3.398        0.997929819             -3.433       0.0189605094            -91.325
               534      0.0192264897            -90.666        0.999129196             -3.394        0.998504439             -3.403       0.0190655791            -92.169
               535      0.0189954681            -90.607        0.998159627             -3.444        0.998044717             -3.414       0.0187672224            -91.976
               536       0.018971427            -89.147        0.997240712             -3.462        0.997929819             -3.463       0.0185139889            -91.468
               537      0.0185609414            -90.784        0.998619403             -3.492        0.997814935             -3.484       0.0186939037            -91.185
               538      0.0185289155            -90.927        0.998389489             -3.424        0.998619403             -3.502       0.0185225169            -91.074
               539      0.0183759584            -90.315        0.997929819             -3.524         0.99873438             -3.495       0.0180904762            -92.331
               540       0.018057183             -90.12        0.998504439             -3.557        0.998159627             -3.545       0.0178155814            -91.245
               541      0.0179700796            -90.108        0.998504439             -3.516        0.998274551             -3.574       0.0175913836            -91.924
               542      0.0179556032            -90.009        0.997585206             -3.543        0.998854775              -3.58       0.0177010896            -91.595
               543      0.0176929398            -89.902        0.998504439             -3.574        0.998504439             -3.587       0.0172305841            -91.392
               544      0.0175893585            -90.132         0.99873438             -3.604        0.998504439             -3.637       0.0170903123             -91.92
               545       0.017186997            -90.138        0.998044717             -3.615        0.998274551             -3.622       0.0170372698            -91.987
               546      0.0171612928            -89.802        0.997700064             -3.597        0.998044717             -3.611       0.0167436447             -91.05
               547      0.0167494288             -89.98        0.998159627             -3.682         0.99873438             -3.676        0.016626468            -91.546
               548      0.0166955219             -90.75        0.998504439             -3.677        0.998504439             -3.719       0.0162948362            -91.499
               549      0.0166302968            -90.184        0.999047644             -3.707        0.998504439             -3.702       0.0162199683            -91.518
               550      0.0163757048            -90.574        0.998044717             -3.728        0.998044717             -3.684       0.0161808004            -91.503
               551      0.0162723396            -89.905        0.997814935             -3.698        0.998159627             -3.768       0.0160435326            -91.559
               552      0.0162442625             -90.17        0.998044717              -3.75        0.998389489             -3.749       0.0159092608            -91.471
               553      0.0160103195            -90.154        0.997814935              -3.76        0.998159627             -3.788       0.0157235281            -92.004
               554      0.0159001053            -89.992        0.998619403             -3.735         0.99884937             -3.745       0.0157253384            -91.711
               555      0.0156783372            -89.747        0.998619403             -3.771        0.998504439             -3.805       0.0152826969            -91.648
               556      0.0152528149            -89.599        0.998274551             -3.801         0.99884937             -3.816       0.0151967248            -90.725
               557      0.0150678053              -89.9        0.997929819             -3.833        0.998932976              -3.85       0.0148730487            -91.868
               558      0.0152037248            -90.064        0.999129081             -3.887        0.998389489             -3.876       0.0147570653            -92.291
               559      0.0147910839            -89.699        0.997814935             -3.894        0.998504439             -3.906       0.0145898222            -91.927
               560      0.0148159297            -89.438        0.999084819             -3.909        0.998918738             -3.927       0.0144686799             -91.59
               561      0.0144311187            -88.908        0.998159627             -3.914        0.998044717             -3.934       0.0143466334             -92.15
               562      0.0142282013            -89.589        0.998619403             -3.952        0.998159627             -3.917       0.0139540412            -91.697
               563      0.0142380332            -89.503        0.998504439             -3.997        0.998504439             -3.961       0.0138611735             -92.14
               564      0.0141677211            -88.948        0.998389489             -3.945        0.998389489             -3.974       0.0138388499            -91.227
               565      0.0139765506            -90.579        0.998504439             -3.967         0.99884937             -4.026       0.0136930439            -91.404
               566      0.0138579822            -89.275        0.998504439             -3.989        0.998389489             -4.002       0.0133628779            -91.867
               567      0.0139011266            -89.996        0.998159627             -4.015        0.998619403             -4.045       0.0134168326            -91.658
               568      0.0133459656            -89.357        0.997929819             -4.072        0.999067428              -4.05       0.0133798117            -92.032
               569      0.0132800589            -89.418         0.99890986             -4.031         0.99873438             -4.069       0.0130993577              -91.7
               570      0.0131673991                -90        0.998504439             -4.055        0.998274551             -4.111       0.0128795296            -91.986
               571      0.0132083935            -89.241        0.998274551             -4.065        0.998044717              -4.06       0.0128247822            -91.352
               572      0.0127511689            -89.167         0.99873438             -4.117        0.998044717             -4.123        0.012656103            -90.868
               573      0.0126211811            -88.194        0.997929819             -4.141        0.997700064             -4.112       0.0124953953            -91.428
               574      0.0122729793            -89.642        0.998389489             -4.187        0.998619403             -4.122       0.0121018008            -91.535
               575      0.0125097894            -88.459        0.998274551             -4.126        0.997700064             -4.155       0.0120143423            -90.699
               576      0.0121983194            -90.658        0.998389489             -4.184        0.998389489             -4.208       0.0116640668            -91.584
               577      0.0117869109            -89.977         0.99873438             -4.205        0.998619403             -4.208       0.0117273531            -91.811
               578       0.011613149            -89.372        0.998504439             -4.157        0.999085946             -4.199       0.0113605668            -90.138
               579      0.0116694396            -89.502        0.998504439             -4.258         0.99873438             -4.236        0.011384134            -91.402
               580      0.0115891077            -88.948        0.998619403             -4.252        0.998619403             -4.255       0.0111083614            -91.381
               581      0.0113461886            -88.725        0.998389489             -4.276        0.998159627             -4.255       0.0111789239            -92.417
               582      0.0112934982             -89.73         0.99811018             -4.281        0.999761113             -4.249       0.0109126063            -93.278
               583      0.0108491902            -89.577        0.998825736             -4.315        0.999644944             -4.275       0.0107497242            -92.938
               584      0.0106304096            -86.172        0.998389489              -4.34        0.997814935             -4.344       0.0104207745            -91.593
               585      0.0107312423            -89.183        0.997585206             -4.332        0.997929819             -4.349       0.0103121685            -91.632
               586      0.0104881768             -88.35         0.99884937             -4.359        0.998619403             -4.345       0.0101531312            -91.998
               587      0.0100797556            -88.764        0.998274551             -4.369        0.998044717             -4.412       0.0100218985            -91.942
               588      0.0103145432            -89.509         0.99873438             -4.348         0.99873438             -4.398       0.0100716355            -91.526
               589     0.00981974025            -89.845        0.998159627              -4.39        0.999340527             -4.405      0.00973755671            -89.791
               590     0.00977687359            -89.469         0.99873438              -4.44         0.99884937             -4.475      0.00939182518             -92.38
               591     0.00970387996            -90.258        0.999070109             -4.429        0.999351838             -4.454       0.0094928237            -90.008
               592     0.00958407051            -89.003        0.998504439             -4.451        0.999136213              -4.49      0.00906567196            -92.336
               593     0.00942974611            -88.734        0.998159627             -4.464        0.998274551             -4.489      0.00901052301             -90.63
               594     0.00914113241            -88.478        0.998986571              -4.51        0.999164856             -4.498      0.00916009547            -92.035
               595     0.00903441425            -88.427        0.998504439             -4.562        0.998985535             -4.537      0.00876697968            -92.397
               596     0.00879528669            -89.157        0.998619403              -4.51        0.998504439             -4.633      0.00858222705            -92.242
               597     0.00863674307            -87.909         0.99884937             -4.596         0.99873438             -4.567      0.00855657576            -91.694
               598     0.00866662489             -89.02        0.999065587             -4.575        0.998044717             -4.557       0.0084781286            -92.549
               599      0.0084382036            -87.721         0.99926471             -4.624        0.998044717             -4.606      0.00817052569            -90.885
               600     0.00828323533             -88.84        0.999110907             -4.595        0.998955863             -4.593      0.00792683832            -91.486
               601     0.00831763771            -89.207         0.99873438             -4.582        0.998924351             -4.639      0.00780638561             -91.93
               602     0.00791954079            -86.575        0.997929819             -4.664        0.998274551             -4.651      0.00756745766            -89.888
               603     0.00762781234            -88.657        0.998389489             -4.651        0.999205118             -4.648      0.00774194354            -91.877
               604     0.00764891791            -85.922        0.998619403             -4.635         0.99873438              -4.68       0.0073739468             -90.98
               605     0.00733837667            -86.991        0.999096184             -4.716        0.998159627             -4.663      0.00724519369            -91.976
               606     0.00740116353            -86.152        0.998504439             -4.709        0.999274028             -4.674      0.00715154705            -90.792
               607     0.00727277246            -88.271        0.999000947             -4.672        0.998504439             -4.743      0.00703720172            -90.967
               608     0.00690319275            -86.602        0.998504439             -4.765        0.998044717             -4.743      0.00691592062            -90.427
               609     0.00715154705            -87.878         0.99873438             -4.763        0.999642127             -4.758      0.00676861793            -92.718
               610     0.00668036205            -86.592        0.999097679             -4.738         0.99873438             -4.821      0.00652454153            -90.127
               611     0.00662521536            -86.484        0.999000717             -4.783        0.997929819             -4.812      0.00635696763            -91.327
               612     0.00635111534            -85.521        0.999324189               -4.8        0.998903765             -4.793      0.00640029512            -91.788
