! Created Tue May  5 12:33:30 2020
# mhz S ma R 50
! 2 Port Network Data from SP1.SP block
! freq  magS11  angS11  magS21  angS21  magS12  angS12  magS22  angS22  
!     
               500       0.995290824             -9.347       0.0887973489             80.366        0.088705388              80.33        0.995176243             -9.219
               501       0.995176243             -9.341       0.0890430444             80.422        0.088879172             80.389        0.995634644             -9.227
               502       0.995634644             -9.361        0.089145618             80.335       0.0890430444             80.317        0.994603539             -9.278
               503       0.995520024             -9.363       0.0892483098             80.402       0.0892585855             80.292        0.995176243             -9.304
               504       0.994718053              -9.43         0.08948495              80.42       0.0892585855             80.268        0.995176243             -9.271
               505       0.995820381             -9.438       0.0896460195             80.403       0.0895428701             80.218        0.994216601             -9.278
               506       0.995697983              -9.41       0.0899451245             80.301       0.0898312882             80.279        0.994895869             -9.357
               507       0.995520024             -9.477       0.0900222783             80.286       0.0899601146             80.217        0.994947122              -9.34
               508       0.995290824             -9.483       0.0902609707             80.299        0.090084485             80.217        0.995405417             -9.358
               509       0.995170025             -9.455       0.0904268258             80.269        0.090322778             80.208        0.995513804             -9.389
               510       0.995566729             -9.477       0.0905879381             80.172       0.0905462304             80.246          0.9949938             -9.426
               511       0.995435207             -9.528       0.0907638683             80.234       0.0907638683              80.16         0.99532061             -9.459
               512       0.994489037             -9.529       0.0909075597             80.249       0.0909284944             80.191        0.995634644             -9.455
               513       0.995453044             -9.562       0.0910795296             80.243       0.0910900161             80.216        0.995338445             -9.422
               514       0.995178349             -9.576       0.0912642983             80.141       0.0912327821             80.152        0.995407523             -9.476
               515       0.995405417             -9.596       0.0914639599             80.129       0.0913902783             80.151        0.994832581             -9.464
               516       0.995405417             -9.582       0.0916959174             80.159       0.0916431482             80.158        0.995176243             -9.513
               517       0.995178609             -9.594        0.091939266             80.103       0.0918123349             80.112        0.995293189             -9.534
               518       0.994632232               -9.7       0.0920370158              80.11       0.0919522856             80.045        0.995548744             -9.544
               519       0.995319986             -9.633       0.0921430799             80.124       0.0921324722             80.078        0.995205402             -9.569
               520       0.995496692             -9.687       0.0923293591             80.059       0.0922974752             80.024        0.994580227             -9.591
               521       0.995364597             -9.705       0.0926151831             80.001       0.0925938602              80.02        0.994791784             -9.589
               522       0.995315955             -9.699       0.0928241467             80.008       0.0926213199              80.05        0.994972244             -9.614
               523       0.994783746             -9.728       0.0929027737             79.941       0.0928065612             79.932        0.995241966              -9.63
               524       0.995431387             -9.794       0.0930810622             79.874       0.0930382066             79.983        0.994400492             -9.692
               525       0.994999404             -9.734       0.0932444133             79.932       0.0932229454             80.041        0.995228537             -9.658
               526       0.995444371             -9.793        0.093393574             79.969       0.0934581103             79.985        0.994298983             -9.657
               527       0.995176243             -9.803       0.0935728808             79.939       0.0936267611             79.918        0.994947122             -9.708
               528       0.994538886             -9.827       0.0937609002             79.887       0.0936853683             79.943        0.995340713             -9.709
               529       0.995043138             -9.805       0.0939381297             79.852       0.0939597622             79.939        0.995043138             -9.754
               530       0.995242484             -9.859        0.094184385              79.87       0.0940651833             79.829        0.994555232              -9.76
               531       0.995266777             -9.865       0.0943494792             79.829       0.0943494792             79.904         0.99446501             -9.748
               532       0.995176243             -9.899       0.0944930789             79.833       0.0945039584              79.89        0.994718053             -9.821
               533       0.995246731             -9.925       0.0946958092             79.726       0.0946740072             79.852        0.994216027             -9.799
               534       0.995185872              -9.93       0.0948536837             79.727       0.0948755271             79.853        0.994498659             -9.829
               535       0.995152314             -9.931       0.0951238802             79.774       0.0950472503             79.833        0.994579623             -9.826
               536       0.995239568             -9.934       0.0951541281             79.727        0.095208919             79.842        0.994208871              -9.87
               537       0.995093429             -9.983       0.0954583358             79.704        0.095315572             79.741         0.99440628              -9.86
               538       0.995060992             -9.969        0.095477206              79.71       0.0956092038             79.815        0.994602855             -9.856
               539       0.994718053            -10.022       0.0957194071             79.737       0.0957194071             79.789        0.994718053             -9.857
               540       0.995160768            -10.061       0.0959275266             79.611       0.0959496173             79.846        0.994359086             -9.909
               541       0.994986463            -10.019       0.0961761022              79.65        0.096032265              79.72         0.99452836             -9.939
               542       0.994832046            -10.056       0.0963052065             79.673       0.0961501059             79.723        0.994832046             -9.928
               543       0.994907266            -10.121       0.0964900658             79.633       0.0964900658             79.669        0.994678206              -9.95
               544       0.994992859            -10.095       0.0966540294             79.631       0.0966762873             79.676        0.994534753            -10.003
               545       0.995090598            -10.132       0.0968417487             79.576       0.0966746532             79.642        0.993831191             -9.992
               546       0.994489037            -10.143       0.0970286525             79.512       0.0968723867             79.579        0.993802306             -10.02
               547       0.994603539             -10.16       0.0972075506             79.527       0.0971516095             79.614        0.994145612             -10.03
               548       0.995011523            -10.155       0.0973482413             79.532       0.0973146242              79.66        0.994095505            -10.036
               549       0.994718053            -10.185       0.0976337567             79.443        0.097543874             79.628        0.994603539            -10.115
               550       0.994260074            -10.183       0.0977462264             79.501       0.0975326445             79.583        0.994145612            -10.108
               551       0.993916728            -10.231       0.0979039017             79.457       0.0977574805             79.573        0.994031163            -10.123
               552       0.994603539            -10.224       0.0981634922             79.457       0.0980053987             79.575        0.994031163            -10.152
               553       0.993916728            -10.262       0.0982652583             79.453       0.0981295935             79.486        0.993916728            -10.135
               554       0.993802306            -10.296       0.0984804445             79.366        0.098333161             79.459        0.994145612            -10.206
               555       0.994145612             -10.29       0.0986733789             79.382       0.0985144643             79.476        0.994603539            -10.171
               556       0.994010318            -10.351       0.0988646179             79.341       0.0986485923             79.421        0.994811718            -10.235
               557       0.994489037            -10.336       0.0990831945             79.354       0.0987643023             79.403        0.993687897             -10.23
               558       0.994489037            -10.331       0.0991516624             79.349       0.0990375755             79.472        0.993459118            -10.223
               559       0.994489037            -10.347       0.0993687897             79.364       0.0992887401             79.431        0.994145612             -10.26
               560       0.994145612            -10.389       0.0995290824             79.297       0.0994374549             79.375        0.993459118            -10.288
               561       0.994145612            -10.369       0.0997585206             79.321       0.0994947122             79.388        0.993573501            -10.304
               562       0.993001718            -10.456       0.0999424519             79.193        0.099655208             79.328        0.993459118            -10.338
               563       0.994031163            -10.432        0.100069101             79.278       0.0999309463             79.293        0.993459118            -10.363
               564       0.993802306            -10.451        0.100218985             79.267         0.10010367             79.333        0.993116048            -10.344
               565       0.993573501            -10.507        0.100392207             79.217        0.100322882             79.319        0.993230392            -10.365
               566       0.994374549            -10.521        0.100693167             79.205        0.100484714             79.286        0.993344748            -10.401
               567       0.993344748            -10.533        0.100774349             79.224        0.100693167             79.203        0.993916728            -10.404
               568       0.993802306            -10.531        0.101006658             79.157        0.100867208             79.272        0.993573501            -10.428
               569       0.993344748            -10.545        0.101134656             79.125        0.100855596             79.201        0.993687897            -10.483
               570       0.993230392            -10.603        0.101227847             79.091        0.101134656             79.183        0.992773098            -10.487
               571       0.993687897            -10.618        0.101566386             79.083        0.101262816             79.164        0.993230392            -10.502
               572       0.992658807            -10.618        0.101624869             79.111        0.101402812             79.151        0.992887401            -10.539
               573       0.994145612             -10.63        0.101906057             79.021        0.101753651             79.132        0.993573501            -10.539
               574       0.993230392            -10.646        0.102070443             79.062        0.101753651             79.205        0.992887401            -10.571
               575       0.993916728            -10.684        0.102223324             78.975        0.102152735             79.107        0.993230392             -10.59
               576       0.993459118            -10.658         0.10251797             79.043        0.102129216             79.106        0.993116048            -10.605
               577       0.993573501            -10.665        0.102529774             79.036        0.102352864             79.102        0.992544529              -10.6
               578       0.992887401            -10.734        0.102837142             79.004         0.10251797             79.034        0.993116048            -10.652
               579       0.993230392             -10.75         0.10296746             78.942        0.102659702              79.01        0.992887401            -10.651
               580       0.992658807            -10.766        0.103181064             78.825        0.102777962             79.047        0.992544529            -10.671
               581       0.992887401            -10.742        0.103407015             78.993        0.102848983             79.044        0.992544529            -10.693
               582       0.992773098            -10.788        0.103597673             78.922        0.103145432             79.005        0.992087551            -10.669
               583       0.993001718            -10.798         0.10363346             78.857         0.10341892             78.911        0.992544529            -10.702
               584       0.993001718            -10.845        0.103860402             78.896         0.10341892             78.876        0.991859141             -10.75
               585       0.993459118            -10.832        0.104147776             78.793        0.103705073             78.922        0.992887401            -10.793
               586       0.991973339            -10.851        0.104219744             78.887        0.103776734             78.893        0.992201776            -10.763
               587       0.992887401            -10.875         0.10449608             78.921        0.104075858             78.846        0.992201776            -10.778
               588       0.992430265            -10.922        0.104688747             78.806         0.10417176             78.887        0.992316014            -10.789
               589       0.992887401            -10.923        0.104821411             78.838        0.104423922             78.804        0.992773098            -10.815
               590       0.992773098            -10.937        0.104954243             78.822         0.10448405             78.822        0.992316014             -10.86
               591       0.991859141            -10.956         0.10515986             78.777         0.10477315             78.799        0.993001718            -10.844
               592       0.992658807            -10.979         0.10536588             78.695        0.104954243             78.763        0.992087551            -10.896
               593       0.991859141             -11.03        0.105317369             78.692        0.105075145             78.754        0.992201776            -10.911
               594       0.992544529            -10.984        0.105620933             78.764        0.105244643             78.805        0.991516624              -10.9
               595       0.992887401            -11.022        0.105900985             78.682        0.105462971             78.821        0.991744955            -10.977
               596       0.992430265            -11.091        0.105961964             78.746         0.10565742             78.718        0.992087551            -10.946
               597       0.992773098            -11.048        0.106194005             78.663        0.105706088             78.721        0.991402478            -10.976
               598       0.991973339            -11.073        0.106414302             78.624        0.105937568             78.665        0.991516624            -11.018
               599       0.992087551            -11.099         0.10658596             78.608        0.106096242             78.749        0.991744955            -11.009
               600       0.992544529            -11.147        0.106893181             78.651        0.106353062              78.61        0.992430265            -11.071
               601       0.992316014            -11.171        0.106967045             78.572        0.106549153             78.595        0.992201776            -11.038
               602       0.992087551             -11.16        0.107176606             78.551        0.106721028             78.607        0.991630783            -11.065
               603       0.991744955            -11.184        0.107337135             78.554        0.106794774             78.616        0.991402478            -11.057
               604       0.992087551            -11.245        0.107485529             78.494        0.107077938             78.511        0.991973339            -11.136
               605       0.991973339            -11.229        0.107621738             78.486        0.107411307             78.544        0.992087551            -11.128
               606       0.992316014            -11.242        0.107832581             78.428        0.107510282             78.496        0.991630783            -11.178
               607       0.991744955            -11.271        0.107944371             78.456        0.107621738             78.481        0.991174225            -11.167
               608       0.991288345            -11.332        0.108205665             78.407        0.107696106             78.432        0.992430265            -11.224
               609       0.992544529            -11.318        0.108280437             78.463        0.107907095             78.447        0.991744955            -11.226
               610       0.992316014            -11.341        0.108517555             78.365        0.108130945             78.357        0.991288345            -11.274
               611       0.991744955            -11.431        0.108692606             78.408        0.108330314             78.396        0.991859141            -11.237
               612       0.991402478            -11.382        0.108918086             78.369         0.10844262             78.385        0.991516624            -11.306
               613       0.991973339            -11.439        0.109093783             78.277        0.108605045             78.324        0.991060119            -11.325
               614       0.990946025            -11.439        0.109244605             78.316        0.108792761             78.331        0.991288345            -11.346
