!{251R15S130}
!Johanson Technology Inc.
!www.johansontechnology.com
!Test Board Conditions:
!Substrate Type  RO4350B
!Substrate Thickness        20 mil
!Substrate Dk      3.66
!TL Type: GCPW 
!TL Trace Width  34 mil
!TL Gap  10 mil
!Electrode orientation      Horizontal
!DUT TOPOLOGY	SERIES
!Mounting Pad LxW         26x52 mil
! Created Thu Mar 12 16:49:54 2020
# mhz S ma R 50
! 2 Port Network Data from SP1.SP block
! freq  magS11  angS11  magS21  angS21  magS12  angS12  magS22  angS22  
!     
               500       0.238836116            -82.543         0.96894695              7.339        0.969839794              7.348        0.238561304             -82.57
               501       0.238478922            -82.673        0.969616506              7.254        0.969951458              7.248        0.238094849            -82.648
               502       0.238067439            -82.627         0.96928167              7.262        0.970286525              7.238        0.237465214            -82.702
               503       0.237766136            -82.722        0.969058511              7.209        0.970286525               7.17         0.23719198            -82.731
               504       0.237082774            -82.719        0.969393269              7.155        0.970509967              7.152        0.236455816            -82.772
               505       0.236564733            -82.764        0.969616506              7.132        0.969951458              7.059        0.235884824            -82.821
               506       0.236183742            -82.803        0.969728144               7.09        0.970063134              7.092        0.235613407            -82.818
               507       0.235532043            -82.805        0.970063134              7.004        0.970845227              7.069        0.235071512            -82.889
               508       0.235071512            -82.887        0.970509967              6.987        0.970174823              7.003        0.234557865             -82.95
               509       0.234665908            -82.934        0.970733461              6.917        0.971068799              6.977        0.233937584            -82.981
               510       0.234234035            -83.053        0.970957007              6.935        0.971292421               6.89        0.233560825            -82.978
               511       0.233722219            -83.043        0.970509967              6.837        0.971292421              6.842         0.23302365            -83.109
               512       0.233184672            -83.105        0.971627952               6.82        0.971627952              6.827        0.232809126            -83.153
               513       0.232514478            -83.145        0.970286525              6.739        0.971627952              6.797          0.2319263             -83.22
               514       0.232353918            -83.143        0.970845227              6.754        0.971963598              6.779        0.231819519            -83.179
               515       0.231686111            -83.281        0.970957007              6.693        0.971963598              6.741        0.230940446            -83.285
               516       0.231206479            -83.231        0.971068799              6.641        0.971292421              6.632        0.230568514            -83.273
               517       0.230940446            -83.362        0.971404252              6.632        0.972411307              6.559        0.229932309            -83.368
               518       0.230276702            -83.364        0.971292421              6.585        0.972187427              6.604        0.229350663            -83.411
               519       0.229641302             -83.45        0.971739821              6.512        0.972523266              6.519        0.228928572            -83.481
               520       0.229297859            -83.386        0.971739821              6.441        0.971851703               6.49        0.228586196            -83.563
               521       0.228875866            -83.472        0.971516095              6.425         0.97229936              6.471        0.227981706            -83.521
               522       0.228191782             -83.59        0.972635239              6.402        0.972411307              6.389        0.227902978            -83.578
               523       0.227745602             -83.52        0.972635239              6.372        0.971963598              6.385        0.227274128            -83.622
               524       0.227535938            -83.536        0.971851703              6.271        0.972859222              6.314        0.226568746             -83.71
               525       0.227117187            -83.573        0.972187427              6.331        0.973083257              6.326        0.226464431            -83.614
               526        0.22643836             -83.74        0.973195294              6.244        0.972523266              6.211        0.225865552            -83.824
               527       0.225813551            -83.761        0.972075506              6.195        0.972411307              6.178        0.224983154            -83.778
               528       0.225735571            -83.804        0.972747224              6.154         0.97364357              6.163        0.224724281            -83.806
               529       0.225112702            -83.863        0.972971233              6.151        0.973195294              6.069        0.224388192            -83.856
               530       0.224491551             -83.88        0.972747224              6.104        0.973755671              6.094        0.223846341            -83.883
               531       0.224052606            -83.909        0.973419406              6.048        0.973531481              6.074         0.22361452            -83.948
               532       0.223691767            -83.927        0.973195294              6.011        0.973755671              6.026        0.223305798            -83.982
               533       0.223125908            -84.027        0.973755671              5.914        0.973419406              5.987        0.222510239             -84.04
               534       0.222689633            -84.028        0.972635239              5.895        0.973755671              5.923        0.221794106            -84.102
               535       0.222484623            -84.028        0.973867785              5.892        0.973307343              5.923        0.221743041             -84.08
               536       0.221972922            -84.184        0.973195294              5.828        0.973867785              5.817        0.221182112            -84.181
               537       0.221309471            -84.119        0.973979912              5.825        0.974652946               5.83        0.220673407            -84.182
               538       0.220927613            -84.188        0.973867785              5.745        0.974092052              5.805        0.220216573            -84.256
               539       0.220470253            -84.314        0.974316371              5.709        0.974092052              5.725        0.219785987            -84.271
               540       0.220267286            -84.297        0.974316371              5.644        0.974316371              5.651        0.219356243            -84.436
               541       0.219659505            -84.316        0.973867785              5.656        0.974765164              5.619        0.218574755            -84.351
               542       0.219356243            -84.318        0.974316371              5.593        0.974204205              5.607        0.218272991            -84.405
               543       0.218524432            -84.495        0.974092052              5.543        0.974765164              5.526        0.217846206            -84.379
               544        0.21799674            -84.507        0.973979912              5.513        0.975214163              5.496        0.217520403             -84.53
               545       0.218072047            -84.623        0.975101894               5.48        0.975101894              5.502        0.217195088            -84.575
               546       0.217295133            -84.529        0.974877394              5.428        0.974877394              5.468        0.216496061            -84.593
               547       0.217220095            -84.665        0.974652946              5.448        0.974989638              5.363        0.216371472            -84.653
               548       0.216595785            -84.638        0.975214163               5.36         0.97588805              5.378         0.21584898            -84.606
               549       0.215998134            -84.587         0.97543874               5.32        0.975101894              5.332         0.21525339             -84.71
               550       0.215724763            -84.633        0.975101894              5.334        0.975663369              5.297        0.215129516            -84.714
               551       0.215451737            -84.822        0.975101894              5.262        0.974652946              5.238        0.214338408            -84.728
               552       0.214783047            -84.809        0.974989638              5.175         0.97588805              5.206        0.214042493            -84.865
               553       0.214585316            -84.839        0.975551048              5.206        0.976112782              5.202        0.213697775            -84.878
               554       0.213968578            -84.812        0.974989638              5.151        0.975775703              5.146        0.213157197            -84.903
               555       0.213451888            -84.932        0.975663369              5.098        0.976225168              5.116        0.212691434            -84.928
               556       0.212911932            -84.948        0.976112782              5.005         0.97600041              5.088         0.21222669            -85.035
               557       0.212691434             -84.96         0.97588805              5.001        0.976337567              5.044        0.211738582            -85.016
               558       0.212275562            -85.115         0.97600041              4.991        0.976225168              4.904        0.211275919            -85.086
               559       0.212006902            -85.102        0.975326445              4.883        0.976449978              4.975        0.210741468            -85.071
               560       0.211568009            -85.132        0.976449978              4.871        0.975775703              4.938        0.210450518             -85.15
               561       0.210935657            -85.126         0.97600041              4.853        0.975663369              4.873         0.20999067            -85.183
               562       0.210741468            -85.117         0.97588805              4.872        0.975551048              4.854        0.209700758            -85.184
               563        0.20999067            -85.253         0.97588805              4.791        0.976112782              4.804         0.20914621            -85.241
               564       0.209483586            -85.267        0.976112782              4.764         0.97678729              4.756        0.209001787            -85.291
               565       0.209194374            -85.319        0.976225168              4.718         0.97678729              4.707        0.208617146            -85.294
               566       0.208857464             -85.26         0.97678729              4.696        0.977349736              4.698        0.208281166            -85.398
               567       0.208473088            -85.412        0.976562402              4.639        0.977349736              4.643        0.207706458            -85.417
               568       0.207849986             -85.41        0.977124719               4.64        0.977124719              4.631        0.207467465            -85.435
               569       0.207682546             -85.43        0.976562402              4.588         0.97678729              4.561        0.206895002            -85.436
               570       0.207181036            -85.515         0.97701223              4.528        0.977237221               4.52        0.206538016            -85.508
               571       0.206871184            -85.457         0.97701223              4.507        0.977687359               4.48        0.206015549             -85.53
               572       0.206538016            -85.533        0.977349736              4.431        0.977349736              4.468         0.20561273            -85.589
               573       0.206062991            -85.617        0.977462264              4.429        0.977462264              4.426        0.205305224            -85.654
               574        0.20561273            -85.652        0.977574805              4.396        0.977799926              4.369        0.205187075            -85.594
               575       0.205163453            -85.633        0.977799926              4.316        0.977237221              4.346        0.204550243            -85.738
               576       0.204974578            -85.761        0.977124719              4.288        0.978025099              4.285        0.203962347            -85.794
               577       0.204385461            -85.671        0.976899753              4.284        0.977462264              4.291        0.203399556            -85.741
               578        0.20398583            -85.824        0.977349736               4.24        0.978362955              4.172        0.203165518            -85.791
               579        0.20361042            -85.879        0.977799926              4.206        0.978813611              4.191        0.203001852            -85.859
               580       0.203329316            -85.758        0.977574805              4.141        0.977912506              4.174         0.20232521            -85.908
               581       0.202791618            -85.792        0.977687359              4.076        0.977912506              4.109        0.201999363            -85.945
               582       0.202488331            -85.874        0.977912506              4.099        0.978813611              4.072        0.201697261            -85.937
               583       0.201836636            -85.881        0.978362955              4.035        0.977574805              4.052        0.201256539            -85.955
               584       0.201604397            -85.916        0.978250323              4.004        0.977799926              4.054        0.200909281            -85.977
               585       0.201372425            -85.981        0.978926308              4.003        0.978926308              3.988        0.200585715            -86.076
               586       0.201001825            -85.992        0.978475599              3.931        0.979039017              3.967        0.200216562             -86.12
               587       0.200516447             -86.05        0.978250323              3.932        0.978025099              3.933         0.19973308            -86.149
               588       0.199871099            -86.166        0.977799926              3.831        0.979039017              3.834        0.199021502            -86.201
               589       0.199779076             -86.11        0.979039017              3.836        0.979377224              3.851        0.199044417            -86.226
               590       0.199434367              -86.2        0.978926308              3.793        0.978813611               3.77        0.198540906             -86.23
               591       0.198929871            -86.292        0.978813611               3.74         0.97915174              3.733        0.198221154            -86.261
               592       0.198723853            -86.274        0.979039017              3.746         0.97915174              3.734        0.197856353            -86.324
               593       0.198449496            -86.313        0.979039017              3.722        0.979828348                3.7        0.197355848            -86.317
               594       0.198107081            -86.275        0.979039017              3.682        0.979377224              3.689        0.197106071            -86.358
               595       0.197401296            -86.353        0.978362955              3.607        0.979941161               3.63        0.196698025            -86.353
               596       0.197378571            -86.344        0.978813611              3.591        0.979489985              3.598        0.196042395            -86.428
               597       0.196788629            -86.411        0.979377224              3.588        0.979715547              3.564        0.196110118            -86.438
               598       0.196562198            -86.475        0.979264475              3.524         0.97960276              3.503         0.19538895             -86.56
               599       0.195974696            -86.427        0.979489985              3.468        0.979828348              3.502        0.195254027            -86.554
               600       0.195681604            -86.508        0.979039017              3.426        0.980279679              3.429        0.194670435            -86.623
               601       0.195254027            -86.489        0.979941161              3.384         0.97960276              3.458        0.194356916            -86.628
               602       0.194670435             -86.56        0.978588257              3.414        0.979715547              3.373        0.193887584            -86.603
               603       0.194670649            -86.611        0.979829425              3.298        0.980732297              3.381        0.193687002            -86.752
               604        0.19427274            -86.686        0.979516748              3.313        0.980870935              3.297        0.193313358            -86.736
               605       0.193753698            -86.669        0.979039017              3.232        0.980731219              3.247        0.192663746            -86.818
               606       0.193308077            -86.683        0.980731219              3.234        0.979828348              3.275        0.192685928            -86.818
               607       0.192752491            -86.773        0.979715547              3.191        0.979715547              3.201        0.192110012            -86.848
               608       0.192464218            -86.888        0.979941161              3.153        0.980505423              3.141        0.191624043            -86.919
               609       0.192110012            -86.847        0.979715547              3.151         0.97960276              3.123        0.191579925            -86.839
               610       0.191888965            -86.871         0.97960276              3.092         0.97960276              3.145        0.191051301            -86.959
               611       0.191447632            -87.053        0.980279679              3.066        0.980844136              3.066        0.190611895            -86.983
               612        0.19118332            -86.871        0.980731219              3.084        0.980392545              3.056          0.1901735            -86.979
