!{251R15S201}
!Johanson Technology Inc.
!www.johansontechnology.com
!Test Board Conditions:
!Substrate Type  RO4350B
!Substrate Thickness        20 mil
!Substrate Dk      3.66
!TL Type: GCPW 
!TL Trace Width  34 mil
!TL Gap  10 mil
!Electrode orientation      Horizontal
!DUT TOPOLOGY	SERIES
!Mounting Pad LxW         26x52 mil
! Created Thu Mar 12 16:56:44 2020
# mhz S ma R 50
! 2 Port Network Data from SP1.SP block
! freq  magS11  angS11  magS21  angS21  magS12  angS12  magS22  angS22  
!     
               500       0.015139098            -99.931         0.99873438             -6.642        0.998389489              -6.61       0.0143747401            -93.788
               501       0.015062602            -99.619        0.998619403             -6.668        0.998619403              -6.69       0.0143070469            -93.884
               502      0.0151600279           -100.035         0.99884937             -6.677        0.998504439             -6.689       0.0141432755            -93.945
               503      0.0149899436            -99.895         0.99888433              -6.71        0.999068578             -6.684       0.0143697761            -93.967
               504      0.0148850398           -100.838         0.99873438             -6.674        0.998389489             -6.688       0.0141042501            -93.596
               505      0.0149709721            -99.884         0.99873438             -6.732        0.998971044             -6.767       0.0140136091            -94.533
               506       0.015062602           -100.637        0.998274551             -6.777        0.999319012             -6.695       0.0142347551            -94.531
               507      0.0149331009            -99.693        0.998619403             -6.747        0.999270117             -6.764       0.0139363807             -93.81
               508      0.0149675253            -99.686        0.998389489             -6.775        0.998982315              -6.79       0.0139781598            -94.374
               509      0.0149451404           -100.318        0.999176704             -6.769        0.998504439             -6.801       0.0141742471            -93.999
               510      0.0146774294           -100.473        0.999511166             -6.812        0.998044717             -6.845       0.0139894294             -93.58
               511      0.0150193106           -100.282         0.99873438             -6.852        0.999052705             -6.877       0.0137340935            -93.787
               512      0.0145579425           -100.425        0.998619403             -6.858        0.998389489             -6.844       0.0139107325            -94.695
               513      0.0146672941           -100.405        0.999086291             -6.847         0.99884937             -6.861        0.013710396            -93.938
               514      0.0147842739            -100.28        0.999462721             -6.891        0.998985995             -6.874       0.0136914675            -94.136
               515      0.0146301911            -99.406        0.998504439             -6.949        0.998504439             -6.892       0.0138547917            -94.468
               516      0.0144793811           -100.054        0.998504439             -6.937        0.998044717             -6.901       0.0137831982             -93.59
               517      0.0144543977           -100.816         0.99889721              -6.92        0.998504439             -6.937       0.0138324784            -94.535
               518      0.0146487309           -100.608        0.997929819             -6.964        0.999266665             -6.992       0.0135706297              -94.2
               519      0.0147740648           -100.169        0.998274551             -6.934         0.99933719             -7.001       0.0134880759            -94.384
               520      0.0146740502           -101.285        0.999023605             -6.996        0.999119649             -6.988       0.0137119746            -94.168
               521      0.0146403008             -100.6        0.998504439             -7.027         0.99873438             -6.981       0.0135378594            -94.179
               522      0.0144311187           -101.614        0.998619403             -7.039        0.999495171             -7.049       0.0134679036             -94.22
               523      0.0145127596           -102.074        0.998943097              -7.04        0.998857535             -7.041       0.0133705724            -94.069
               524      0.0142429516           -100.599         0.99873438             -7.072        0.998044717             -7.042       0.0132892356            -93.961
               525      0.0143780503           -100.964        0.998619403             -7.048        0.998619403             -7.113       0.0132144776            -94.744
               526      0.0146032661           -100.563        0.998389489              -7.07         0.99873438             -7.142       0.0132495156            -94.227
               527      0.0141856748           -102.357        0.999261258             -7.133          0.9988795              -7.16       0.0133244717            -95.205
               528      0.0140961334           -102.079        0.998504439             -7.146         0.99884937             -7.151       0.0129987024            -95.143
               529      0.0143021062           -101.959        0.998952412             -7.171         0.99873438             -7.209       0.0132510411             -95.01
               530      0.0141107468            -100.84        0.998856615             -7.187         0.99884937             -7.178       0.0133613395            -94.462
               531      0.0142282013           -101.895         0.99897967             -7.202        0.998389489             -7.176       0.0132099143            -94.629
               532        0.01404268           -101.652        0.998389489             -7.172        0.999429007              -7.21       0.0132708885            -95.293
               533      0.0141546782           -100.766         0.99873438             -7.221        0.999242046             -7.211       0.0129777678            -95.608
               534      0.0138626793           -102.488        0.999063117             -7.243        0.999530213             -7.215       0.0130857065            -95.464
               535      0.0138723488            -101.46        0.997814935             -7.249        0.998504439             -7.245       0.0132846464            -94.902
               536      0.0140620941           -101.742        0.998504439             -7.285        0.999064782             -7.282       0.0127790921            -94.725
               537      0.0137578319           -102.693        0.999313835             -7.253        0.997585206             -7.287       0.0129927176            -93.916
               538      0.0138197441           -102.664        0.999280701             -7.323        0.998969319             -7.256       0.0129509015            -94.233
               539      0.0136662701           -102.343        0.998965523             -7.333        0.997814935             -7.347        0.012683818            -93.664
               540      0.0137562481           -102.139        0.998274551             -7.339        0.997929819              -7.34       0.0127614493            -94.857
               541      0.0137293507            -102.03        0.998619403             -7.336        0.998619403             -7.354       0.0128277356             -95.14
               542      0.0136019132           -102.459        0.999136328             -7.338        0.998274551             -7.398        0.012846949            -94.912
               543      0.0135831345           -101.358        0.998504439             -7.431        0.998958393             -7.367       0.0127350308            -95.068
               544      0.0138117911           -102.592        0.998504439             -7.414         0.99873438             -7.428       0.0124824547            -94.445
               545      0.0138659618           -102.341        0.998274551             -7.393        0.998619403             -7.476       0.0126590175            -95.242
               546       0.013682013               -102        0.998619403             -7.448        0.998950457             -7.441        0.012593603            -94.849
               547      0.0136678436           -102.236        0.998619403             -7.468        0.998389489             -7.472        0.012609562            -94.538
               548      0.0134168326           -102.377        0.998044717             -7.454        0.998274551             -7.509        0.012496834            -94.565
               549      0.0134400226           -103.613        0.998159627             -7.554         0.99873438             -7.509       0.0124752713             -94.92
               550      0.0133613395           -103.194        0.998894105             -7.498        0.998504439              -7.51       0.0125256421            -94.659
               551      0.0135067232           -102.848        0.998274551             -7.535        0.999256196             -7.544       0.0124594824            -94.058
               552      0.0134060242           -102.791        0.999070073             -7.525        0.999005663             -7.547       0.0125617458            -94.397
               553      0.0131477065           -102.344        0.998900085             -7.525        0.998504439             -7.546       0.0124308264            -94.637
               554      0.0134214674           -101.885         0.99889399             -7.588        0.998389489             -7.558       0.0123495178            -95.185
               555      0.0133275402           -102.011         0.99884937             -7.573        0.998044717             -7.576       0.0123452532            -95.234
               556        0.01307525           -102.357        0.998159627             -7.627        0.998389489             -7.606       0.0120572981            -95.028
               557       0.013286176           -102.481        0.998966444             -7.648        0.999245152             -7.606       0.0122264394            -94.196
               558      0.0131038828           -102.964        0.997929819             -7.607        0.998619403             -7.618       0.0122970234            -94.157
               559      0.0130571983           -102.709        0.998504439             -7.671        0.998504439             -7.684         0.01215906            -94.154
               560      0.0131658833            -103.29        0.998619403             -7.695        0.998159627             -7.667       0.0121436712            -94.448
               561      0.0132327467           -103.238         0.99873438             -7.661         0.99873438             -7.752       0.0121506637            -93.729
               562      0.0130812727           -102.962        0.998504439             -7.675        0.998619403             -7.696       0.0120948364            -94.299
               563      0.0132907656            -102.83         0.99873438             -7.715        0.998389489             -7.735       0.0119000833            -94.762
               564       0.013238842           -102.892        0.999173483              -7.69        0.998974149             -7.731       0.0118345023            -94.674
               565      0.0129956212           -101.711        0.998497646             -7.741          0.9996969             -7.746       0.0119150823            -95.309
               566      0.0130767554           -101.714        0.999003708             -7.766        0.998159627             -7.789       0.0120378797            -94.524
               567       0.012789395            -102.78        0.998619403             -7.797        0.998619403             -7.823       0.0117679279             -93.81
               568      0.0129897263           -102.329         0.99884937             -7.855        0.998274551             -7.792        0.011708466            -94.304
               569      0.0130316678           -102.301        0.997700064              -7.84        0.999307737             -7.838       0.0119247697             -94.65
               570       0.012863229           -103.129        0.998389489             -7.883        0.998389489             -7.866       0.0118699803            -94.044
               571      0.0128085509           -102.036        0.998389489             -7.849        0.999120799             -7.852       0.0118331399            -93.741
               572      0.0127570424            -103.08        0.997929819             -7.887        0.998159627             -7.851       0.0117774156            -94.359
               573      0.0129255788           -103.385        0.998853395             -7.881        0.999105156             -7.903       0.0117679279            -93.865
               574      0.0128513869           -101.779        0.998389489               -7.9        0.998159627              -7.89       0.0117760597            -94.609
               575      0.0128218296           -102.938        0.998901925             -7.939        0.998159627              -7.92       0.0115651162            -94.441
               576      0.0126925826           -102.859        0.999218348             -7.934        0.998389489             -7.926       0.0117584479            -93.314
               577      0.0127643881           -103.297        0.999094918             -7.984        0.998274551             -7.929       0.0117774156            -93.727
               578      0.0124795809           -101.839        0.998619403             -7.985         0.99873438             -7.997       0.0114855025            -94.353
               579      0.0126925826           -102.526        0.998504439             -8.015        0.998619403              -7.99       0.0114459014            -94.347
               580      0.0126692236             -103.6         0.99873438             -8.027        0.999474688             -7.982       0.0113749632            -94.269
               581       0.012642996           -103.558         0.99873438             -8.009         0.99884937             -8.046       0.0114947624            -92.947
               582      0.0125270843           -103.334        0.998274551             -8.058        0.999247913             -8.049       0.0116426006            -93.645
               583      0.0126881995           -102.625        0.998159627             -8.054        0.998975644              -8.02       0.0113357432            -93.832
               584      0.0124379842           -103.364        0.997814935             -8.107        0.999528657              -8.07       0.0114577674             -93.68
               585      0.0124193824           -102.482        0.998274551             -8.118         0.99886524             -8.055       0.0113488015            -94.023
               586      0.0126588322           -102.245        0.998719765             -8.131        0.999468807             -8.107       0.0111697549            -94.189
               587      0.0123310483           -103.525        0.998930331             -8.153         0.99888272             -8.125       0.0114064368            -93.791
               588      0.0124824547           -102.143         0.99873438             -8.164         0.99873438             -8.073       0.0113109739             -93.14
               589      0.0123751366           -103.619        0.998925961              -8.19        0.998044717             -8.154       0.0114604059            -93.426
               590      0.0124896423           -103.217         0.99888387             -8.164         0.99891515             -8.178       0.0111493616            -92.917
               591      0.0122560352           -103.787        0.998916645             -8.178        0.998619403             -8.194       0.0112098551            -93.152
               592      0.0121912995           -104.345        0.999318552             -8.225        0.998937576             -8.237       0.0110598694            -93.222
               593      0.0124322576           -103.119        0.999165891             -8.244         0.99873438             -8.252       0.0112525253            -92.915
               594      0.0122659164           -103.494        0.998159627             -8.284         0.99873438             -8.251       0.0109913237            -93.244
               595      0.0122701536           -103.219        0.998274551             -8.248        0.998274551             -8.229       0.0110726099            -93.286
               596      0.0121814784           -102.504        0.998044717             -8.291        0.997929819             -8.278       0.0112008247            -93.545
               597      0.0123126065           -103.742         0.99873438             -8.325        0.998274551             -8.278       0.0111275614            -93.029
               598      0.0124523122           -103.926        0.997929819             -8.284        0.998961268             -8.268       0.0111570659            -93.044
               599       0.012096229           -103.486        0.998619403             -8.339        0.998504439             -8.311       0.0111750635             -91.69
               600      0.0122984392           -102.499        0.998619403              -8.35        0.999010148              -8.34       0.0111058039            -93.351
               601       0.011975675           -103.633        0.998988986             -8.373        0.997929819             -8.375       0.0108267972            -93.936
               602      0.0122179966           -102.818        0.999004513             -8.355        0.998159627             -8.396       0.0107497905            -92.799
               603       0.011939881            -103.24        0.998901465             -8.451        0.997814935             -8.397        0.010723832            -92.479
               604      0.0122489821           -103.023        0.999145185             -8.391        0.998159627             -8.401       0.0110115892            -91.837
               605       0.012047585           -103.349        0.998274551             -8.425        0.999095723             -8.387       0.0107720907             -93.14
               606      0.0121171365           -104.063        0.998942177             -8.462        0.998924236             -8.445        0.010752266            -92.147
               607      0.0120129591           -103.394        0.998619403             -8.455        0.998274551             -8.465       0.0106979361            -92.654
               608      0.0120517468           -103.742        0.998159627             -8.455        0.998955518             -8.483       0.0107807754            -93.078
               609      0.0119701612           -104.541        0.999047069             -8.469        0.999026366             -8.486       0.0108567541             -93.23
               610      0.0118072837           -103.488        0.998159627             -8.492         0.99873438             -8.528       0.0108943168            -92.953
               611      0.0116949939            -103.59        0.998619403             -8.587         0.99884937             -8.525       0.0107473155            -92.682
               612      0.0118863907           -104.761        0.998504439             -8.571        0.998872025             -8.533       0.0107497905            -92.263
