!{251R15S221}
!Johanson Technology Inc.
!www.johansontechnology.com
!Test Board Conditions:
!Substrate Type  RO4350B
!Substrate Thickness        20 mil
!Substrate Dk      3.66
!TL Type: GCPW 
!TL Trace Width  34 mil
!TL Gap  10 mil
!Electrode orientation      Horizontal
!DUT TOPOLOGY	SERIES
!Mounting Pad LxW         26x52 mil
! Created Thu Mar 12 17:11:22 2020
# mhz S ma R 50
! 2 Port Network Data from SP1.SP block
! freq  magS11  angS11  magS21  angS21  magS12  angS12  magS22  angS22  
!     
               500      0.0191668172            -99.845        0.998504439             -6.834        0.998159627             -6.809       0.0183632692            -94.245
               501      0.0190875418            -99.413        0.998044717             -6.881        0.998504439             -6.872       0.0182599675            -94.631
               502      0.0192132131             -99.36         0.99873438             -6.882        0.998619403             -6.878       0.0181342668            -94.994
               503      0.0189321528            -99.341        0.998952757             -6.899        0.999216507             -6.889       0.0183315843            -95.144
               504      0.0189626924           -100.291        0.998504439             -6.878        0.998159627             -6.882       0.0181426198            -94.421
               505      0.0189517797            -99.441        0.998619403             -6.919         0.99884937             -6.937       0.0180281017            -94.875
               506      0.0190743611           -100.175        0.998159627             -6.953        0.999106536              -6.91       0.0182305596             -95.08
               507      0.0188755667            -99.541        0.998504439             -6.933         0.99873438              -6.98       0.0181509767            -94.622
               508      0.0189757959            -99.242        0.998159627             -6.986         0.99873438             -6.994       0.0180925591            -94.967
               509      0.0188538479            -99.639         0.99884937             -6.973        0.998389489             -7.033       0.0181488871            -94.398
               510      0.0188516774           -100.014        0.999154733             -7.016        0.998274551             -7.008       0.0180551042             -94.62
               511      0.0189779807             -99.64        0.998504439             -7.024        0.998960118             -7.059       0.0178813375            -94.825
               512      0.0186401756           -100.156        0.998389489             -7.054        0.998159627             -7.047       0.0180177269            -95.068
               513      0.0187477865           -100.014        0.999248604             -7.044        0.998159627             -7.058       0.0179762873            -94.581
               514      0.0188581897            -99.771        0.999315676             -7.089        0.998619403             -7.047       0.0177643778            -94.737
               515      0.0188364909            -99.161        0.998274551              -7.16        0.998504439             -7.067       0.0179928517            -95.168
               516      0.0187025145            -99.772        0.998274551             -7.142        0.998389489             -7.101       0.0178012295            -94.404
               517      0.0187111293           -100.042        0.998619403             -7.136        0.998274551             -7.138       0.0179618059            -95.183
               518      0.0189408733           -100.243        0.998044717             -7.164        0.999342253             -7.192       0.0178094292            -95.281
               519      0.0188104853             -99.81        0.998389489             -7.146        0.999069268             -7.196       0.0177174004            -95.133
               520      0.0188104853            -100.62         0.99873438             -7.191        0.999189703              -7.18       0.0178176326            -95.001
               521      0.0188408287           -100.254        0.998619403             -7.202         0.99884937             -7.192       0.0177623327            -94.929
               522      0.0186487617           -100.757        0.998389489             -7.236        0.999407145             -7.226       0.0176970142            -95.246
               523      0.0187089752            -101.02         0.99873438             -7.239        0.998389489             -7.224       0.0177746067            -94.959
               524       0.018424682           -100.066         0.99873438             -7.258        0.997929819             -7.241       0.0176461514            -94.771
               525       0.018586602             -99.85        0.998389489             -7.273        0.998619403             -7.314       0.0175569875             -95.14
               526      0.0187866784            -99.862        0.998389489             -7.262        0.998389489             -7.341       0.0175792361            -94.874
               527      0.0184735347           -101.185        0.999219613             -7.321        0.998990826              -7.35       0.0176603782            -95.178
               528      0.0184310467           -100.721        0.998504439             -7.316        0.998504439             -7.342       0.0175125747            -95.302
               529      0.0185930227           -100.697        0.999044884             -7.364        0.998504439             -7.423       0.0175812601            -95.451
               530       0.018416199            -100.39         0.99873438             -7.378         0.99873438             -7.374       0.0177296434            -95.192
               531      0.0185780446           -101.104        0.998619403             -7.393        0.998159627             -7.355       0.0175691196            -95.451
               532      0.0185267824           -100.945        0.998274551             -7.372        0.999031541             -7.415       0.0175873335            -95.689
               533      0.0185481244            -99.595        0.998159627             -7.428          0.9988933               -7.4       0.0173700073             -95.93
               534      0.0182936346           -101.225        0.999230887             -7.433        0.999214782             -7.409        0.017398027            -95.571
               535      0.0181928191           -100.434        0.997814935             -7.452        0.998389489              -7.43       0.0177459805            -95.172
               536      0.0182978473             -100.7        0.998619403             -7.486        0.998504439             -7.472       0.0173200842            -95.042
               537      0.0180842291           -101.134         0.99884937             -7.447        0.997585206              -7.48         0.01753073            -94.537
               538      0.0183210348           -101.285        0.999164741             -7.511        0.999013599             -7.457       0.0174060409            -94.839
               539       0.018073822           -100.874         0.99873438             -7.518        0.997700064             -7.546       0.0171277376            -94.542
               540      0.0182683785           -101.035        0.998159627             -7.514        0.997700064             -7.509       0.0174140585            -95.431
               541      0.0182494592           -101.042        0.998274551             -7.528        0.998274551             -7.541       0.0174481747            -95.418
               542      0.0182200683           -100.982         0.99873438             -7.548        0.997585206             -7.594       0.0174622419            -95.484
               543      0.0180946422            -99.932        0.997929819             -7.616         0.99873438             -7.547       0.0173200842            -95.331
               544      0.0182263623           -101.442        0.998504439             -7.617        0.998389489             -7.591       0.0172544055            -94.789
               545      0.0183844228           -101.242        0.998044717             -7.583        0.998044717             -7.663       0.0173021471            -95.615
               546       0.018241057           -100.689        0.998389489             -7.633        0.998619403             -7.618       0.0170962161            -95.144
               547       0.018209583           -100.691        0.998504439             -7.659        0.998159627             -7.657       0.0172782598            -95.275
               548      0.0180384825           -100.837        0.997814935              -7.65        0.998274551             -7.704       0.0171573417             -95.17
               549      0.0181384428           -102.108        0.998159627             -7.736        0.998159627             -7.709       0.0170922801            -95.268
               550      0.0180634208           -101.839         0.99884937             -7.683        0.998389489             -7.723       0.0171297096            -95.016
               551      0.0180655006           -101.519        0.998274551             -7.745         0.99873438             -7.723       0.0169746176            -94.693
               552      0.0180551042           -101.726        0.999034992             -7.725        0.999026596             -7.738       0.0171691976            -94.867
               553      0.0178114797           -101.047        0.998389489             -7.723        0.998274551              -7.77       0.0170176662            -95.251
               554      0.0180467915           -100.662        0.998619403              -7.77        0.998274551             -7.737       0.0169609432            -95.603
               555      0.0179225582           -100.928         0.99884937             -7.793        0.997585206             -7.809       0.0169531342            -95.624
               556      0.0178402116           -100.842        0.997814935             -7.824        0.998159627               -7.8       0.0168015752            -95.402
               557      0.0180011396            -101.11        0.999045574             -7.847         0.99884937             -7.812       0.0169980851            -94.659
               558      0.0176359963           -101.469        0.997700064             -7.813         0.99884937             -7.828       0.0169297288            -95.355
               559      0.0176583451           -101.176        0.998504439             -7.877        0.998159627             -7.892       0.0167629326            -94.925
               560      0.0177296434           -101.522         0.99884937             -7.886        0.998044717             -7.889        0.016962896              -95.2
               561      0.0179308138            -101.94        0.998504439             -7.873        0.998389489              -7.93       0.0168732989            -94.421
               562      0.0179308138           -101.873         0.99884937             -7.872        0.998389489             -7.881       0.0169472798            -94.993
               563       0.017889574           -101.353        0.998159627             -7.922        0.998389489             -7.934       0.0167340091            -95.478
               564      0.0178772206           -101.122        0.998619403             -7.903         0.99873438             -7.924       0.0165443611            -95.458
               565      0.0177010896           -101.064         0.99873438             -7.926        0.999195225             -7.948       0.0167032123             -95.92
               566      0.0178772206           -100.902        0.998972424             -7.966        0.997700064             -7.982       0.0167745161             -95.51
               567      0.0175569875           -101.426        0.998619403              -8.02        0.998504439             -7.988        0.016613074            -94.789
               568       0.017650215           -101.447         0.99873438             -8.038        0.998159627             -7.995       0.0165653265            -94.989
               569      0.0178094292           -101.297        0.997585206             -8.027        0.999093193             -8.043       0.0167687234             -95.57
               570      0.0177174004           -101.606        0.998159627              -8.09        0.998389489             -8.055       0.0167301564            -94.827
               571      0.0175287118           -100.824        0.998159627             -8.051         0.99873438             -8.067        0.016770654            -94.768
               572      0.0175226586           -101.745        0.998044717             -8.084        0.997929819             -8.066       0.0166035135            -94.955
               573      0.0177296434           -101.739        0.998389489             -8.087         0.99889744             -8.127       0.0165672338            -94.831
               574      0.0177214805           -101.035        0.998389489             -8.076        0.997929819              -8.09       0.0166149868            -95.275
               575      0.0177705144           -101.382         0.99873438             -8.122        0.998274551             -8.116       0.0164550801            -95.302
               576      0.0175428439           -101.698        0.998994046             -8.112        0.997929819             -8.125       0.0166360417            -94.813
               577      0.0176807222           -101.945        0.998917565             -8.183        0.998389489             -8.123       0.0167012893            -95.665
               578      0.0173320527           -100.916        0.998389489             -8.173        0.998504439             -8.197       0.0164342542            -95.102
               579      0.0177153607           -101.493        0.998504439             -8.207        0.998389489             -8.168       0.0164702427            -95.521
               580      0.0176055663            -101.99        0.998504439             -8.212        0.998949077             -8.174       0.0164645551            -95.253
               581      0.0175853088           -102.248         0.99873438             -8.182        0.998504439             -8.254       0.0165557935            -94.622
               582      0.0174421493           -102.012        0.998274551             -8.245        0.999119764             -8.244        0.016493013            -95.267
               583      0.0175408244           -101.912        0.997814935             -8.259        0.998952297             -8.229       0.0162648477            -95.153
               584      0.0173320527           -102.225        0.998159627             -8.292        0.999180501             -8.281       0.0164759323            -95.178
               585      0.0174381336           -101.901        0.997929819             -8.301        0.998504439             -8.266       0.0163813617            -95.547
               586      0.0176807222           -101.483        0.998389489             -8.338        0.999073064             -8.307       0.0162031704            -95.597
               587      0.0173081241            -102.43        0.999233763             -8.343        0.998619403             -8.337        0.016447504            -95.334
               588       0.017480345           -100.979        0.998619403             -8.363        0.998274551              -8.26       0.0163813617            -94.863
               589      0.0173760077           -102.325        0.998619403              -8.36        0.997814935             -8.368       0.0164058977            -94.525
               590      0.0174722969           -101.756        0.998389489             -8.387        0.998619403             -8.376       0.0161938458            -94.552
               591      0.0174521927           -102.341        0.998504439              -8.38         0.99873438             -8.383       0.0163606291            -94.759
               592      0.0173480234           -102.988        0.999175439              -8.41         0.99873438             -8.419       0.0162218358            -95.242
               593      0.0174160635           -102.055        0.998619403             -8.441        0.998504439             -8.442       0.0163775902             -94.99
               594       0.017250433           -102.273        0.998159627             -8.465        0.998389489             -8.468       0.0159790148            -94.691
               595      0.0173420327            -102.01        0.998044717             -8.466        0.998044717             -8.445       0.0161714886            -95.101
               596      0.0172008536           -101.755        0.998504439             -8.496        0.998044717             -8.457       0.0163493315            -95.315
               597      0.0174260919           -102.198        0.998504439             -8.517        0.997929819             -8.494       0.0162367835            -94.946
               598      0.0175509246           -102.626        0.997585206             -8.497        0.998980245             -8.489       0.0163305195            -94.905
               599      0.0171514168           -102.048         0.99873438             -8.543        0.998159627             -8.526        0.016259231            -94.111
               600      0.0172583789           -101.562        0.998619403             -8.553        0.998934816             -8.541        0.016177075            -95.336
               601      0.0171514168           -101.971         0.99884937             -8.586        0.997814935             -8.571       0.0162274396            -95.393
               602      0.0172782598           -101.927         0.99889882             -8.565        0.997929819             -8.609       0.0160398388            -94.895
               603      0.0170372698           -101.988        0.998389489             -8.641        0.997585206             -8.596       0.0159220873            -94.236
               604      0.0172186857           -102.329        0.998945512             -8.588        0.998274551              -8.62        0.016251745            -94.433
               605      0.0172802492           -102.554        0.997929819             -8.641         0.99886202             -8.589       0.0160453797            -94.957
               606      0.0172862186           -102.002        0.998619403             -8.661        0.998389489             -8.631       0.0159001053            -94.617
               607      0.0171909549           -102.375        0.998389489              -8.67         0.99873438             -8.671       0.0157997422            -95.014
               608      0.0172762707           -103.068        0.998044717             -8.668        0.998619403             -8.686       0.0159385937             -95.21
               609      0.0171988734           -103.313        0.998966098             -8.658        0.998504439             -8.698       0.0160509226            -95.093
               610      0.0170196255           -101.858        0.998389489             -8.694        0.998619403             -8.735       0.0161064564              -94.9
               611      0.0170117895           -102.367        0.998389489             -8.759         0.99873438             -8.725       0.0159184215            -94.807
               612      0.0169746176           -103.146        0.998274551             -8.788         0.99873438             -8.744       0.0160564673            -94.196
