!{201R07S2R2}
!Johanson Technology Inc.
!www.johansontechnology.com
!Test Board Conditions:
!Substrate Type  RO4350B
!Substrate Thickness        10 mil
!Substrate Dk      3.66
!TL Type: GCPW 
!TL Trace Width  21 mil
!TL Gap  20 mil
!Electrode orientation      Horizontal
!DUT TOPOLOGY	SERIES
!Mounting Pad LxW         16x21 mil
!Agilent Technologies,N5230A,MY45001966,A.07.50.67
!Agilent N5230A: A.07.50.67
! Created Mon Mar  9 16:27:02 2020
# mhz S ma R 50
! 2 Port Network Data from SP1.SP block
! freq  magS11  angS11  magS21  angS21  magS12  angS12  magS22  angS22  
!     
               500       0.840330255            -34.942        0.535734975             54.642        0.536290372             54.646        0.840136784            -34.961
               501       0.840040065            -34.971        0.536475632             54.558        0.537464767             54.675        0.839170097            -35.011
               502       0.839928719            -35.093        0.537084268             54.491        0.538322375             54.566        0.838962272            -35.088
               503       0.839426463            -35.131        0.538248287             54.448        0.538930368             54.472        0.838074557            -35.158
               504       0.838204523            -35.152        0.538703752             54.388        0.539634864             54.471        0.838011542            -35.185
               505       0.837934329            -35.238        0.540268918             54.357        0.540268918             54.372        0.837644967            -35.247
               506       0.837722153            -35.314        0.540380912             54.258        0.541501919              54.36          0.8370473            -35.338
               507       0.836854585            -35.351        0.541003407             54.185        0.542375421             54.338        0.836758244            -35.369
               508       0.836661914            -35.417        0.541564265             54.109        0.542937701              54.24        0.835699226             -35.43
               509       0.836084168            -35.425        0.542625251             54.105        0.543563142             54.211        0.835410636            -35.479
               510       0.835415933            -35.562        0.543191236             54.057        0.544756918             54.097        0.835319758            -35.521
               511        0.83537211            -35.592        0.543913667              53.94        0.545607048             54.057        0.834026734            -35.637
               512       0.834641548            -35.634        0.544816184             53.907        0.546260754             54.015        0.833393291            -35.649
               513       0.834161228            -35.671        0.546134988             53.943        0.546638228             53.931        0.833201417            -35.681
               514       0.832913689            -35.787        0.546764111             53.774        0.547330941             53.891        0.833297349            -35.773
               515       0.832913689            -35.787        0.547267931             53.772        0.548403225             53.828        0.832242711            -35.826
               516       0.832042363            -35.855        0.548144977             53.725        0.548965989             53.732         0.83232979            -35.873
               517       0.831859537            -35.928        0.548403225             53.624        0.549730711              53.71        0.831285107            -35.935
               518       0.831549149            -36.002        0.549588863             53.565        0.550728971             53.618        0.830687974            -36.012
               519       0.831189407            -36.074        0.549794005             53.534        0.551886791             53.578        0.830233016            -36.076
               520       0.830856533            -36.115        0.551411779             53.421        0.552174109              53.55        0.829709454            -36.164
               521       0.829468695             -36.19        0.551569191             53.354        0.553159022             53.481        0.829277725            -36.189
               522         0.8292091            -36.213        0.552540428             53.364        0.554005479             53.419        0.828922751            -36.209
               523       0.829184451             -36.23        0.553542728             53.317        0.554116586             53.348        0.828325726            -36.312
               524       0.828418903            -36.308        0.553987544             53.231        0.555456432              53.36         0.82803749            -36.352
               525       0.827942164            -36.399        0.554753435              53.22        0.555904257             53.246        0.826703926            -36.366
               526       0.827614705            -36.487        0.555684392             53.061        0.556901257             53.129        0.826472102            -36.536
               527       0.826228174            -36.517        0.556224354             53.036         0.55731406             53.084        0.826418442            -36.566
               528       0.826513592            -36.537         0.55731406             53.011        0.557956061             53.116        0.825752695            -36.578
               529       0.825816669            -36.628        0.558256316             52.933        0.559028108             52.999        0.825246413            -36.652
               530        0.82546754            -36.666        0.559113528             52.883        0.559242283             53.018        0.824612664            -36.717
               531       0.824707606             -36.77        0.558984802             52.815        0.560402417             52.873        0.823758673            -36.771
               532       0.824138115            -36.802        0.559950968             52.805        0.561306408             52.837        0.823758673            -36.796
               533       0.824227595             -36.82        0.560656873             52.749        0.562143444             52.817        0.822900167            -36.838
               534       0.823379405            -36.911        0.561823628             52.668        0.562859499             52.718        0.822716107            -36.951
               535       0.822692957            -36.937        0.562390246             52.603         0.56375159             52.654        0.822314181            -37.029
               536        0.82229682             -37.02        0.563220703              52.58        0.564324117             52.639        0.822202155            -37.024
               537        0.82192951            -37.037        0.564201938             52.526         0.56498195             52.612        0.821361937            -37.077
               538       0.820918419            -37.093        0.564546865             52.462        0.565587757             52.535        0.821107464            -37.131
               539       0.820851362            -37.193        0.565281175             52.373        0.566714759             52.471          0.8201901            -37.199
               540       0.820189622            -37.219        0.566388295             52.349        0.567106036             52.426        0.819811997            -37.224
               541       0.819888471            -37.318        0.567158937             52.263        0.568204645             52.352        0.819133673            -37.328
               542       0.819815718            -37.367        0.567827263             52.213        0.568743231             52.311        0.818118551            -37.365
               543       0.819068702              -37.4         0.56848673             52.161         0.56946932             52.281        0.818032072            -37.411
               544       0.818087958            -37.445        0.569114958             52.108        0.570033002             52.209        0.818087958            -37.491
               545       0.817782898            -37.488        0.569886047             52.075        0.570739623             52.139         0.81731228            -37.526
               546        0.81729883            -37.587        0.570730231             52.015        0.571716699             52.074        0.816640431            -37.569
               547        0.81707674            -37.598        0.571298189             51.928         0.57215388             52.029        0.815854752            -37.667
               548       0.816050734              -37.7        0.572027832             51.869        0.573082517             51.918        0.815581113            -37.713
               549       0.815924549            -37.744        0.572400494              51.83        0.573918204             51.926        0.814610493            -37.763
               550       0.815642787            -37.791        0.573786069             51.771        0.574314789             51.884        0.814329185             -37.84
               551       0.814358561            -37.871        0.574071077             51.689        0.575593216             51.799        0.814733674            -37.922
               552       0.814047974            -37.885        0.574910182             51.701        0.575771283             51.767        0.813392194            -37.891
               553       0.813745872            -37.975        0.575822723             51.597        0.576552419             51.691        0.813277577            -37.986
               554       0.813511815            -38.002        0.576320231             51.545        0.577449308             51.637        0.812295159            -38.062
               555       0.812362748            -38.058        0.577364397             51.495        0.577696851             51.543        0.811708325            -38.123
               556         0.8121565             -38.12        0.577882741             51.482         0.57901488             51.539        0.811969515            -38.147
               557       0.811774216            -38.186         0.57880897             51.378        0.579275623             51.481        0.811213656            -38.206
               558       0.811431746            -38.219        0.579364652             51.316        0.580366044              51.44        0.809938409            -38.258
               559       0.810831372             -38.26        0.580337379             51.279        0.580604696             51.408        0.810178183            -38.311
               560       0.810167735            -38.375        0.580998409             51.189        0.581734664             51.271        0.809328704            -38.408
               561       0.809654996            -38.403        0.581366496             51.145        0.582639602             51.235         0.80863028            -38.459
               562       0.808870875            -38.459         0.58220938              51.09        0.583282838             51.226        0.808870875            -38.491
               563       0.809095899            -38.565        0.583042214             51.059        0.583445104              51.09         0.80723503            -38.554
               564       0.807867173            -38.642        0.583565973             50.973        0.584911232                 51        0.807588193            -38.646
               565       0.807885847            -38.631        0.584251721             50.945        0.585194182             51.004        0.806399036            -38.675
               566       0.806796678            -38.692        0.585415344             50.863           0.585685             50.971        0.806889569            -38.731
               567       0.807142099            -38.729        0.585935755             50.806        0.586745814             50.952        0.805471169            -38.825
               568       0.806278567            -38.834        0.586523092             50.754        0.587333963             50.827        0.805165421            -38.837
               569       0.805562574            -38.888        0.587285504             50.739        0.588029726             50.777        0.804820965            -38.841
               570       0.804641505            -38.925        0.587830926              50.65        0.589118187             50.714        0.804548872            -38.962
               571       0.805052389            -38.924        0.588334266             50.605        0.589554751             50.708        0.803293298            -39.027
               572       0.804085161            -39.034        0.589524756             50.555        0.590271816             50.637        0.803252429            -39.045
               573       0.803508255            -39.075        0.590255908             50.472         0.59073179             50.544        0.802583714            -39.142
               574       0.802951546            -39.126        0.590662417             50.418        0.591479012             50.499        0.802119988            -39.176
               575       0.802509163            -39.156        0.591561634             50.402        0.591970412             50.464        0.801585772            -39.223
               576       0.801493491            -39.247        0.591902262             50.308        0.592652335             50.418        0.800940031            -39.251
               577       0.801574084            -39.279        0.592984945             50.258        0.593668037             50.381        0.800651769             -39.35
               578       0.800755629            -39.366         0.59354001             50.213         0.59401854             50.257        0.800018445            -39.417
               579       0.800110556            -39.421        0.594086933             50.205        0.594771295             50.223         0.79955805            -39.401
               580       0.799926345            -39.434         0.59504526             50.085         0.59518229             50.159        0.798730006            -39.517
               581       0.798941971            -39.514        0.595888819             50.039        0.596231939             50.125        0.799125955            -39.571
               582       0.798730006             -39.57        0.596005133             50.014        0.596966554             50.051        0.798178453            -39.632
               583       0.798155454            -39.639        0.597430631             49.914        0.597499417             50.021        0.797971693             -39.69
               584       0.797468437            -39.692        0.597466423             49.878        0.598705852             49.943        0.797652082            -39.759
               585        0.79763445            -39.739        0.598072595             49.873        0.599244288             49.874        0.796441539             -39.78
               586       0.796616616            -39.795        0.599583069             49.776        0.599514044             49.833         0.79643321            -39.866
               587       0.796194572            -39.841        0.600093901             49.731        0.600439442             49.774        0.795919624             -39.94
               588       0.795609573            -39.875        0.600274646             49.703        0.601173737             49.743        0.794968646            -39.918
               589       0.794785618            -39.936        0.600966135             49.622        0.601589157             49.705         0.79441969            -40.003
               590       0.794694121            -39.988        0.601450652             49.622        0.602490218             49.652         0.79423679            -40.024
               591       0.794143719            -40.027        0.603113577             49.547        0.602766497              49.59        0.793595333            -40.094
               592       0.792957662            -40.105        0.603045387             49.461        0.603601069             49.492        0.792866375            -40.167
               593       0.793220872            -40.136        0.603592915             49.407        0.604566576              49.52        0.792581869            -40.185
               594       0.792775098            -40.225         0.60429639             49.385        0.605131834             49.381        0.791771746            -40.247
               595       0.791680595            -40.274        0.604922864             49.304        0.605271186             49.357        0.791316097            -40.339
               596       0.791888239            -40.291        0.606057588             49.254        0.606266949             49.336        0.790977069            -40.387
               597       0.790769663            -40.375        0.606596639             49.165        0.607085696             49.249        0.790587603            -40.436
               598       0.789677929            -40.414        0.607015806             49.137        0.606945925             49.236        0.790041673            -40.489
               599       0.789587019            -40.433        0.607785031             49.103        0.608205019             49.154        0.789405231            -40.551
               600       0.789223485            -40.546        0.608275046             49.071        0.608975751             49.095         0.78904178            -40.548
               601       0.789132627            -40.568        0.608835546              49.01        0.609677264             49.077        0.788224628            -40.595
               602        0.78786172             -40.63         0.60974746             48.925        0.610379586             49.011        0.788224628            -40.699
               603        0.78777102            -40.675        0.610309317             48.848        0.610942025             48.963        0.787136407            -40.782
               604       0.786864587            -40.758        0.611012366             48.864        0.610942025             48.876        0.786411761            -40.787
               605       0.786502305            -40.805        0.612209409             48.755        0.611927541             48.821         0.78704579            -40.866
               606       0.785687783            -40.847        0.612279896             48.747        0.612632454             48.775        0.786140191            -40.899
               607       0.785778244            -40.891        0.613126377             48.704        0.613691347             48.706        0.785597332            -40.979
               608       0.785392167            -40.911        0.614025724             48.665        0.614450024             48.716        0.785120949            -40.988
               609       0.784363789            -40.981        0.614493843             48.602        0.614847676             48.613        0.784996166            -41.042
               610       0.784332119            -40.987        0.614964435             48.551        0.616027358             48.641        0.783790509            -41.106
               611       0.783782068            -41.105        0.615524471             48.474        0.616801361             48.515        0.783331017            -41.166
               612       0.782888656            -41.173        0.616240163             48.442        0.616736994             48.484        0.782798527             -41.21
