!{251R15S1R7}
!Johanson Technology Inc.
!www.johansontechnology.com
!Test Board Conditions:
!Substrate Type  RO4350B
!Substrate Thickness        20 mil
!Substrate Dk      3.66
!TL Type: GCPW 
!TL Trace Width  34 mil
!TL Gap  10 mil
!Electrode orientation      Horizontal
!DUT TOPOLOGY	SERIES
!Mounting Pad LxW         26x52 mil
! Created Thu Mar 12 16:36:31 2020
# mhz S ma R 50
! 2 Port Network Data from SP1.SP block
! freq  magS11  angS11  magS21  angS21  magS12  angS12  magS22  angS22  
!     
               500       0.886441337            -33.461        0.457614735              56.18        0.458669646             56.208         0.88399539            -33.453
               501       0.885829216            -33.511        0.458300151             56.099        0.459198013             56.176        0.884097169            -33.494
               502       0.885217518            -33.562         0.45888092             56.029        0.459832857             56.129          0.8830799            -33.609
               503       0.885816491             -33.63        0.459773315             55.964        0.461151644             56.088        0.883372268            -33.658
               504       0.884911828            -33.699        0.460468578             55.936        0.461795823             55.986        0.883690121            -33.689
               505       0.884504405            -33.727        0.461317575             55.838        0.462221348             55.954        0.882571705            -33.753
               506       0.884095998             -33.81        0.462220736             55.755         0.46323293             55.893        0.882875417            -33.828
               507       0.884040759            -33.939        0.463097342             55.716        0.464004603               55.8        0.882515392              -33.9
               508        0.88364583            -33.901         0.46358378              55.71        0.464705949             55.798        0.881816524            -33.905
               509       0.881860723            -33.956         0.46419451             55.606        0.465050376             55.744         0.88165769            -34.001
               510       0.882063802            -34.008        0.464675741             55.566        0.465854184             55.704        0.880541846            -34.045
               511       0.882266928            -34.078        0.465746929             55.487        0.466766845             55.613        0.880541846            -34.133
               512       0.881860723            -34.178        0.466766845             55.448        0.467519791             55.523        0.880541846            -34.195
               513       0.881251765            -34.208         0.46730454             55.373        0.468381788              55.48        0.880237771            -34.264
               514       0.880643228            -34.255        0.467950591             55.352        0.468489649             55.416        0.879629934             -34.28
               515       0.880846027            -34.365        0.468921343             55.264        0.469894109             55.339        0.879022517            -34.363
               516         0.8799338            -34.349        0.469191353             55.233        0.470110553             55.341        0.878011087            -34.385
               517       0.880035112            -34.473        0.470164679             55.149        0.471031553             55.237        0.878112178            -34.517
               518       0.879224943            -34.485        0.470760483             55.135        0.471845698             55.251        0.877910008            -34.526
               519       0.878617805            -34.565        0.471411312             55.051        0.472661251             55.131         0.87821328            -34.558
               520       0.878011087             -34.66        0.472443632             54.984        0.473151259             55.061        0.877808941            -34.662
               521       0.878230091            -34.686        0.473160316             54.905        0.474032713             55.015         0.87701761            -34.667
               522       0.877910008            -34.726        0.474023639             54.835        0.474624333              54.95        0.876294327            -34.795
               523       0.877101795            -34.833        0.474460432             54.814        0.475554176             54.904        0.876092576            -34.823
               524       0.876798907            -34.898        0.475225789             54.723        0.476376139             54.808        0.875790036            -34.891
               525       0.876798907              -34.9        0.476101994             54.691        0.476869998             54.778        0.875084517            -34.956
               526       0.876697968            -35.031        0.476979814             54.592        0.477749235             54.703        0.874983775            -35.039
               527       0.876387749            -35.086          0.4773603             54.565        0.478626012             54.672        0.874372113            -35.039
               528       0.875764375            -35.124        0.478120401             54.502        0.479277758              54.59        0.874454617            -35.139
               529       0.875386813            -35.157         0.47885056             54.473        0.479843924             54.538        0.873373479             -35.22
               530       0.874480239            -35.258        0.479733449             54.391        0.480673301             54.484        0.874077619            -35.234
               531       0.874278906            -35.289        0.480507311             54.323        0.481337835             54.415        0.873071879             -35.31
               532       0.874178256            -35.305        0.481060834             54.319        0.481614995             54.406        0.872569443            -35.357
               533       0.873675184             -35.38        0.481116222              54.24        0.482891988             54.364        0.871565438            -35.371
               534       0.873624858            -35.483        0.482419643              54.17        0.483587407              54.27        0.871715931            -35.446
               535       0.873172401            -35.537        0.483503921             54.113        0.484172368             54.211        0.871766147            -35.575
               536       0.872067296            -35.555        0.484060896             54.027        0.484674309             54.177        0.871465101            -35.613
               537        0.87226812            -35.594        0.484562722              54.02        0.485623841             54.107        0.870562589            -35.655
               538       0.871911869            -35.712        0.485202008              53.91        0.486488513              54.03        0.870307227            -35.713
               539       0.871665227            -35.717        0.486462896             53.927        0.487079354             54.012        0.870061039             -35.76
               540       0.871513136             -35.84        0.486826194             53.815        0.487443111             53.887        0.868908283            -35.819
               541       0.870641451            -35.867        0.487909574             53.755        0.488359162             53.835        0.869339354            -35.917
               542       0.870261959            -35.928        0.488146298             53.667        0.488821163             53.786         0.86856035            -35.994
               543       0.870071845            -35.974        0.489221027             53.632        0.489446374             53.744        0.868270639            -36.009
               544       0.869360693            -36.045        0.489271591              53.58        0.490455941               53.7        0.867261365            -36.068
               545       0.869099352            -36.081        0.490139187             53.483        0.491495365             53.655        0.867699658            -36.165
               546       0.868474079             -36.13        0.491141758             53.501        0.492047309             53.571        0.867874366            -36.197
               547       0.868627664            -36.207        0.491681261             53.422        0.492928191             53.535        0.866330604            -36.246
               548       0.867838192            -36.294        0.492650308             53.357        0.493672299             53.433        0.866540287            -36.316
               549       0.867920685            -36.376        0.493094364               53.3        0.494174167             53.353        0.865226951            -36.365
               550       0.867433637            -36.386        0.494238143             53.209        0.494978413             53.333        0.864641863            -36.471
               551       0.866662489            -36.442        0.494481445              53.22        0.495393153             53.283        0.865167108            -36.453
               552       0.866573509            -36.539        0.495456361             53.077        0.496312723             53.228        0.864381391             -36.56
               553       0.866086585            -36.589        0.496205201             53.068        0.496834004             53.134        0.864393141            -36.612
               554       0.865802402            -36.635        0.496728166             52.966        0.497586726             53.123        0.863910567            -36.691
               555       0.864971666            -36.712         0.49768194             52.911        0.498255248              53.02        0.863976403            -36.749
               556       0.864868341            -36.751        0.498310456             52.899        0.498999373             52.952        0.863177279            -36.816
               557       0.864702472            -36.842        0.499018562             52.798        0.499938635             52.938        0.862415792            -36.877
               558       0.864064118            -36.876        0.499684607             52.791        0.500663546             52.856        0.862374628            -36.913
               559       0.863728562            -36.911        0.500065947             52.741        0.501161016             52.768        0.861742042            -36.978
               560       0.862283349            -37.027        0.500495296             52.607        0.501418092             52.721        0.860993752            -37.032
               561       0.863015294            -37.077        0.501439443             52.572        0.502769001             52.694         0.86093129            -37.098
               562       0.862382629            -37.124        0.501880128             52.514        0.503326736             52.637        0.860498267            -37.131
               563       0.861687911            -37.167        0.502921266              52.49        0.503616557             52.597        0.860201113            -37.174
               564       0.861669064            -37.252        0.503779512             52.391         0.50482459             52.507        0.859984257            -37.294
               565       0.861567298             -37.29        0.504358339             52.339        0.505230088             52.476        0.858893283             -37.32
               566       0.861058222            -37.376        0.505164145             52.297        0.505804301             52.396        0.858880056            -37.353
               567       0.860102084            -37.408         0.50553357             52.241         0.50640735             52.341        0.858321517            -37.428
               568       0.860003067            -37.458         0.50640735             52.168        0.507399459             52.286        0.858519176            -37.557
               569       0.859409203            -37.526        0.506990708             52.137        0.507983961             52.233         0.85782757            -37.545
               570       0.858815749            -37.582         0.50792548             52.054        0.508803394             52.159         0.85782757            -37.616
               571       0.858821726            -37.644        0.508865517              51.99        0.509217151             52.092        0.857142486            -37.694
               572       0.857728815            -37.692        0.509037761             51.943        0.509976307              52.04        0.857136521            -37.733
               573       0.856939181             -37.72        0.509448162             51.912        0.510563777              51.99        0.856150274              -37.8
               574       0.857235208            -37.832        0.510446229             51.789        0.511446252             51.915        0.855854621            -37.893
               575       0.856248848            -37.856        0.511093079             51.813        0.511622929             51.875        0.855263622            -37.894
               576       0.856347433            -37.942        0.512153329             51.707        0.512566242             51.789        0.855165162            -37.976
               577       0.855953161             -37.98        0.512625257             51.663        0.513215778             51.736        0.854771434            -38.032
               578       0.856051712            -38.044        0.513333964             51.641         0.51380698             51.681        0.853787909            -38.101
               579       0.855460576             -38.11        0.514162028             51.529        0.514576561             51.649        0.853787909            -38.164
               580       0.854869849            -38.149        0.515050722             51.489         0.51516933             51.586        0.853787909            -38.238
               581        0.85427953            -38.242        0.515110022              51.37        0.516119182             51.547        0.852609171            -38.267
               582       0.854082847            -38.256        0.516059765             51.377        0.516951738             51.453        0.853100114            -38.344
               583       0.853689618            -38.315         0.51677322             51.339        0.517428088             51.396        0.852412874            -38.398
               584       0.853198336            -38.337        0.517189858             51.316        0.517785638             51.367        0.851824251             -38.42
               585       0.852903703            -38.454        0.517845254             51.185        0.518800039             51.265        0.851530092            -38.533
               586       0.852609171            -38.489        0.518322426             51.173        0.519577098             51.207        0.850844116             -38.58
               587       0.851040053            -38.559         0.51909877             51.089        0.519577098             51.155        0.849962959             -38.66
               588       0.851138038            -38.584         0.51963692             51.028        0.520415233             51.154        0.850060821            -38.655
               589       0.851138038            -38.627        0.520834807             50.985        0.521074715             51.081        0.849669443            -38.748
               590       0.850844116            -38.727        0.521494821             50.885        0.521795104             51.057        0.849571627            -38.781
               591       0.850354472            -38.767        0.521855182             50.897        0.522275917             50.961        0.848496392            -38.825
               592       0.850158693            -38.836         0.52281736              50.84        0.522877555             50.881        0.848008099            -38.899
               593       0.849376029            -38.864        0.523479887             50.754        0.523721014             50.848        0.848203382            -38.982
               594       0.849082715            -38.917        0.523962252             50.769        0.524384686             50.818         0.84781286            -38.958
               595       0.848594085            -39.047        0.524747043             50.623        0.525049199             50.711         0.84781286            -39.095
               596       0.847715258            -39.043        0.524988754             50.618        0.525472509             50.732        0.846739851            -39.096
               597        0.84781286            -39.125        0.526259562             50.571        0.526501969             50.624        0.847129879            -39.164
               598       0.847227414            -39.153          0.5261384             50.477        0.526744488             50.549          0.8454735             -39.25
               599       0.847129879            -39.203        0.527047794             50.449        0.527533447             50.497          0.8454735            -39.274
               600       0.846350003            -39.306        0.527715682             50.376         0.52795876             50.433        0.845084235            -39.336
               601       0.845960334            -39.358        0.528566945             50.261        0.528506095              50.41        0.844403452            -39.422
               602       0.845765567            -39.405        0.529541498             50.249        0.529480536              50.38        0.844695149            -39.448
               603       0.845862945            -39.441        0.530090474             50.229        0.530151507             50.308        0.844209043            -39.505
               604       0.844500673            -39.483        0.530456774             50.179        0.530762218             50.222         0.84382036            -39.578
               605       0.844306242            -39.529        0.531251293             50.124        0.531434812              50.18        0.843917514             -39.63
               606       0.843917514            -39.631        0.531802041             50.055        0.532292075             50.138        0.843528965            -39.662
               607       0.843917514            -39.624        0.532292075             50.004        0.532966608             50.069        0.842267416             -39.74
               608       0.842946477            -39.719        0.533027972              49.88        0.533273497             50.053        0.841879627            -39.814
               609       0.843043531             -39.76        0.533887804             49.926         0.53431824             49.984        0.841976558            -39.798
               610       0.842364391            -39.795        0.534625907             49.875        0.534625907             49.939        0.841298278            -39.892
               611       0.842073499            -39.847        0.535303398             49.801        0.535549971             49.832        0.841007754            -39.984
               612       0.841685799            -39.931        0.535734975             49.704        0.536413871             49.754         0.84071733            -40.073
