!{201R07S1R3}
!Johanson Technology Inc.
!www.johansontechnology.com
!Test Board Conditions:
!Substrate Type  RO4350B
!Substrate Thickness        10 mil
!Substrate Dk      3.66
!TL Type: GCPW 
!TL Trace Width  21 mil
!TL Gap  20 mil
!Electrode orientation      Horizontal
!DUT TOPOLOGY	SERIES
!Mounting Pad LxW         16x21 mil
!Agilent Technologies,N5230A,MY45001966,A.07.50.67
!Agilent N5230A: A.07.50.67
! Created Mon Mar  9 16:22:40 2020
# mhz S ma R 50
! 2 Port Network Data from SP1.SP block
! freq  magS11  angS11  magS21  angS21  magS12  angS12  magS22  angS22  
!     
               500       0.932468019            -23.207        0.354636919             66.329        0.355700066             66.399        0.932468019            -23.334
               501       0.932483253            -23.202        0.355296591             66.303        0.355992658             66.423        0.932268565            -23.359
               502       0.931831894            -23.228        0.355784948             66.279         0.35697481              66.33        0.931939181              -23.4
               503       0.932056073            -23.309        0.356362536             66.197        0.357595496             66.276        0.931090811            -23.448
               504       0.931227493            -23.325        0.357359877             66.127        0.358101211             66.289        0.931763705            -23.529
               505       0.931503698            -23.388         0.35791886               66.1        0.358867875             66.199        0.930646146            -23.545
               506       0.931592413            -23.471        0.358447819             66.059        0.359439617              66.15        0.930306259            -23.602
               507       0.930984041            -23.435        0.359080843             66.037         0.35990861             66.159        0.930448278            -23.612
               508       0.930535221             -23.46        0.359942241             66.008         0.36060589             66.098        0.930428096             -23.69
               509       0.930547765            -23.582        0.360569237             65.926        0.360984596             66.019        0.929905187            -23.713
               510       0.930210351             -23.58        0.361061488             65.897        0.361893821             66.004        0.929675033            -23.764
               511       0.929890092            -23.639        0.361602663             65.858        0.362519707             65.926        0.929461961            -23.811
               512       0.929309243            -23.681        0.362293262             65.785         0.36304483             65.906        0.929523249            -23.848
               513       0.929124208            -23.711        0.362805428             65.766        0.363599917             65.864        0.929445171            -23.907
               514       0.929047639            -23.777        0.363569953             65.703        0.364282228             65.834        0.929154606            -23.963
               515       0.929010943            -23.828        0.364100127             65.667        0.364855443             65.786        0.928797055            -24.005
               516       0.928308801            -23.823        0.364747621             65.652        0.365756849             65.748        0.928736401            -24.051
               517       0.927881125            -23.922        0.365630436             65.569        0.366178078             65.701         0.92862921            -24.073
               518       0.928290008            -23.963        0.366170772             65.535        0.366845905             65.644        0.927648989            -24.109
               519       0.928377258            -23.968        0.366542631             65.511        0.367429899             65.608        0.926775391            -24.144
               520       0.927475835            -24.014        0.367284502             65.489         0.36825835             65.564        0.927582621            -24.207
               521       0.927346587            -24.103        0.367868057             65.389        0.368928391             65.532        0.927026348            -24.226
               522       0.926972036            -24.141        0.368694478             65.373        0.369119198             65.475        0.927185504            -24.273
               523       0.926853562            -24.172        0.369369578             65.361        0.370050609             65.417        0.926640171            -24.315
               524       0.926618133            -24.212        0.370041808             65.282         0.37046808             65.389        0.926511458            -24.388
               525       0.926166157            -24.242        0.370372649             65.246        0.371311934             65.357        0.926379439            -24.423
               526       0.926245202            -24.311        0.371087197             65.173        0.371942642             65.307        0.925712166            -24.472
               527       0.925766031            -24.309        0.371536291               65.2         0.37277883             65.259         0.92587262            -24.538
               528       0.925593646            -24.411        0.372537817             65.119        0.373224689             65.199         0.92548709            -24.561
               529       0.925634766            -24.375        0.372940594             65.076        0.373542188             65.186        0.924676154            -24.593
               530       0.925396868            -24.463        0.373489181             65.049        0.374436369             65.116        0.924438503             -24.63
               531       0.924560227            -24.527        0.374356352             65.008        0.374917064             65.067        0.924986101            -24.673
               532       0.924239187            -24.528        0.374959514             64.973        0.375564365             65.063        0.924664913            -24.692
               533        0.92420374            -24.581        0.375593201             64.865         0.37611246             65.047         0.92441657             -24.79
               534       0.923989805            -24.618        0.376328561             64.841        0.376545255             65.011        0.924202586            -24.817
               535       0.923891688             -24.66        0.376722067             64.877        0.377373205             64.944        0.923891688            -24.827
               536       0.923853885            -24.711        0.377227451             64.808         0.37818412             64.877         0.92321593            -24.903
               537       0.922790421            -24.745        0.378096866             64.751        0.378706778              64.82        0.923640734            -24.969
               538       0.923405223            -24.799        0.378653806             64.674        0.379220954             64.818        0.922555127            -24.989
               539       0.922783138            -24.842        0.379009111             64.661        0.379795356             64.731        0.922783138            -25.037
               540       0.922712835            -24.908        0.379504178             64.634        0.380641873             64.678        0.922394196            -25.081
               541       0.922744853            -24.889        0.380392225             64.583        0.381093579             64.698        0.921789233            -25.129
               542        0.92225323            -24.984         0.38115374             64.534        0.381504957             64.626        0.921722491            -25.126
               543       0.921485803            -24.983        0.381450904             64.483        0.382286225             64.594        0.921910261            -25.199
               544       0.921718134            -25.055        0.382206556             64.438        0.382867173             64.529        0.921081654            -25.231
               545       0.921629385            -25.091        0.382962556             64.389        0.383668649             64.472        0.920462953            -25.311
               546       0.921140006            -25.177        0.383376638             64.305        0.384348902              64.43        0.920503925            -25.344
               547       0.920694113            -25.174        0.384162852             64.297         0.38460539             64.396         0.92058812            -25.381
               548       0.920363807            -25.192        0.384555947             64.281         0.38544244             64.406        0.920575753            -25.407
               549       0.920777367             -25.27        0.385482472             64.219        0.386104298             64.347        0.919612012            -25.486
               550        0.91991376             -25.36        0.386142065             64.137        0.386586884             64.294        0.920125602            -25.523
               551        0.91984693             -25.37        0.386736857             64.152        0.387137787             64.247        0.919741035            -25.549
               552       0.918951139            -25.354        0.387117158             64.103        0.388188281             64.271        0.919797914            -25.587
               553       0.919198161            -25.491        0.387801199              63.99        0.388471486             64.187        0.918986533            -25.599
               554       0.919489056            -25.443         0.38823668             64.007         0.38899728             64.166        0.918325332            -25.683
               555       0.919061994            -25.589        0.388950923             63.961        0.389847548             64.052        0.918321616            -25.723
               556       0.918983416            -25.564         0.38945535             63.888         0.39044303             64.044         0.91771467            -25.819
               557       0.918291959            -25.616         0.39028403             63.897        0.391048641             64.001        0.918080539            -25.809
               558       0.917939336            -25.687        0.390538614             63.816        0.391664294             63.942        0.917516706            -25.811
               559       0.917721755            -25.669         0.39166163             63.766        0.392157953             63.938        0.917404839            -25.919
               560       0.917732447            -25.758        0.391891719             63.718        0.392976053               63.9         0.91699314            -25.949
               561       0.917840402            -25.764        0.392796103              63.73        0.393429726             63.846        0.916045764            -25.981
               562       0.916854972            -25.825        0.393460052             63.654        0.393777271             63.787        0.916854972            -26.031
               563       0.916412932            -25.886        0.393814052             63.625        0.394676446             63.732        0.916729504            -26.064
               564       0.916333077            -25.879        0.394460357             63.606        0.395142155             63.718        0.916227586            -26.083
               565       0.916390809            -25.951        0.395121557             63.544        0.395850069             63.658        0.915863444            -26.182
               566        0.91617992            -26.017        0.395986854             63.448        0.396214868             63.593        0.915441863            -26.259
               567        0.91579491            -26.077        0.396458949             63.431        0.396915652             63.555         0.91516252            -26.232
               568       0.915252208            -26.081        0.397045964             63.405        0.397640659             63.568        0.915462977            -26.286
               569       0.915198217            -26.132        0.397708768             63.327         0.39816691             63.496        0.914776849            -26.353
               570         0.9151132            -26.179        0.398542664             63.275        0.398588551             63.413        0.914165484            -26.429
               571       0.914113241            -26.183        0.399070844             63.267        0.399392587             63.412        0.914534303            -26.452
               572        0.91464956            -26.198        0.399396937             63.251        0.400087267             63.375        0.913597137            -26.485
               573       0.914140091            -26.295        0.400094661             63.166        0.400417229             63.303        0.913719211            -26.532
               574       0.913655571            -26.373        0.400758283             63.156        0.401358539              63.23        0.913655571            -26.562
               575         0.9136911            -26.412        0.401281737              63.08        0.401743996             63.181        0.912955049            -26.617
               576       0.912812373            -26.417        0.401819971             63.024        0.402468151             63.219         0.91344314            -26.656
               577       0.912830219            -26.469         0.40270777              63.04        0.402893266             63.105        0.912725132            -26.672
               578       0.912358188            -26.486        0.403241642             63.013        0.403520287             63.114        0.912988641            -26.725
               579       0.912194942            -26.528        0.403680397             62.959         0.40419195             63.053        0.912405007            -26.759
               580       0.912333875            -26.604        0.404346605             62.877        0.404719193             63.004        0.911703875            -26.814
               581       0.911952698            -26.612         0.40487626             62.885        0.405389329             62.945        0.911427887             -26.84
               582       0.911782668            -26.685        0.405500443             62.802        0.405874094             62.903        0.911048154            -26.887
               583       0.911166471            -26.735        0.406160542             62.778        0.406534802             62.842        0.911271379            -26.942
               584       0.911127683            -26.761        0.406283553             62.764        0.407360807             62.821        0.911022792            -26.989
               585       0.910165323            -26.825        0.407399306             62.688        0.407915573             62.747        0.911213793            -27.076
               586       0.910441462            -26.818        0.407898424             62.636        0.408227284             62.773        0.910651123            -27.099
               587       0.910081153            -26.911        0.408676929              62.59         0.40891225             62.691        0.910290731            -27.125
               588       0.909599054            -26.941         0.40930778             62.509         0.40926066             62.619        0.909808521            -27.199
               589       0.909641207            -26.959        0.409987037             62.521        0.409798275             62.654        0.909745939            -27.184
               590       0.909196765            -27.039        0.410400501             62.448        0.410684093             62.547        0.909510845            -27.274
               591       0.909469324            -27.092         0.41094912             62.419         0.41128044             62.538        0.908945942            -27.295
               592       0.908622859            -27.095         0.41146572              62.43        0.412034573             62.462        0.909041392            -27.335
               593       0.908397061            -27.136        0.412454191              62.34        0.412264292             62.445        0.908710864            -27.395
               594       0.908699712            -27.169        0.412686622             62.316        0.413114454             62.409        0.907967682             -27.44
               595       0.908029588            -27.229        0.412762277             62.234        0.413618543              62.39        0.906984782            -27.466
               596       0.907813792            -27.303        0.413663094             62.197        0.414473507             62.322        0.907604784            -27.487
               597       0.907605163             -27.32        0.414760088             62.167        0.414664597             62.295        0.907605163            -27.569
               598       0.906883418            -27.369        0.415385623             62.131        0.415385623             62.192        0.907405612            -27.622
               599       0.907002807             -27.43        0.415535977             62.063        0.416158368             62.172        0.907002807            -27.671
               600       0.906447458            -27.421        0.416430601             62.094        0.416622418             62.211        0.907073826            -27.631
               601       0.906958719            -27.507        0.416953401              61.99        0.417145459             62.149        0.906123764            -27.723
               602       0.905642678            -27.538        0.417500385             61.934        0.417836986             62.045         0.90647719            -27.799
               603       0.905637744            -27.514         0.41812344             61.947        0.418316037             62.084        0.906054902            -27.773
               604       0.905357967            -27.605         0.41866854             61.898        0.419054325             62.021        0.905983582            -27.834
               605       0.905124167            -27.645        0.419090832             61.834        0.419621914              61.95        0.905645348            -27.914
               606        0.90491737            -27.695        0.419622652             61.832        0.420444741             61.911        0.905125759            -27.895
               607       0.904498387            -27.745        0.420395247             61.766        0.420976445             61.823         0.90491502            -27.993
               608       0.904838261            -27.784        0.421134632              61.72        0.421377126             61.798        0.904109342            -28.036
               609       0.904365643            -27.784        0.421205521             61.661        0.422030711              61.78        0.903845198            -28.064
               610       0.903971141            -27.881        0.422235326             61.657        0.422770393             61.692        0.903867073            -28.112
               611       0.903700696            -27.865         0.42274124             61.659        0.423082066             61.699        0.903700696            -28.109
               612       0.903131803            -27.926        0.423400275             61.579        0.423888013             61.652        0.903547806            -28.176
