!{251R15S150}
!Johanson Technology Inc.
!www.johansontechnology.com
!Test Board Conditions:
!Substrate Type  RO4350B
!Substrate Thickness        20 mil
!Substrate Dk      3.66
!TL Type: GCPW 
!TL Trace Width  34 mil
!TL Gap  10 mil
!Electrode orientation      Horizontal
!DUT TOPOLOGY	SERIES
!Mounting Pad LxW         26x52 mil
! Created Thu Mar 12 16:52:14 2020
# mhz S ma R 50
! 2 Port Network Data from SP1.SP block
! freq  magS11  angS11  magS21  angS21  magS12  angS12  magS22  angS22  
!     
               500       0.211373238            -84.542        0.975214163               5.59        0.975775703              5.587        0.211057116            -84.007
               501       0.211130025            -84.626         0.97543874              5.529         0.97588805              5.521        0.210765731             -84.06
               502        0.21062019             -84.61        0.975214163              5.549        0.976337567              5.482        0.210087397            -84.106
               503       0.210329408            -84.668        0.975326445              5.489        0.976449978              5.446        0.210039028            -84.158
               504       0.209724902            -84.661        0.975551048              5.427        0.976225168              5.428        0.209435356            -84.236
               505       0.209363032            -84.737         0.97600041              5.404        0.976225168              5.382        0.208905561            -84.288
               506       0.208905561            -84.747        0.975775703               5.36        0.976112782              5.371         0.20859313            -84.239
               507       0.208617146            -84.775         0.97600041              5.299        0.977124719              5.362        0.208113379            -84.285
               508       0.208161304             -84.85        0.976449978              5.275        0.976225168              5.272        0.207682546            -84.365
               509       0.207730373            -84.858        0.976562402              5.234         0.97678729              5.265         0.20710949            -84.352
               510       0.207324201            -85.016        0.976562402              5.208        0.977237221               5.18        0.206680736            -84.424
               511       0.206942647             -84.95        0.976562402               5.15        0.977124719               5.16         0.20625287            -84.516
               512       0.206395393            -85.083        0.977237221              5.131        0.977574805              5.121        0.206134175             -84.55
               513       0.205920697            -85.101        0.976112782              5.083        0.977799926              5.093        0.205305224            -84.565
               514       0.205683759            -85.097         0.97667484              5.042        0.977912506              5.086        0.205068994            -84.596
               515       0.204927386            -85.205        0.976899753              5.003        0.977462264              5.051        0.204385461             -84.62
               516       0.204668026            -85.204        0.976562402              4.954        0.977124719              4.947        0.204009316            -84.686
               517       0.204361932            -85.289        0.977124719              4.944        0.977912506              4.863        0.203446396            -84.777
               518       0.203774577            -85.308        0.977124719              4.886        0.977799926              4.897         0.20293175             -84.82
               519       0.203095359            -85.403        0.977799926              4.831        0.978137704              4.849        0.202721588            -84.848
               520       0.202791618            -85.352        0.977574805              4.776        0.977124719              4.783        0.202232057            -84.896
               521        0.20255828            -85.407        0.977124719               4.76        0.977799926              4.796        0.201627609            -84.882
               522         0.2018134            -85.526        0.978475599              4.732        0.977799926              4.717        0.201557981            -84.911
               523       0.201604397            -85.483        0.978475599              4.683        0.977799926              4.711        0.201094411            -85.009
               524       0.201418798            -85.487        0.977912506              4.618        0.978250323              4.658        0.200585715            -85.055
               525       0.200886152              -85.5        0.978025099              4.681        0.978700928              4.652        0.200331849            -84.975
               526       0.200377983            -85.618        0.978700928              4.581        0.977912506              4.566        0.199917126             -85.16
               527       0.199779076            -85.707        0.977349736              4.513        0.978025099              4.514         0.19899859            -85.126
               528       0.199825082            -85.718        0.978025099              4.513         0.97915174              4.511        0.198838281            -85.132
               529       0.199181959            -85.739        0.978137704               4.49        0.978475599              4.414        0.198540906            -85.198
               530       0.198632359            -85.799        0.978250323              4.432         0.97915174              4.463        0.198107081            -85.257
               531       0.197993075            -85.859        0.978700928              4.402        0.978813611              4.411          0.1978108            -85.272
               532       0.197719726            -85.866        0.978250323              4.366        0.978813611               4.36        0.197378571            -85.302
               533       0.197446755            -85.985        0.979264475              4.277        0.979039017              4.345        0.196856609            -85.396
               534       0.196833946            -85.944        0.978025099              4.267        0.978813611              4.284        0.196155279            -85.409
               535       0.196879274            -85.948        0.979264475               4.26        0.978926308              4.287        0.196042395            -85.427
               536       0.196426465            -86.092        0.978362955              4.202        0.979489985              4.184        0.195568993            -85.481
               537        0.19577174            -86.094        0.979489985              4.199        0.979715547              4.196        0.195298991            -85.463
               538        0.19538895            -86.115        0.978926308               4.12        0.979715547              4.148        0.194625616             -85.59
               539       0.195119197            -86.269        0.979828348              4.094         0.97960276              4.089        0.194468829            -85.581
               540       0.194894687            -86.236        0.979264475               4.04        0.979715547              4.033        0.193999227            -85.692
               541       0.194289799            -86.224        0.978588257              4.035        0.979941161              4.005        0.193330333            -85.644
               542       0.193976894            -86.217        0.979264475              3.952         0.97915174              4.022        0.193085651            -85.748
               543       0.193241322            -86.403         0.97915174              3.901        0.979828348              3.915        0.192597214            -85.691
               544       0.192774684            -86.427        0.979377224              3.891        0.980166827              3.878        0.192442061            -85.791
               545       0.192930105            -86.473        0.980053987               3.89        0.980053987              3.926        0.192110012            -85.854
               546       0.192287034            -86.483        0.980053987              3.835        0.980279679              3.864        0.191425593            -85.911
               547       0.192065783             -86.55        0.979828348              3.839        0.979828348              3.772        0.191359488            -85.933
               548       0.191337458            -86.593        0.980505423              3.779        0.980505423              3.772        0.191029307            -85.833
               549       0.191029307             -86.53        0.980731219               3.73        0.980166827              3.717        0.190414493            -85.958
               550       0.190853443            -86.549        0.980279679              3.751        0.980731219              3.693        0.190304913            -85.966
               551       0.190633842            -86.736        0.980166827              3.683        0.979489985              3.639         0.18969243            -85.969
               552       0.189910947             -86.68        0.980053987              3.595        0.980957066              3.612         0.18927794            -86.126
               553       0.189626924            -86.743        0.980505423              3.597        0.981182966              3.598        0.188929598            -86.101
               554       0.189321528            -86.716         0.97960276              3.583        0.980618314              3.575        0.188495072            -86.114
               555       0.188842613            -86.785        0.980618314              3.516        0.980957066              3.564        0.188126511            -86.165
               556       0.188234836            -86.786        0.980618314              3.436         0.98107001              3.522        0.187629016             -86.24
               557       0.187953319            -86.853        0.980505423              3.424        0.980957066              3.459        0.187132836            -86.268
               558       0.187737055            -86.975        0.980957066              3.447         0.98107001              3.359        0.186874481            -86.321
               559       0.187521039            -86.971        0.980392545              3.321         0.98107001              3.397        0.186294486            -86.276
               560        0.18717593            -87.047        0.981182966              3.331        0.980618314              3.364        0.186015871            -86.349
               561       0.186444682            -87.037        0.980618314              3.311        0.980618314              3.309        0.185609414            -86.348
               562       0.186466148            -87.009        0.980731219              3.298        0.980505423              3.287        0.185395846            -86.377
               563       0.185630784             -87.11        0.980844136              3.237        0.980844136              3.254        0.185012043            -86.432
               564       0.185182524            -87.132        0.980957066              3.196        0.981408918              3.214        0.184756616              -86.5
               565       0.184969448            -87.215        0.980731219              3.162        0.981634922              3.147        0.184374137            -86.476
               566       0.184586528            -87.229        0.981747943              3.128        0.981860977              3.128        0.184098394            -86.574
               567       0.184183194             -87.25        0.980844136              3.087        0.981408918              3.106        0.183527015            -86.612
               568       0.183801901            -87.284        0.981747943              3.091        0.981521913              3.076        0.183358058            -86.582
               569       0.183653834            -87.296        0.981408918              3.049        0.981521913              3.028        0.182936346            -86.603
               570       0.183210348            -87.359        0.981860977              2.974        0.981747943              2.997        0.182683785            -86.688
               571       0.183062758            -87.333        0.981295935              2.958        0.982539457              2.942        0.182011991            -86.702
               572       0.182704818            -87.399        0.982087085              2.894        0.982200159              2.917        0.181865366            -86.792
               573       0.182179707            -87.497        0.982313245              2.891        0.982200159              2.871        0.181509767            -86.817
               574       0.181823494            -87.502        0.982200159              2.859        0.982313245              2.855        0.181593375            -86.744
               575       0.181426198            -87.474        0.982313245              2.781        0.982200159              2.814        0.180842291            -86.898
               576       0.181321791            -87.617        0.981634922              2.774        0.982765721              2.759        0.180322533            -86.916
               577       0.180696608            -87.515        0.981408918              2.757        0.981747943              2.781        0.179866382            -86.875
               578       0.180426365            -87.686        0.981860977              2.688        0.982878873              2.683        0.179618059            -86.975
               579       0.179969952             -87.75        0.981860977              2.677        0.983105215              2.691        0.179370079            -86.966
               580       0.179907803            -87.635        0.981747943              2.633        0.982313245              2.649        0.178916338             -86.98
               581       0.179204949            -87.652        0.982200159              2.569        0.982087085              2.582        0.178648757            -87.036
               582       0.178998751            -87.758        0.982539457              2.593        0.982992038              2.566        0.178299449            -87.014
               583       0.178484292            -87.785        0.982652583              2.516        0.981634922              2.544        0.177930336             -87.07
               584       0.178135304            -87.764        0.982765721              2.504        0.982087085              2.533        0.177521108            -87.055
               585       0.178094292            -87.811        0.982992038              2.517        0.983444826              2.504        0.177296434            -87.141
               586       0.177582432            -87.897        0.982878873              2.432        0.983105215              2.442        0.176970142            -87.213
               587       0.177378101            -87.959        0.982878873              2.435        0.982539457              2.415         0.17668513            -87.187
               588       0.176563122            -88.057        0.982087085              2.341        0.982992038              2.334        0.175873335            -87.246
               589       0.176563122            -87.979        0.982992038              2.377        0.983671299              2.334        0.175954347            -87.259
               590        0.17623818            -88.016        0.982765721              2.296        0.982765721              2.296        0.175367859            -87.226
               591       0.175853088            -88.139        0.983105215              2.243         0.98333161              2.246        0.175186243            -87.369
               592       0.175509246            -88.149        0.982992038              2.243        0.982992038              2.235        0.174783326            -87.331
               593       0.175226586            -88.168        0.982992038              2.215         0.98333161              2.196        0.174361261            -87.353
               594        0.17514591            -88.098        0.983218406              2.206        0.984011106              2.201        0.174321117              -87.4
               595       0.174562117            -88.176        0.983218406               2.12        0.983784555              2.165        0.173960241            -87.423
               596       0.174501836            -88.206        0.982878873              2.104        0.983671299              2.128        0.173340482            -87.465
               597       0.174040371            -88.239        0.983558056              2.112        0.984124401                2.1        0.173420327            -87.488
               598       0.173780083            -88.324        0.983444826              2.052        0.983897824              2.021        0.172643408            -87.587
               599       0.173280623            -88.265        0.983105215              1.984        0.983897824              2.027        0.172424907            -87.542
               600       0.172981636            -88.409        0.983444826              1.954        0.983671299              1.935        0.172048147            -87.611
               601       0.172663285            -88.344        0.983897824              1.935        0.983897824              1.989        0.171810618            -87.626
               602       0.172008536            -88.425        0.982652583              1.917        0.983784555              1.902        0.171277376            -87.612
               603       0.172086933            -88.516        0.983779785              1.832        0.985026455              1.885        0.171315988            -87.742
               604       0.171691976            -88.511        0.983444826              1.838        0.984691071              1.845        0.170863776            -87.714
               605       0.171159102            -88.496        0.983218406              1.802        0.984124401              1.799        0.170372698            -87.732
               606       0.170726132            -88.579         0.98435103              1.795        0.984124401                1.8        0.170235449            -87.762
               607       0.170490428            -88.685        0.983558056              1.739        0.983671299              1.751        0.169746176            -87.846
               608       0.170274651            -88.666        0.984011106              1.693         0.98435103              1.701        0.169336274            -87.893
               609       0.169883031            -88.708         0.98333161              1.685        0.983444826               1.68        0.169141431            -87.793
               610       0.169609432            -88.718        0.983671299              1.639        0.984011106              1.685        0.168869027            -87.952
               611       0.169277798            -88.889        0.983897824              1.636        0.984577711              1.631        0.168364296            -87.917
               612       0.169024632            -88.705        0.984691071              1.641        0.984237709              1.605        0.168131853            -87.896
