!{251R15S4R3}
!Johanson Technology Inc.
!www.johansontechnology.com
!Test Board Conditions:
!Substrate Type  RO4350B
!Substrate Thickness        20 mil
!Substrate Dk      3.66
!TL Type: GCPW 
!TL Trace Width  34 mil
!TL Gap  10 mil
!Electrode orientation      Horizontal
!DUT TOPOLOGY	SERIES
!Mounting Pad LxW         26x52 mil
! Created Thu Mar 12 16:41:38 2020
# mhz S ma R 50
! 2 Port Network Data from SP1.SP block
! freq  magS11  angS11  magS21  angS21  magS12  angS12  magS22  angS22  
!     
               500       0.612491407             -58.24        0.785597332             31.547        0.786683425             31.503        0.611082716            -58.112
               501       0.611645803            -58.292        0.785868715             31.452        0.787227035             31.453        0.610309317            -58.174
               502       0.610942025            -58.348        0.786502305             31.362         0.78786172             31.415        0.609396562            -58.304
               503       0.610731049            -58.444        0.787680329             31.273        0.789132627             31.345        0.609186121            -58.365
               504       0.609607077            -58.518        0.788043153             31.237        0.789768849             31.247        0.608625298            -58.402
               505       0.608485173            -58.546        0.788587702             31.144        0.789768849             31.214        0.607225498             -58.46
               506       0.607924995            -58.673        0.789677929             31.063        0.790769663             31.119        0.607015806            -58.548
               507       0.607435263            -58.795        0.790678628              30.98        0.791589455             31.035        0.606387165             -58.65
               508       0.606806187            -58.775        0.790678628             30.941        0.792592576             31.009        0.605271186            -58.703
               509       0.604644351             -58.83        0.790587603             30.876        0.791771746             30.938        0.604435551            -58.742
               510       0.604435551            -58.897        0.791316097             30.816        0.792866375             30.883        0.603392628            -58.798
               511       0.604018166            -58.984         0.79250133             30.753         0.79368834             30.779        0.602975963            -58.868
               512       0.603531581            -59.081         0.79304896             30.662        0.794602633             30.695        0.601866263            -58.985
               513       0.602628962            -59.151         0.79368834             30.587        0.795426398             30.632        0.601381411            -59.073
               514       0.601312179            -59.187        0.793871114             30.564        0.794785618             30.575        0.600551146            -59.086
               515       0.600758605            -59.307         0.79579279             30.467        0.796342694             30.497        0.599860134            -59.187
               516       0.599722027            -59.291        0.795151715              30.38        0.796067694              30.46          0.5985494            -59.244
               517       0.599307896            -59.446         0.79615935             30.329        0.797168263             30.341        0.598067221            -59.343
               518       0.598342704            -59.481        0.796709508             30.305        0.797994687             30.327        0.597379067             -59.37
               519       0.597241531            -59.535        0.796984729             30.188        0.798454182             30.246         0.59689783            -59.434
               520       0.596554327            -59.669         0.79790282             30.106         0.79909792             30.136        0.596005133            -59.535
               521        0.59634832            -59.665        0.798730006             30.036        0.800110556             30.126        0.595250817            -59.573
               522       0.595662144            -59.757        0.799466003             30.008        0.800202677             30.008        0.594223742            -59.661
               523       0.594360583            -59.853         0.79955805             29.932        0.801216713             29.984        0.593471681            -59.721
               524       0.593130149            -59.959        0.800294809              29.83        0.801032247             29.838        0.592788814            -59.794
               525       0.592720571            -59.948        0.800847824             29.769        0.801678063             29.809        0.591493532              -59.9
               526       0.592243087            -60.102        0.801585772             29.698        0.802416776             29.704        0.590880966             -59.95
               527       0.591765988            -60.161        0.802139679             29.638        0.803526122              29.69        0.590404964            -59.999
               528       0.590676918            -60.185        0.802693969             29.572        0.803896245             29.603        0.589861431            -60.088
               529       0.589521977            -60.222        0.802971258             29.502        0.803988802             29.551         0.58830156            -60.182
               530       0.588911452            -60.347        0.803896245             29.473        0.804822298             29.478        0.588437037            -60.174
               531       0.588030699            -60.373        0.804359138             29.373        0.805007636             29.399        0.587286476            -60.293
               532       0.587895316            -60.417        0.804914962             29.366        0.805471169             29.368         0.58647567            -60.319
               533       0.586678266            -60.501        0.804637002             29.235        0.806491882             29.328        0.585396336            -60.374
               534       0.586408153            -60.593        0.805842188             29.183        0.807327972             29.243        0.584992098            -60.456
               535       0.585328944            -60.664        0.806770482             29.104        0.807885847             29.147         0.58418446            -60.594
               536       0.584318989            -60.698        0.807792841             29.004        0.807978864             29.133        0.583982725             -60.63
               537        0.58418446            -60.738        0.807885847             29.035        0.809095899             29.043        0.582706684            -60.683
               538       0.583377937            -60.882        0.808164929             28.891        0.810027942             28.949        0.581969199            -60.747
               539       0.582706684            -60.888        0.809748216             28.882        0.810494365             28.921        0.581366496             -60.82
               540       0.582036205            -61.013        0.810121205             28.795        0.810587682             28.795        0.580296565            -60.851
               541       0.580965041            -61.064        0.811241202             28.707        0.811428019             28.743         0.58002939            -60.989
               542       0.580296565            -61.109        0.810494365             28.665        0.811241202             28.689        0.578895269            -61.013
               543       0.579428696            -61.168        0.811614879             28.562        0.811801781             28.637        0.578229174            -61.086
               544        0.57849552            -61.257        0.810867698             28.501         0.81245628              28.57        0.576965706            -61.172
               545       0.577763364            -61.312        0.812082216             28.414        0.813673178             28.496        0.576965706            -61.248
               546       0.577098572            -61.356        0.812643377             28.427        0.814141701             28.426        0.576235486            -61.277
               547       0.576633673            -61.421        0.813111306             28.327        0.814610493             28.388        0.574910182             -61.35
               548       0.575704998            -61.494        0.813954259             28.262        0.815642787             28.326        0.574447045            -61.428
               549       0.575307453            -61.615        0.814329185             28.184        0.815830617             28.197        0.573455867            -61.496
               550       0.574380913            -61.638        0.815548888             28.114        0.816206408             28.162        0.572466398            -61.579
               551       0.573389849            -61.713        0.815548888             28.118        0.816206408             28.101        0.572202828            -61.569
               552       0.573059874            -61.807        0.816488364             27.968        0.817334818             28.068        0.571347064            -61.696
               553        0.57193938            -61.839        0.817052569             27.932        0.817334818             27.973        0.570821076            -61.772
               554       0.571807701            -61.915        0.817334818             27.854        0.818464788             27.934        0.570164272            -61.852
               555       0.570426903            -61.983        0.817428923             27.767        0.818747525             27.852        0.569377105            -61.904
               556       0.569967379            -62.027        0.818370564             27.751        0.819218969             27.756        0.568591025            -61.986
               557        0.56904944             -62.13        0.818464788             27.657        0.819690685             27.737        0.567479268            -62.036
               558       0.568525567            -62.181        0.819407623             27.645        0.820634933             27.633        0.567152695            -62.082
               559       0.567544605            -62.211        0.819407623             27.587        0.820918419             27.559        0.566174102            -62.144
               560       0.566565336            -62.339        0.819313291             27.464        0.821012936             27.504        0.565067071            -62.197
               561       0.566630568            -62.399        0.820445996             27.413           0.822432             27.476        0.564871938            -62.282
               562       0.565392444            -62.452        0.820634933             27.363        0.822621394             27.418        0.563962205            -62.286
               563       0.564871938            -62.494        0.821485685             27.298        0.822905566             27.344        0.563313293            -62.374
               564       0.564027137            -62.596        0.822716107             27.223        0.823758673             27.266        0.562859499            -62.483
               565       0.563702551            -62.658        0.822621394              27.15        0.824138115             27.212         0.56150031            -62.537
               566       0.562729911            -62.719        0.823569017             27.102        0.824233003             27.121        0.561047976            -62.546
               567       0.561241789            -62.754        0.823569017              27.05        0.824138115             27.087         0.56046694            -62.636
               568       0.561112573            -62.812        0.823948372             26.972        0.825277491             27.026         0.55982205            -62.765
               569       0.559950968            -62.893        0.824327902             26.929        0.825562581             26.948        0.558984802            -62.761
               570       0.559306672            -62.927        0.824612664             26.841        0.826323302             26.891         0.55808455            -62.837
               571       0.559113528            -63.008        0.826418442              26.78        0.826799109             26.818        0.557763384            -62.916
               572       0.557763384            -63.052        0.825847769             26.746        0.826894303             26.784        0.557121604            -62.942
               573       0.556865099            -63.107        0.825847769             26.709        0.827179952             26.719        0.556096293            -63.015
               574       0.556480563            -63.206        0.826703926             26.572        0.828228174              26.64        0.555200694            -63.131
               575       0.555200694            -63.238        0.826989509             26.571        0.827846849             26.594         0.55449802            -63.129
               576       0.555136777            -63.321        0.828228174             26.455        0.828800492             26.495        0.553987544            -63.233
               577       0.554370357            -63.378        0.828514283             26.428        0.829564197             26.456        0.553350109            -63.289
               578       0.553732482            -63.457        0.828991352             26.364        0.829659709             26.374        0.552013883            -63.378
               579       0.553031667            -63.517        0.829755233             26.288        0.830233016             26.339        0.551696209            -63.404
               580       0.552141003            -63.553        0.830424206             26.232         0.83061544             26.275        0.551124858            -63.499
               581       0.551442202            -63.659        0.829946313             26.111         0.83147654             26.224        0.549920614            -63.515
               582       0.550744286             -63.66        0.831093719             26.107        0.832051102             26.136        0.550110583             -63.63
               583       0.550110583            -63.743        0.831763771             26.052        0.832146901             26.091        0.549161396            -63.685
               584       0.549414352             -63.76        0.831763771              26.03        0.832338532             26.035        0.548213846            -63.712
               585       0.548529514            -63.869        0.831955314             25.893        0.833105497             25.938        0.547330941            -63.828
               586       0.547898359            -63.905        0.832434364             25.861        0.834065197             25.864        0.546890022            -63.893
               587       0.546638228            -63.993        0.832530207             25.785        0.833681185             25.824        0.545695032            -63.969
               588       0.546512375            -64.048        0.833393291             25.726        0.834545462             25.793        0.545569396            -63.966
               589       0.546134988            -64.061        0.834449387             25.685        0.835026003             25.755        0.544628044            -64.027
               590       0.545569396            -64.181        0.834545462             25.591        0.835506821             25.685        0.543938751             -64.08
               591       0.544565345            -64.209        0.835122145             25.579        0.835410636             25.614        0.543250331            -64.137
               592       0.543813519             -64.28        0.835891675             25.507        0.835795445             25.547        0.542375421            -64.251
               593       0.542937701            -64.313        0.836661914             25.435        0.836758244             25.502        0.542188123            -64.295
               594       0.542375421            -64.365        0.836469288             25.424          0.8370473             25.471        0.541377248            -64.316
               595       0.541938494            -64.508        0.837336456             25.282        0.837915067             25.368        0.540878851            -64.439
               596        0.54069207            -64.527         0.83724006             25.273        0.837432864             25.373        0.539883432            -64.409
               597       0.540132115            -64.599        0.838590619             25.218        0.838397549             25.257        0.539821279            -64.506
               598       0.539510623            -64.623        0.837818604             25.148        0.838494079             25.187        0.538331757             -64.59
               599       0.539200145            -64.674        0.838783734             25.104        0.839363346             25.126        0.537836163            -64.607
               600       0.538145856            -64.773        0.839556638             25.029        0.839363346             25.047        0.537155467            -64.699
               601       0.537402893            -64.863        0.839846661             24.932        0.839749976             25.019        0.536352118            -64.768
               602       0.536846344            -64.919        0.840814127             24.898        0.840427007             24.983        0.536105176            -64.793
               603       0.536599174            -64.958         0.84071733             24.841        0.841298278             24.918        0.534995341            -64.879
               604       0.535303398            -64.969        0.841007754             24.801        0.841588902             24.831        0.534687462            -64.951
               605       0.534810592            -65.033        0.841685799             24.723        0.841976558             24.779        0.534256728             -65.02
               606       0.534195223            -65.117        0.841685799             24.665        0.842849435             24.762        0.533457715             -65.04
               607       0.533457715            -65.137        0.842073499             24.637        0.842849435             24.641        0.532230796            -65.085
               608       0.532537261            -65.214        0.842752404             24.502        0.842946477             24.643        0.531557194            -65.196
               609       0.532230796            -65.237        0.843237671             24.534        0.844111856             24.606        0.531251293            -65.173
               610       0.531434812            -65.337         0.84382036              24.47        0.844014679             24.519        0.530273593            -65.294
               611       0.530517849            -65.363        0.844597905             24.401        0.844597905             24.426        0.529846415            -65.382
               612       0.529846415            -65.429        0.843917514             24.338        0.845278845             24.344        0.528810415            -65.433
