!{251R15S7R5}
!Johanson Technology Inc.
!www.johansontechnology.com
!Test Board Conditions:
!Substrate Type  RO4350B
!Substrate Thickness        20 mil
!Substrate Dk      3.66
!TL Type: GCPW 
!TL Trace Width  34 mil
!TL Gap  10 mil
!Electrode orientation      Horizontal
!DUT TOPOLOGY	SERIES
!Mounting Pad LxW         26x52 mil
! Created Thu Mar 12 16:44:18 2020
# mhz S ma R 50
! 2 Port Network Data from SP1.SP block
! freq  magS11  angS11  magS21  angS21  magS12  angS12  magS22  angS22  
!     
               500       0.412632358            -73.508        0.904197458             17.499        0.905030639             17.515        0.410736485            -73.326
               501       0.411916914            -73.574        0.904502195             17.457        0.904814653             17.521        0.409788367            -73.392
               502       0.411219456            -73.637        0.904843882             17.373        0.905469142             17.448        0.409330074            -73.425
               503       0.410296651            -73.638        0.905102932             17.315         0.90614557             17.376        0.408693727            -73.526
               504       0.409868856             -73.79        0.904784017             17.275        0.906452226             17.297        0.407563159            -73.571
               505       0.409335752            -73.804        0.905585954             17.252        0.906524775             17.232        0.406892493            -73.607
               506       0.408518329            -73.861        0.905965265             17.212        0.906695681             17.203        0.406313776            -73.642
               507       0.407981725              -73.9        0.906860969             17.177        0.906547804             17.113        0.405546549            -73.703
               508       0.407604072            -73.954        0.906543221               17.1        0.907274103               17.1        0.404891365            -73.737
               509        0.40667315            -74.074        0.906453435              16.97        0.907811122             17.043        0.404152714            -73.849
               510       0.406076559            -74.124        0.907105752             16.982        0.907837087             16.941         0.40332758            -73.886
               511       0.405410645            -74.141        0.908228546             16.883        0.907810387             16.907        0.402666174            -73.933
               512         0.4046938            -74.207        0.907980561             16.857        0.908503387             16.816        0.402139331            -74.008
               513       0.403845899             -74.33          0.9078533             16.789        0.909003754             16.786        0.401296781            -74.035
               514        0.40316176            -74.345        0.908090919             16.742        0.909136999             16.739        0.400847641            -74.144
               515         0.4028983            -74.399        0.908542893             16.684        0.908856746             16.698        0.399986594            -74.226
               516       0.401979961             -74.43        0.909084815             16.645        0.909294164             16.637        0.399488612             -74.26
               517       0.401219002            -74.457        0.908827571             16.545        0.910188814             16.614        0.398686467            -74.354
               518       0.400359972            -74.605        0.909809883             16.485        0.909705144             16.527        0.398061935            -74.397
               519       0.399659958            -74.628        0.909265344             16.475        0.910941816             16.457        0.397411691            -74.426
               520       0.399109162             -74.69          0.9102102             16.408        0.910629464             16.395        0.396544288            -74.501
               521       0.398481673            -74.738        0.910559547             16.343        0.910978971             16.338        0.395920831            -74.555
               522       0.398000109            -74.773        0.910506796             16.324        0.911240873             16.299        0.395169294            -74.618
               523       0.397021065            -74.884        0.910675284             16.214        0.911304573             16.284        0.394651311            -74.713
               524       0.396572876            -74.919        0.911534283             16.176        0.911114603              16.21        0.393888233            -74.763
               525       0.395989435            -74.975        0.910927051             16.133        0.912291438             16.164        0.393172921            -74.783
               526       0.395317022            -75.061        0.911161823             16.047        0.912526562             16.101        0.392460104            -74.867
               527       0.394298898            -75.113        0.912064523             15.948        0.912484641             16.029        0.392216232            -74.975
               528       0.393528464            -75.216        0.912275791             15.927        0.912485875              15.99        0.391404803            -75.005
               529        0.39314311            -75.271        0.912012243             15.916        0.912957727             15.934        0.390796503            -75.041
               530       0.392400357            -75.327        0.912597751             15.854        0.913228369              15.86        0.390192928            -75.089
               531       0.392067123            -75.378        0.913083356              15.78        0.913188485             15.803        0.389592355            -75.159
               532       0.391266848            -75.428        0.913320175             15.739        0.913425331             15.749         0.38893144            -75.234
               533       0.390383398            -75.493        0.913463798              15.71        0.913884561             15.697        0.388142627            -75.272
               534       0.389889937            -75.524        0.913675599             15.613        0.914201704             15.656        0.387339713            -75.376
               535       0.389312925            -75.616        0.914005528              15.54        0.914005528             15.639        0.386632914            -75.437
               536       0.388526037            -75.718        0.913945141             15.534        0.914892628             15.509        0.385851442            -75.445
               537       0.387944752            -75.683         0.91394462             15.466         0.91552431             15.501        0.385407251            -75.523
               538       0.387318673            -75.797        0.914678424             15.435        0.914783736             15.424         0.38465239            -75.621
               539       0.386698035            -75.849        0.914685858             15.304        0.915423305             15.393        0.384301398            -75.702
               540       0.386091484            -75.933        0.915145656             15.316          0.9153564             15.312        0.383610267            -75.714
               541       0.385489455            -75.936        0.915508756             15.272        0.915930461             15.263        0.382791691            -75.748
               542       0.384604579            -76.007        0.915723692             15.194        0.915934569             15.219        0.382529075             -75.86
               543       0.383940384            -76.083        0.915933186             15.166        0.916355086             15.196        0.381648706            -75.835
               544       0.383673928            -76.141        0.915613712             15.079        0.916668458             15.124        0.380988869            -75.982
               545       0.382881063             -76.17        0.917305267             15.066        0.915827936             15.066        0.380551893            -75.979
               546       0.382240548            -76.238        0.916403533             14.977        0.917353569             15.042        0.379609222            -76.032
               547       0.381696175            -76.287        0.916469061             14.939        0.917419164             14.959        0.379286869            -76.148
               548       0.381111127            -76.399        0.916645959             14.857        0.917701895               14.9        0.378139137            -76.203
               549       0.380521162            -76.535        0.916703342             14.772        0.918182084             14.826        0.377553773            -76.215
               550       0.379856989            -76.524         0.91752968             14.807        0.917740973             14.774        0.377068386            -76.278
               551       0.379249265            -76.503        0.917539455             14.716        0.918490668             14.796        0.376681896            -76.318
               552       0.378792456            -76.583        0.918018264             14.618        0.918758397             14.667        0.375925098            -76.422
               553       0.377886515            -76.674        0.918673933             14.559        0.918462425              14.65        0.375155566             -76.47
               554       0.377349727            -76.693        0.918319994             14.573        0.919166188             14.591         0.37483837            -76.501
               555       0.376603772            -76.721        0.919040531             14.487        0.919358012             14.528        0.374097379            -76.582
               556       0.376220497            -76.765         0.91948035             14.471         0.91948035             14.453        0.373501588              -76.6
               557        0.37530146            -76.874        0.919348675             14.378        0.919878047             14.445        0.373061347            -76.653
               558       0.375077089            -76.912        0.919645685             14.352        0.919963374             14.365        0.371980811            -76.722
               559       0.374153388            -77.012        0.920025114             14.253        0.920131042             14.316        0.371492185            -76.793
               560       0.373793188            -77.005        0.920092271             14.242        0.920516086             14.271        0.371091821            -76.833
               561       0.373194901            -77.021        0.919889584             14.183        0.921267395             14.223        0.370455205            -76.908
               562        0.37249211            -77.144        0.919956047              14.11        0.921440036             14.199        0.369757574            -76.936
               563       0.372120381            -77.168        0.920626468             14.048        0.921474787             14.133         0.36904851            -76.997
               564       0.371811239            -77.224        0.920815272             13.957        0.921769881             14.083         0.36869947            -77.046
               565       0.370675872            -77.297        0.921073564             13.942          0.9221346              14.02        0.367997033            -77.088
               566        0.37019535             -77.31        0.921363407             13.916        0.922000082             14.004        0.368155217            -77.136
               567       0.369596169            -77.348        0.921674264             13.901        0.922204975             13.932         0.36739011             -77.19
               568       0.369268768            -77.349          0.9219186              13.86        0.922874353             13.885        0.366768963            -77.182
               569       0.368637328            -77.508        0.922145198             13.766        0.922463751             13.812        0.365888963            -77.317
               570       0.367820199             -77.57        0.922859475             13.726        0.922540785             13.754        0.365035898            -77.336
               571       0.367334739            -77.569        0.923340748             13.669        0.922703147             13.719        0.364848027            -77.378
               572       0.366741093            -77.621        0.922910475             13.636        0.923548219             13.665        0.364258399            -77.425
               573       0.366546289            -77.656        0.923376519             13.564        0.923695497             13.597        0.363394899             -77.48
               574       0.365602918            -77.744        0.923761065             13.499        0.923761065             13.561        0.363127929            -77.525
               575       0.365146638            -77.773        0.923777343             13.428        0.924096459             13.509        0.362758257            -77.619
               576       0.364403563            -77.837        0.923916269               13.4        0.924341846             13.469        0.362145101            -77.654
               577       0.364017244            -77.845        0.923574551             13.347        0.925490483             13.397        0.361469749             -77.68
               578       0.363626444            -77.866        0.924390469             13.351        0.924922744             13.361        0.360707738            -77.736
               579        0.36274154            -77.901        0.925331385             13.282        0.924798875             13.327        0.360327404            -77.772
               580       0.362427619            -78.003        0.924530591             13.207         0.92580876             13.277        0.359684138            -77.805
               581       0.362007305            -78.078        0.925161037             13.176        0.925267557             13.244        0.359432492             -77.84
               582       0.361322254            -78.082        0.925752111             13.131        0.925965298             13.128        0.358752314            -77.877
               583       0.360914642            -78.071        0.925666403             13.087        0.926092786             13.142        0.358471391             -77.96
               584       0.360574792             -78.16        0.926073297             12.974        0.926286557             13.073          0.3575159            -78.019
               585       0.359893867            -78.183        0.925922092             12.938        0.926775291             13.044        0.356964022            -78.088
               586       0.359223427             -78.26        0.926754388               12.9        0.926647698              12.96        0.356381089            -78.108
               587        0.35869767            -78.269        0.926677367             12.861        0.927104216             12.945         0.35602341            -78.154
               588       0.358262265            -78.326        0.927045536             12.839        0.926938812             12.869        0.355632192            -78.219
               589       0.357629733            -78.437        0.926581485             12.764        0.927648866             12.824        0.354800006             -78.27
               590       0.357097194            -78.401        0.927868514             12.736        0.927548095             12.748        0.354557305            -78.282
               591       0.356639324             -78.49        0.927959939             12.679        0.927532696             12.705        0.354143461            -78.339
               592       0.355963196            -78.504        0.928015218             12.576        0.928442683              12.67        0.353309323            -78.397
               593       0.355460176            -78.634         0.92798499             12.563        0.928412441             12.583        0.352728825            -78.446
               594        0.35481259            -78.577        0.928964295             12.479        0.928109081             12.609        0.352532387            -78.516
               595       0.354732367            -78.694        0.928647334             12.451        0.928754255             12.497        0.351561101            -78.525
               596       0.354345493             -78.66        0.928275555             12.456        0.929023958             12.515        0.351137258            -78.602
               597       0.353571915            -78.711         0.92902577             12.428        0.929132735             12.414        0.350612795            -78.636
               598       0.353129687            -78.785        0.929253552             12.336        0.929146574             12.444        0.350174268            -78.642
               599       0.352394217             -78.86        0.929241875             12.254        0.929562879             12.366        0.349887778            -78.743
               600       0.351855338            -78.966        0.928889694             12.257        0.930066805             12.253        0.348910584            -78.797
               601       0.351578701            -78.945        0.929121602             12.143        0.930406118             12.267        0.348475747             -78.86
               602       0.350773981            -79.032        0.929773945             12.109         0.93020222             12.228        0.348158796            -78.874
               603       0.350200163            -79.015        0.930285696             12.112        0.930714207             12.159        0.347909545             -78.85
               604        0.35001341            -79.114        0.929896651             12.015        0.930860675             12.075         0.34692427            -79.015
               605       0.349423741            -79.194        0.930255849             11.947        0.931005848             12.028        0.346459448            -79.042
               606       0.348870137            -79.155        0.930923077             11.961        0.931244662             11.984        0.346189424            -79.026
               607       0.348187901            -79.241        0.931137197             11.867        0.931137197             11.971        0.345353353            -79.124
               608       0.348090189            -79.268        0.931304674             11.806        0.931411901             11.905        0.345057747            -79.166
               609       0.346929231            -79.294        0.931088351             11.825        0.931731747             11.889        0.344461663            -79.255
               610       0.346872729            -79.383        0.931472757             11.762        0.931580002             11.855        0.343850894            -79.249
               611       0.346504411            -79.422        0.931555572             11.756         0.93219929             11.803        0.343209079            -79.199
               612       0.345727046            -79.491        0.931715575             11.638        0.932359403             11.759        0.342596842            -79.337
