!{251R15S101}
!Johanson Technology Inc.
!www.johansontechnology.com
!Test Board Conditions:
!Substrate Type  RO4350B
!Substrate Thickness        20 mil
!Substrate Dk      3.66
!TL Type: GCPW 
!TL Trace Width  34 mil
!TL Gap  10 mil
!Electrode orientation      Horizontal
!DUT TOPOLOGY	SERIES
!Mounting Pad LxW         26x52 mil
! Created Thu Mar 12 16:46:15 2020
# mhz S ma R 50
! 2 Port Network Data from SP1.SP block
! freq  magS11  angS11  magS21  angS21  magS12  angS12  magS22  angS22  
!     
               500      0.0149684686            -97.544        0.999068967             -5.506        0.998905649             -5.462       0.0131651972            -94.367
               501      0.0147673281            -98.244        0.999046548             -5.507         0.99872765             -5.516       0.0127703242            -93.689
               502      0.0147672627            -97.838        0.998274551             -5.477         0.99889468             -5.478       0.0130978496            -94.549
               503      0.0146588533            -97.693        0.998962418             -5.509        0.998619403             -5.531       0.0128365998            -94.397
               504      0.0146689828            -98.203         0.99873438             -5.536        0.998945742             -5.555       0.0126984291            -94.171
               505      0.0143136114            -98.621        0.998617617             -5.583        0.999235197             -5.572       0.0124580257            -93.391
               506      0.0141514193             -97.77        0.998044717             -5.594        0.998389489              -5.58       0.0123069376            -93.667
               507      0.0142396725            -98.266        0.998389489             -5.649        0.999177625              -5.61       0.0122518029            -94.146
               508      0.0141107157            -98.293        0.999203717             -5.638        0.998847164             -5.598       0.0123850864            -93.732
               509      0.0137282815            -98.697        0.999571084              -5.64        0.997966988             -5.635       0.0121343404            -94.251
               510      0.0139267571            -97.463        0.997814935             -5.641        0.999077665             -5.659       0.0119880901            -93.421
               511      0.0136200177            -98.179        0.998338161              -5.66        0.999416631             -5.718       0.0118461621            -93.845
               512      0.0137408509            -98.889         0.99862981             -5.667        0.999247398             -5.734        0.011947131            -94.638
               513      0.0134803137            -98.122        0.997700064             -5.731        0.999375734             -5.765        0.011531877            -95.491
               514      0.0135236352            -98.893        0.998932854             -5.711        0.999116191             -5.737        0.011843865            -95.202
               515      0.0134679036            -98.594        0.997814935             -5.761        0.998880075             -5.714       0.0115000572            -93.468
               516      0.0133045442            -98.692        0.999068348              -5.77        0.998504439             -5.766       0.0113409647            -93.339
               517      0.0133252396            -99.724        0.999407322             -5.816        0.998102233             -5.751       0.0114716273            -94.429
               518      0.0128756252            -99.601        0.998892553             -5.794         0.99922876             -5.853       0.0112322905            -94.089
               519      0.0128277356            -98.645        0.998159627             -5.874         0.99873438             -5.808       0.0111109195            -92.862
               520      0.0127835066            -99.559        0.999256772             -5.846        0.998504439              -5.82       0.0109913237            -93.947
               521      0.0127761499            -99.189        0.998159627             -5.865        0.998874095             -5.835       0.0108680093            -94.046
               522      0.0125559622            -99.296        0.998935276             -5.868        0.998619403             -5.924       0.0105341622            -95.282
               523      0.0123742205            -99.239        0.999594911             -5.896        0.998085742             -5.893       0.0108397147            -94.341
               524       0.012430199            -98.947        0.999132027              -5.93        0.998850704             -5.923       0.0105993219            -94.583
               525      0.0121800761             -99.62         0.99873438             -5.951        0.998389489             -5.975       0.0102979315            -94.175
               526       0.012444495            -99.785        0.998452202             -6.006        0.999048746             -5.977        0.010185381            -94.184
               527        0.01216186            -99.209        0.998619403             -5.989        0.999065242             -5.977       0.0101718512            -94.381
               528      0.0118530888           -100.997        0.999014378             -6.046        0.998868779             -5.983        0.010090938            -95.869
               529       0.012005431           -100.114        0.999418549             -6.042        0.998108503             -6.016       0.0101141119            -94.396
               530      0.0119137916           -100.447        0.998962878             -6.033         0.99873438             -6.052      0.00995290824             -94.46
               531      0.0114736078           -101.297        0.999013714             -6.048         0.99884937             -6.047      0.00992658807            -94.298
               532       0.011551809              -99.6         0.99873438             -6.095         0.99873438             -6.054      0.00977462264            -94.082
               533      0.0115877736           -101.243        0.999292551             -6.055        0.998389489             -6.093       0.0097667484            -93.423
               534      0.0115631254           -100.107        0.998447502             -6.073        0.999254206             -6.122      0.00958683461            -94.612
               535      0.0114327077           -100.784        0.998732311              -6.09        0.999119305             -6.146      0.00946671059            -93.475
               536       0.011273259           -101.622        0.999336814             -6.174        0.998503258             -6.167      0.00947544219            -93.635
               537      0.0111318367           -101.944        0.998557496             -6.181        0.999201268             -6.202      0.00923563639            -94.633
               538      0.0112565125            -101.73        0.998675758             -6.216        0.998921839             -6.167      0.00913174673            -95.379
               539      0.0109635197           -101.433        0.998619403             -6.217        0.998873175             -6.217      0.00899704722            -95.117
               540      0.0108405171           -100.562        0.999183031             -6.248         0.99873438             -6.236      0.00905836883            -93.266
               541      0.0107959918            -102.86        0.999047287             -6.253        0.998533282             -6.226      0.00878542033            -95.747
               542      0.0103827298           -102.174        0.999461117             -6.242        0.998301108             -6.243      0.00869483917            -94.152
               543      0.0106647333           -101.924        0.998504439             -6.204        0.998389489             -6.295      0.00862382629            -94.277
               544      0.0108530567           -101.548        0.998509204             -6.267        0.998861841             -6.276      0.00837051294            -93.214
               545      0.0106148705           -102.919        0.999069495             -6.294        0.998538234             -6.335      0.00842683904            -92.541
               546      0.0103382451           -101.718        0.998896694             -6.326        0.998948791             -6.323      0.00831279031            -93.412
               547      0.0100023029           -102.815         0.99884937             -6.364         0.99873438             -6.359      0.00837336456            -92.876
               548      0.0101768477           -102.259        0.999259474             -6.333        0.998649926             -6.415       0.0083159769            -93.116
               549       0.010014978           -102.042        0.998619403             -6.355        0.998619403             -6.399      0.00818747525            -92.091
               550     0.00993017956           -101.781        0.998828904             -6.413        0.998968057             -6.421      0.00786968051            -94.209
               551     0.00991536675           -103.428        0.999239936             -6.417         0.99829474             -6.394      0.00782724238            -93.663
               552     0.00991859141           -102.985        0.998389489              -6.46        0.998504439             -6.474      0.00778305322            -93.049
               553     0.00948830851           -102.521        0.999019458             -6.526        0.999127349              -6.46      0.00776137732            -93.161
               554     0.00975997946           -103.003        0.998796711             -6.444        0.998882268             -6.483      0.00753787452            -91.941
               555     0.00957926059           -103.516        0.998889016             -6.467        0.998938928             -6.521      0.00752890795            -92.416
               556     0.00967275082           -103.235        0.998619403              -6.49        0.998504439             -6.494      0.00740627784            -93.967
               557     0.00935177776            -102.26        0.999218066             -6.544        0.998491053             -6.548      0.00729699717             -93.74
               558     0.00941889597            -102.94         0.99873438             -6.571        0.998504439             -6.522      0.00732402807            -94.311
               559     0.00913097002           -102.511        0.999211139              -6.58        0.998784322             -6.566      0.00729569915            -93.728
               560     0.00914463722           -103.448        0.998998259             -6.596        0.998860597             -6.601      0.00712223799            -92.829
               561     0.00891764131           -101.727         0.99873438               -6.6         0.99873438             -6.572      0.00687305786            -93.101
               562     0.00891045744           -104.102         0.99873438             -6.623        0.998908825             -6.619      0.00684226673            -93.759
               563      0.0087287087           -102.988        0.998893185             -6.635         0.99891791             -6.642      0.00688652296            -93.446
               564      0.0089002048           -103.328        0.998619403             -6.638        0.998504439             -6.657      0.00694784306            -91.349
               565     0.00865010421           -103.588        0.998891781             -6.681        0.999034278             -6.671      0.00668145949             -92.75
               566     0.00873334997           -104.515        0.998345498             -6.709        0.999091385             -6.677      0.00636694157            -91.467
               567     0.00849962959           -103.078        0.998159627               -6.7        0.997929819             -6.715      0.00658263842            -90.738
               568     0.00818841792           -104.654         0.99873438             -6.739        0.999064667             -6.749      0.00638557485            -90.101
               569     0.00856950524           -105.946        0.999110214             -6.705        0.998517656             -6.754      0.00641144245            -92.064
               570     0.00848984967           -103.825         0.99873438             -6.753        0.998274551             -6.767      0.00634015682            -90.666
               571     0.00834545462           -104.474        0.999216507             -6.772        0.998274551             -6.773      0.00608275046            -90.234
               572     0.00816394368           -104.192         0.99885834             -6.821        0.998389489             -6.808       0.0059047294            -92.066
               573     0.00793580768           -104.353         0.99882898             -6.858        0.999034266             -6.849       0.0058666629            -90.866
               574     0.00785862722           -104.195        0.998152016             -6.887        0.999346023               -6.8      0.00572132592            -90.908
               575       0.007849866           -105.695        0.998889144             -6.863        0.998901335             -6.815      0.00576251731            -92.756
               576     0.00758368246           -104.761        0.998889022             -6.906        0.999127449             -6.849      0.00567387992            -90.946
               577     0.00751796667           -106.289        0.999318657             -6.898        0.998275461             -6.846      0.00545569893            -91.811
               578     0.00752315483           -105.465        0.999190048             -6.892        0.998619403             -6.945      0.00556288395            -90.299
               579     0.00728115037           -105.716         0.99891653              -6.95        0.998921936             -6.933      0.00549730711            -89.994
               580     0.00752539123           -104.994        0.999283884             -6.968        0.998571308             -6.893       0.0055542968            -90.023
               581      0.0074336139           -105.788        0.998504439              -6.97        0.998992321              -6.94      0.00547898359            -88.297
               582      0.0072912166           -106.519        0.998909975             -6.979        0.998159627             -6.975      0.00518322426            -91.632
               583     0.00714917289           -105.278        0.999207763             -6.996        0.998517773             -7.019      0.00502927982              -90.3
               584     0.00709051535           -104.814        0.999201786              -7.02        0.998338459             -7.005      0.00483034112            -90.339
               585     0.00705511977            -105.22        0.999170817             -7.021        0.998514534              -7.03      0.00488938675            -91.288
               586      0.0069044993           -106.447        0.998808409             -7.055        0.999018176             -7.016      0.00477784647            -87.973
               587     0.00680612624           -105.055         0.99890618             -7.054        0.998274551             -7.076      0.00480839348            -87.806
               588     0.00662292749           -108.156         0.99873438             -7.075        0.999042238             -7.061      0.00465693311            -87.786
               589     0.00643298877           -105.327        0.999184397              -7.08        0.998941472             -7.072      0.00462288184            -86.342
               590      0.0065208785           -106.231        0.998782233              -7.17        0.999091947             -7.114      0.00445406046            -86.715
               591     0.00645059833           -105.656        0.998274551             -7.114         0.99885857             -7.138      0.00435562017            -88.761
               592     0.00657579798           -107.456        0.998751312             -7.118        0.999148896             -7.174      0.00456665773            -89.732
               593     0.00639463755           -106.267        0.999208531             -7.125        0.998727557             -7.139      0.00442961451            -90.118
               594     0.00631890327           -106.959        0.998954384             -7.183          0.9986354             -7.141      0.00395860079            -87.471
               595     0.00604505143            -105.09        0.998159627             -7.252         0.99873438              -7.22      0.00403784831            -87.409
               596     0.00598416811           -106.988         0.99897354             -7.218         0.99904646             -7.214       0.0040350952            -86.305
               597     0.00593335044           -106.409         0.99873438             -7.297         0.99873438             -7.268      0.00380802683             -88.24
               598     0.00582786923           -104.492         0.99915933             -7.272        0.998641933             -7.202      0.00374463764            -85.768
               599       0.005858683           -110.606        0.999129311             -7.323        0.998619403              -7.22      0.00386189089            -85.308
               600      0.0058022976            -106.67        0.998159627             -7.317        0.998619403              -7.29      0.00371834772            -83.882
               601     0.00563160683           -108.856        0.998808725             -7.368        0.998911303              -7.31      0.00338635377            -88.612
               602     0.00556817377           -107.424        0.998763771             -7.352        0.999088202             -7.352       0.0034718646            -85.516
               603     0.00559642383           -107.478        0.998702868             -7.365        0.999010487             -7.336      0.00335513962            -85.875
               604     0.00536969972           -108.486        0.998044717             -7.372        0.999100785             -7.325      0.00321477069            -83.285
               605     0.00536043458           -109.967        0.999055695             -7.395        0.997585206             -7.414      0.00334657067            -86.478
               606     0.00566082883           -109.313        0.998228633              -7.39        0.998978457             -7.392      0.00300040598            -88.408
               607     0.00520834807           -108.987        0.998619403             -7.389        0.998044717             -7.425      0.00301751891            -80.075
               608     0.00518829876           -108.403        0.998331965              -7.45        0.999122471             -7.447      0.00278788578            -85.807
               609      0.0049391248           -112.061        0.998504439             -7.445        0.998619403             -7.451       0.0028467544            -79.962
               610     0.00498195729           -109.305        0.998959083             -7.479        0.998874785             -7.463      0.00284053405            -83.969
               611     0.00483452526           -109.981        0.998840478              -7.48         0.99895663             -7.524      0.00265249048            -86.419
               612     0.00483336953           -111.331        0.998389489             -7.546        0.998274551             -7.526      0.00257306051            -80.978
