!{201R07S1R8}
!Johanson Technology Inc.
!www.johansontechnology.com
!Test Board Conditions:
!Substrate Type  RO4350B
!Substrate Thickness        10 mil
!Substrate Dk      3.66
!TL Type: GCPW 
!TL Trace Width  21 mil
!TL Gap  20 mil
!Electrode orientation      Horizontal
!DUT TOPOLOGY	SERIES
!Mounting Pad LxW         16x21 mil
!Agilent Technologies,N5230A,MY45001966,A.07.50.67
!Agilent N5230A: A.07.50.67
! Created Mon Mar  9 16:25:12 2020
# mhz S ma R 50
! 2 Port Network Data from SP1.SP block
! freq  magS11  angS11  magS21  angS21  magS12  angS12  magS22  angS22  
!     
               500       0.884606243            -30.579        0.459356642             59.011        0.460999018             59.114        0.884198961            -30.502
               501       0.884442681            -30.595        0.460277444             58.986        0.461232278             59.087        0.884035474            -30.526
               502       0.883384958            -30.625        0.460680681             58.948        0.462274566             59.002        0.883588388            -30.592
               503       0.883454596            -30.701        0.461672743             58.885        0.462790286             58.945        0.883149514            -30.626
               504       0.882779273            -30.766        0.462596271             58.818         0.46371605             58.917        0.883287588            -30.714
               505       0.882571705            -30.808        0.463180215             58.759        0.464247956             58.838        0.881962257            -30.753
               506       0.882830634            -30.907        0.463849822              58.71        0.465186813              58.79        0.881713305            -30.817
               507       0.881812559            -30.895        0.464810874             58.668        0.465560665             58.753        0.881711042            -30.839
               508       0.881487541            -30.911        0.465764279             58.617        0.466354507             58.746        0.881487541            -30.926
               509       0.880744622            -31.065        0.466283449             58.543        0.466605657             58.608        0.880339118            -30.946
               510       0.880752374            -31.074        0.466985959              58.52        0.467793112             58.567        0.880549597            -31.012
               511       0.880282137            -31.126         0.46748953              58.46        0.468513262             58.526        0.880282137            -31.055
               512       0.880100901            -31.204        0.467877829             58.348        0.469658802             58.473        0.879391909            -31.141
               513       0.879437304            -31.222        0.469034602             58.354        0.469953495             58.442        0.879741103            -31.175
               514       0.879115634              -31.3        0.469889785             58.257        0.470810352              58.38        0.879115634            -31.252
               515       0.879022517            -31.362        0.470381248             58.234        0.471411312             58.321        0.878718966            -31.297
               516       0.878318381            -31.376        0.471033691             58.209        0.472445777             58.269        0.878419507             -31.35
               517       0.877566311            -31.494        0.472204305             58.099         0.47307494             58.189        0.878071624            -31.395
               518        0.87771094            -31.512        0.472717317             58.082        0.473697957             58.166        0.877306832            -31.418
               519       0.877606841            -31.564        0.473260219             58.024        0.474241985             58.083        0.876294327            -31.493
               520       0.876482868            -31.575        0.474125629             57.983        0.474945122             58.085        0.877391518            -31.577
               521       0.876179059            -31.692        0.474671186             57.891        0.476039367             58.014         0.87638083            -31.576
               522       0.876031748             -31.72        0.475521158             57.858        0.476343063             57.977         0.87613261            -31.633
               523       0.875789776            -31.774        0.476211491             57.829        0.477364228             57.881        0.875285776            -31.696
               524       0.874983775            -31.817        0.477309414             57.777        0.477694235             57.852        0.875487601            -31.748
               525       0.874533899            -31.895        0.477668551             57.725        0.478659462             57.771        0.875138214              -31.8
               526       0.874681619            -31.981        0.478299581             57.631        0.479567783             57.714        0.873976993            -31.878
               527       0.874046387            -31.986        0.478888582             57.651        0.480434827             57.651        0.874247667             -31.95
               528       0.873707739            -32.066        0.479861804             57.543           0.480968             57.626        0.873707739            -31.983
               529       0.873839554            -32.053        0.480321137             57.532        0.481483821             57.595        0.872633133            -32.007
               530       0.873172401            -32.144        0.481171615             57.478        0.482169794             57.505        0.872167702            -32.062
               531       0.872067296            -32.218        0.481947798             57.406        0.482947586             57.468        0.872569443            -32.111
               532       0.872085498            -32.233        0.482624167             57.362         0.48373673              57.42        0.871985101            -32.171
               533       0.871264462            -32.291        0.483559589             57.269        0.484005169             57.409        0.871766147            -32.246
               534       0.870662822            -32.339        0.483893736              57.24        0.484506938             57.363         0.87096359            -32.273
               535       0.870749362            -32.369        0.485001593             57.223        0.485728028             57.303        0.871150449            -32.318
               536        0.87060424            -32.438        0.485311718             57.166        0.486598513             57.224         0.87060424            -32.393
               537        0.86965289            -32.477        0.486234695             57.106        0.487187284             57.169        0.870654691            -32.466
               538       0.869884299            -32.577        0.487148637             57.036        0.487597524             57.127        0.869884299            -32.483
               539       0.869402041            -32.592        0.487383312             56.996        0.488338152              57.05        0.869402041            -32.544
               540       0.869097469            -32.666        0.488054684             56.963        0.489348752             56.997        0.868997416            -32.594
               541       0.869094179            -32.666        0.489008988             56.907        0.489967012             56.992        0.868094173            -32.656
               542        0.86836038            -32.737        0.489891608              56.87         0.49023013             56.947        0.868060511            -32.659
               543       0.867480587            -32.789        0.490297597             56.799        0.491258146              56.88        0.868179975             -32.74
               544       0.867427294            -32.863        0.491341088             56.707        0.491850462             56.828        0.867427294            -32.812
               545       0.867287354            -32.877        0.491771112             56.649        0.492677823             56.758        0.866289427            -32.877
               546       0.866513737            -32.988        0.492465093             56.573        0.493486699             56.678        0.866413981            -32.939
               547       0.866235112            -33.002         0.49321444              56.57        0.493896312             56.648        0.866235112            -32.976
               548       0.865676339            -33.033        0.493691384             56.527         0.49482946             56.644         0.86607509            -33.014
               549       0.865966173            -33.107        0.494881168             56.466        0.495451249             56.573        0.865069355            -33.107
               550       0.864756908            -33.203        0.495671604             56.386        0.496071229             56.522        0.865454101            -33.135
               551       0.864814552             -33.24        0.495990078             56.351        0.496790164             56.471        0.864814552            -33.186
               552       0.863561056            -33.242        0.496584373              56.31        0.497843738             56.464        0.864754934            -33.217
               553       0.863889058            -33.399        0.497517055             56.219        0.498204875             56.369        0.863889058            -33.242
               554        0.86388468            -33.347        0.497743701             56.202        0.498776258             56.336        0.863188752            -33.328
               555       0.863454276            -33.484        0.498585156             56.148        0.499734514             56.215        0.862758695            -33.391
               556       0.863200701            -33.475        0.499185296             56.056        0.500278437             56.198        0.862207477            -33.497
               557       0.862308916            -33.531        0.500164515              56.09        0.500913662             56.161        0.862507493            -33.467
               558       0.861716431            -33.595        0.500339021             55.951        0.501781187             56.121        0.861716431            -33.508
               559       0.861526732             -33.62         0.50161297             55.928        0.502364286             56.049        0.861130075              -33.6
               560       0.861184998            -33.695        0.501991607             55.884        0.503380579             56.022        0.860887607            -33.638
               561       0.861012041            -33.705        0.503163611             55.862        0.503511304             55.974        0.860219385            -33.675
               562       0.860304076            -33.776        0.503618854             55.804        0.504199001             55.899        0.860205036            -33.727
               563        0.85964107            -33.877        0.504042499             55.763        0.505088123             55.805        0.860136062            -33.777
               564       0.859567575            -33.862        0.504579991             55.715        0.505743168             55.816        0.859369675            -33.814
               565       0.859442768            -33.958        0.505553314             55.666        0.506368826             55.737        0.858948175            -33.887
               566       0.859131373            -34.002        0.506418519             55.572        0.506943523             55.681        0.858241634            -33.976
               567       0.858418527            -34.075        0.507106389             55.517        0.507573666             55.629        0.858122091            -33.996
               568       0.857737033            -34.111        0.507754944             55.477        0.508281334               55.6        0.858132126            -34.046
               569       0.857768641            -34.171        0.508183038             55.412        0.509295882             55.548        0.857275012            -34.119
               570       0.857185309            -34.193        0.509535819             55.353         0.50947716             55.479        0.856790652            -34.193
               571       0.856051712            -34.225        0.509800198             55.337        0.510093747             55.455        0.856643256            -34.218
               572       0.856643256             -34.27        0.510328708             55.298        0.511034241             55.374        0.855756093            -34.269
               573       0.855756093            -34.342        0.510916584             55.198        0.511387373             55.326        0.855559071            -34.337
               574       0.855432095             -34.43        0.511723711             55.189        0.512490171             55.263        0.855629088            -34.365
               575       0.855165162            -34.484        0.512448233             55.116        0.512979488             55.186        0.854771434             -34.43
               576       0.854381689            -34.494         0.51298177             55.072        0.513809266             55.223        0.855070517            -34.458
               577        0.85427953            -34.527        0.513925302             55.063        0.514221227             55.131        0.854082847              -34.5
               578       0.853799299            -34.571        0.514287293             55.007        0.515176203             55.095        0.853995916            -34.566
               579       0.853321509            -34.616        0.514887908              54.94        0.515718478             55.049        0.853616287            -34.615
               580       0.853273956            -34.707        0.515808495             54.874        0.516343234              54.97        0.852782914            -34.673
               581       0.852707337            -34.725        0.516297474             54.859        0.517070785             54.925        0.852314742            -34.693
               582       0.852412874            -34.797        0.516951738             54.789        0.517428088              54.87        0.851922326            -34.745
               583       0.851432062            -34.868        0.517845254             54.746        0.518262756             54.797        0.851824251            -34.817
               584       0.851241825            -34.889        0.517968029             54.699        0.519102301             54.773        0.851928121             -34.89
               585        0.85045824            -34.954        0.518923087             54.642        0.519760167             54.682        0.851535961            -34.953
               586       0.850158693            -34.978        0.519696749             54.593        0.519876277             54.689        0.850942079            -34.977
               587       0.850159074            -35.067        0.520475384             54.543        0.521014961             54.612        0.850354853             -35.02
               588       0.849082715            -35.103        0.521194711             54.439        0.520954747             54.543        0.849571627            -35.106
               589       0.849556014             -35.14        0.521965764             54.443        0.521845591             54.567        0.849751654            -35.114
               590       0.848825713            -35.244        0.522478624              54.38        0.522779474             54.433        0.849412264            -35.192
               591       0.848872018             -35.29        0.523048809             54.321        0.523530777             54.427        0.848774294            -35.234
               592       0.847943332            -35.288        0.523560446              54.33        0.524284272             54.343        0.848431588            -35.263
               593       0.847850697            -35.384        0.524528852             54.233        0.524589244             54.278        0.847850697            -35.334
               594       0.848002398              -35.4        0.524924786             54.193        0.525468976             54.254        0.847124184            -35.418
               595       0.846642372            -35.442         0.52517011             54.118        0.525835618             54.255        0.846155146            -35.423
               596       0.846447448            -35.522         0.52595671             54.065        0.526805136             54.187        0.846642372            -35.453
               597       0.846155146            -35.561        0.527169165             54.009        0.527047794             54.138        0.846350003            -35.544
               598       0.845376167            -35.598        0.527776441             53.987         0.52765493             54.027        0.845960334            -35.617
               599       0.845520397            -35.674        0.527866485             53.897        0.528961531             53.997        0.845325732            -35.671
               600        0.84466492            -35.676         0.52897416             53.928        0.529035064             54.014        0.845637937             -35.64
               601       0.845047727            -35.761        0.529579589             53.817        0.529823525              53.96        0.844561419            -35.733
               602       0.843528965            -35.838        0.530151507             53.785        0.530517849             53.842        0.844500673            -35.794
               603       0.843528965            -35.813        0.530578931             53.772        0.531067837             53.864        0.843723217            -35.796
               604       0.843334758             -35.92           0.531496             53.703        0.531985751             53.805        0.843626086            -35.857
               605       0.842558157            -35.944        0.531924369             53.645        0.532537123             53.721        0.843625867             -35.95
               606       0.842329359            -36.008        0.532515114             53.605        0.533435529             53.676        0.842814383            -35.956
               607       0.841784666            -36.043        0.533274737             53.514        0.533827583             53.615        0.842560335            -36.064
               608       0.841879627              -36.1        0.534256728             53.471         0.53431824             53.578        0.841685799            -36.097
               609       0.841343108            -36.123        0.534223688             53.437        0.535208672              53.52        0.841343108            -36.138
               610       0.840676307            -36.228        0.535400544             53.392        0.535893893             53.428        0.841160379            -36.202
               611       0.840228554            -36.214         0.53591688             53.367        0.536040294             53.423        0.840905971            -36.216
               612       0.839266716            -36.287          0.5365374             53.312        0.536846344             53.375        0.840233514            -36.286
