!{201R07S1R5}
!Johanson Technology Inc.
!www.johansontechnology.com
!Test Board Conditions:
!Substrate Type  RO4350B
!Substrate Thickness        10 mil
!Substrate Dk      3.66
!TL Type: GCPW 
!TL Trace Width  21 mil
!TL Gap  20 mil
!Electrode orientation      Horizontal
!DUT TOPOLOGY	SERIES
!Mounting Pad LxW         16x21 mil
!Agilent Technologies,N5230A,MY45001966,A.07.50.67
!Agilent N5230A: A.07.50.67
! Created Mon Mar  9 16:23:38 2020
# mhz S ma R 50
! 2 Port Network Data from SP1.SP block
! freq  magS11  angS11  magS21  angS21  magS12  angS12  magS22  angS22  
!     
               500       0.914744907            -26.831        0.396825891             62.804        0.398198849             62.912         0.91442902            -26.659
               501       0.914583317            -26.807        0.397807783             62.795        0.398587133             62.917        0.914372751            -26.678
               502       0.913902783            -26.853        0.398153007             62.749        0.399530556             62.818        0.914008006            -26.748
               503       0.914018525            -26.927        0.398983557             62.671        0.400041455             62.771        0.913387361            -26.784
               504       0.913427355            -26.961        0.399644659             62.636        0.400888884             62.762        0.913742896             -26.86
               505       0.913447975            -27.012        0.400390549             62.577        0.401544625             62.687        0.912712119            -26.889
               506       0.913307238            -27.091         0.40111315             62.522        0.402130394             62.635        0.912571496            -26.957
               507       0.912770674            -27.084        0.401662862             62.482        0.402727864             62.616        0.912245392            -26.969
               508       0.912353711            -27.119        0.402636593             62.455        0.403332523             62.572        0.912353711            -27.049
               509       0.912010839            -27.248        0.403227367             62.395        0.403738346             62.473        0.911485995            -27.052
               510        0.91166684            -27.238        0.403864945             62.358        0.404609577             62.435         0.91166684            -27.129
               511         0.9112976            -27.303        0.404352588             62.306        0.405331379              62.38        0.911402523            -27.164
               512       0.911010654            -27.365        0.404877326             62.226        0.406044335             62.343        0.911010654            -27.207
               513       0.910691363            -27.391        0.405668436               62.2        0.406744058             62.303        0.910901081             -27.28
               514       0.910318405            -27.478        0.406437081             62.125        0.407233337             62.234        0.910737718            -27.336
               515         0.9103324            -27.533        0.407098967             62.078         0.40789652             62.186          0.9103324            -27.405
               516        0.90987815            -27.515        0.407552194             62.054        0.408868107             62.173        0.909982909            -27.452
               517       0.909253083            -27.626        0.408540186             61.984        0.409387692             62.106        0.909986149             -27.48
               518       0.909309991            -27.675        0.409271933             61.945        0.409979331             62.037        0.909205309            -27.511
               519       0.909669407            -27.718         0.40966946             61.922        0.410566574             61.985        0.908204374             -27.55
               520       0.908600326            -27.727        0.410131275             61.928        0.411360785             61.947        0.908914199            -27.585
               521       0.908106556            -27.834        0.411042578             61.786        0.412179902              61.91        0.908524851            -27.642
               522       0.908156274            -27.877         0.41182299             61.766        0.412487306             61.852        0.908156274            -27.688
               523       0.907777265            -27.893        0.412457592             61.736        0.413408405             61.798        0.907672759            -27.742
               524        0.90714428            -27.922        0.413358018             61.673        0.413643655             61.801        0.907980176            -27.799
               525       0.906795855            -28.008        0.413627615             61.639        0.414581125             61.705        0.907631429            -27.835
               526       0.906948863            -28.073        0.414412456             61.549        0.415319957             61.658        0.906844452            -27.906
               527        0.90639717            -28.081        0.414923986             61.556        0.416263701             61.607        0.906919084            -27.988
               528       0.906249081            -28.173        0.415812537              61.47        0.416771084             61.565        0.906457777            -28.013
               529       0.906254133            -28.171        0.416293855             61.445        0.417061403             61.518        0.905628331            -28.038
               530       0.906053851            -28.226        0.416825242             61.422        0.418074819             61.456        0.905115518            -28.073
               531       0.905197089            -28.305        0.417727579             61.342         0.41869054             61.407        0.905509787            -28.138
               532       0.904596008            -28.284        0.418316184             61.325        0.419232233              61.41        0.905533803            -28.176
               533       0.904378023             -28.38        0.419227729             61.207        0.419565722             61.361        0.904898774            -28.256
               534       0.903961637            -28.404        0.419807313             61.192        0.420194148             61.333        0.904690438            -28.277
               535       0.904115408            -28.449        0.420362407              61.21        0.421040498             61.269        0.904531864            -28.297
               536       0.903890378              -28.5        0.420790342             61.135        0.421857489             61.193        0.903994448             -28.38
               537       0.903056183            -28.542        0.421613754              61.04        0.422488382             61.144        0.903992381            -28.468
               538       0.903409219             -28.59        0.422410318             61.018        0.422896916             61.142        0.903305216            -28.457
               539       0.903130979            -28.656        0.422474733             60.977        0.423692464             61.044        0.903027008            -28.527
               540       0.902845734            -28.714        0.423217435             60.952        0.424583928             61.002         0.90263787            -28.556
               541       0.902852373            -28.704        0.424245011             60.906        0.425076155             61.009        0.902021198            -28.613
               542       0.901882583            -28.779        0.424961905             60.853         0.42525556             60.954        0.901986422            -28.621
               543       0.901716958            -28.815        0.425275376             60.806         0.42645208             60.901        0.901820778            -28.684
               544       0.901649213            -28.897        0.426223713             60.712        0.426862111             60.838        0.901234084            -28.747
               545       0.901473804            -28.914        0.426729937              60.65        0.427713651             60.763        0.900332881            -28.831
               546       0.900688648             -29.01        0.427439535             60.598        0.428326248             60.709         0.90079235            -28.864
               547       0.900543143            -29.008        0.428010599             60.594        0.428750386             60.701        0.900543143            -28.886
               548       0.900068221            -29.047        0.428376293             60.572        0.429611035             60.659        0.900379147            -28.919
               549       0.900273204             -29.13        0.429659406             60.514        0.430253413             60.609        0.899858709            -29.012
               550       0.899651463            -29.223        0.430055287             60.412        0.430798607             60.538        0.899755045            -29.056
               551       0.899080335             -29.22        0.430822621              60.38        0.431219606             60.536          0.8998052            -29.102
               552       0.898362382            -29.246        0.431272293             60.353        0.432415804             60.501        0.899397256            -29.117
               553       0.898624807            -29.374        0.432094167             60.261        0.432542119             60.435        0.898831747            -29.139
               554       0.898808272            -29.324         0.43233168             60.247        0.433278422             60.402         0.89808421             -29.24
               555       0.898330581             -29.47        0.433147871               60.2        0.434046425             60.295        0.898020362            -29.272
               556        0.89822748            -29.466        0.433746853             60.125        0.434746743             60.263        0.897400562            -29.382
               557       0.897458509            -29.492        0.434524611             60.135        0.435275657              60.25        0.897665181            -29.362
               558       0.896951751            -29.567        0.434929717             60.025        0.436032722               60.2        0.897055022            -29.382
               559       0.896976341            -29.567        0.435944284             60.017        0.436697784             60.166        0.896460148            -29.453
               560       0.896786014            -29.664        0.436353864             59.957        0.437561222             60.121        0.896373124            -29.519
               561       0.896672093            -29.658        0.437354555              59.96        0.437757558             60.084        0.895846608            -29.541
               562       0.895940449            -29.726        0.437904234              59.87        0.438307744             60.007        0.895940449            -29.618
               563       0.895271864            -29.824        0.438081523             59.831        0.439192521             59.917         0.89589051            -29.643
               564       0.895252615            -29.801        0.438879806             59.826        0.439790251             59.923        0.895252615            -29.659
               565       0.895323963            -29.891         0.43957219             59.745         0.44033196             59.846        0.894808721            -29.759
               566       0.894878288            -29.962        0.440619762              59.67        0.440822721             59.766        0.894363303            -29.819
               567       0.894340496            -30.011        0.441065304             59.627        0.441522557             59.749        0.894340496             -29.83
               568       0.893844362            -30.038        0.441684242             59.609        0.442193043             59.729        0.894359049            -29.867
               569       0.893996813            -30.097        0.442115734             59.513        0.443083901             59.677        0.893482335            -29.957
               570       0.893465523             -30.11        0.443279654             59.465        0.443126577             59.605        0.893259818            -30.029
               571        0.89227762            -30.131        0.443455453             59.441        0.443761887             59.596        0.892894196            -30.065
               572       0.892984222            -30.173         0.44416444             59.419          0.4447785             59.534        0.892470327            -30.091
               573       0.892483098            -30.251        0.444733659             59.347        0.445245973             59.478        0.892380353            -30.153
               574       0.891955375             -30.34          0.4454953              59.32          0.4461112             59.397         0.89236623            -30.186
               575       0.892112968            -30.386        0.446035938             59.247        0.446549752             59.339        0.891496931            -30.244
               576       0.891418089            -30.404        0.446458857             59.176        0.447436535             59.371        0.891623369            -30.282
               577       0.891117762            -30.429        0.447491819             59.211        0.447749491             59.279        0.891220362            -30.299
               578       0.890415262            -30.456        0.448118213              59.13        0.448376245             59.281        0.891440981            -30.385
               579       0.890225438            -30.514        0.448177449             59.111        0.449107182             59.219        0.890430444            -30.398
               580       0.890389368            -30.591          0.4492416             59.025        0.449655557             59.154        0.890184372            -30.462
               581       0.889713131            -30.606        0.449676301             59.009        0.450297981             59.099        0.889815568            -30.494
               582       0.889671275            -30.674         0.45032864             58.933        0.450899308              59.05        0.889364046            -30.533
               583        0.88879172            -30.738        0.451024361             58.912        0.451491938             58.964        0.889098751            -30.601
               584       0.888936175            -30.752        0.451305452             58.889          0.4523979             58.971        0.889345639            -30.657
               585       0.887943985             -30.82        0.452257283             58.822        0.452986824             58.884        0.889273948             -30.72
               586        0.88822045            -30.833        0.452919238             58.767        0.453284395             58.903        0.888731898            -30.747
               587       0.887843334            -30.927        0.453561662             58.713         0.45403187             58.803        0.888150037            -30.775
               588       0.887156012            -30.936        0.454203002             58.602        0.454203002             58.769        0.887360311            -30.888
               589       0.887503547            -30.974        0.454904358             58.632        0.455009116             58.771        0.887503547            -30.864
               590       0.886785552            -31.079        0.455374397             58.578        0.455846484             58.655        0.887500505            -30.933
               591       0.887058664            -31.119        0.456039375             58.529        0.456512152             58.651        0.886854435             -30.98
               592       0.885877976            -31.113        0.456587381             58.507        0.457060726             58.572        0.886898468            -31.028
               593       0.885993983            -31.196        0.457383794             58.445        0.457647161             58.532        0.886300048            -31.063
               594       0.885931207            -31.227        0.457930953              58.41        0.458194635             58.488        0.885829216             -31.13
               595       0.885013713            -31.268        0.457878235             58.346        0.458828092             58.489        0.884402578             -31.14
               596       0.884708093            -31.337        0.458669646             58.267        0.459462425             58.425        0.884809955            -31.194
               597        0.88500363            -31.388        0.459827618             58.258        0.459986464             58.363         0.88500363            -31.252
               598       0.883893622             -31.41        0.460521595             58.185        0.460468578              58.28        0.884809955            -31.344
               599       0.883964399             -31.49        0.460770615             58.143        0.461460757             58.229        0.884575231            -31.385
               600       0.883489338            -31.497        0.461584602             58.171        0.461744055             58.268        0.884608917            -31.334
               601        0.88401305            -31.578        0.462017766             58.051        0.462656508             58.211        0.883504317            -31.438
               602       0.882571705            -31.597        0.462753807             58.024        0.463020266             58.131        0.883791866            -31.505
               603       0.882673321            -31.624        0.463233544             58.035        0.463767168             58.118        0.882978238            -31.474
               604       0.882370871            -31.685        0.463821806             57.908        0.464409572              58.08        0.882980602             -31.57
               605        0.88208019            -31.715        0.464310033             57.907        0.465166112             58.006         0.88268972             -31.63
               606       0.881552555            -31.776        0.464941389             57.865        0.465852262             57.956        0.882263288            -31.632
               607       0.881147525            -31.833        0.465745455              57.81        0.466335659             57.868         0.88206101            -31.726
               608       0.881711642            -31.877        0.466365671             57.741        0.466956661             57.859        0.880899929            -31.766
               609         0.8807732            -31.898        0.466674522             57.684        0.467534961             57.807         0.88107746            -31.816
               610       0.880623234            -31.997        0.467670676             57.656        0.468209412             57.718        0.880724625            -31.876
               611       0.880002569            -31.963        0.468310548             57.694        0.468472325             57.738        0.880813455            -31.851
               612       0.879427415            -32.046        0.468705446             57.586        0.469299401             57.662        0.880237771            -31.936
