!{251R15S6R2}
!Johanson Technology Inc.
!www.johansontechnology.com
!Test Board Conditions:
!Substrate Type  RO4350B
!Substrate Thickness        20 mil
!Substrate Dk      3.66
!TL Type: GCPW 
!TL Trace Width  34 mil
!TL Gap  10 mil
!Electrode orientation      Horizontal
!DUT TOPOLOGY	SERIES
!Mounting Pad LxW         26x52 mil
! Created Thu Mar 12 16:43:32 2020
# mhz S ma R 50
! 2 Port Network Data from SP1.SP block
! freq  magS11  angS11  magS21  angS21  magS12  angS12  magS22  angS22  
!     
               500       0.488427378            -68.171        0.868260412             21.839        0.869661011             21.793        0.486911464            -67.648
               501       0.487416245            -68.207        0.868860392             21.777        0.869260609             21.762        0.486631256            -67.679
               502       0.486911464            -68.248        0.869160538             21.682        0.869961433             21.738        0.485679754            -67.837
               503       0.486687285            -68.352        0.869961433             21.603        0.871264462             21.667        0.485679754            -67.863
               504       0.485623841            -68.416        0.870362157             21.595        0.871866518             21.575        0.485065068            -67.882
               505       0.484897561            -68.426        0.870662822             21.485        0.871766147             21.552        0.483838029            -67.966
               506       0.483949449            -68.549        0.871465101             21.435         0.87226812             21.467        0.483448258            -68.007
               507       0.483559589            -68.703        0.872368549             21.362         0.87287087             21.363        0.482836396            -68.106
               508       0.482780811            -68.632         0.87226812             21.335        0.873474036             21.379        0.482003287            -68.148
               509       0.481614995            -68.676        0.871465101              21.25        0.873071879             21.302        0.481116222            -68.191
               510       0.481282422            -68.757         0.87246899             21.216        0.873675184             21.258        0.480230788            -68.245
               511       0.480617965            -68.847        0.873373479             21.123        0.874681619             21.159        0.479622999            -68.331
               512       0.480120224             -68.92        0.873775775             21.077        0.874983775             21.088         0.47907113            -68.422
               513       0.479291801            -68.973        0.874178256             21.013        0.875487601             21.038        0.478409726            -68.496
               514       0.478464808            -69.012        0.873976993             20.997        0.874883045             20.976        0.477749235            -68.498
               515       0.477694235            -69.121        0.875286036             20.891        0.876092576             20.911        0.476869998            -68.596
               516       0.476760207            -69.098        0.874580923             20.842        0.875487601             20.891        0.475882791             -68.62
               517       0.476266462            -69.235        0.875588401             20.765         0.87639522             20.785        0.475499429            -68.733
               518       0.475663689            -69.266        0.875790036             20.735        0.877303779             20.771        0.474788291            -68.776
               519       0.474569693            -69.357        0.876496124             20.666        0.877707885             20.672        0.474678979            -68.789
               520       0.473859945            -69.452        0.877000821             20.579        0.877707885             20.574        0.473696308            -68.928
               521       0.473750848            -69.428        0.877404788             20.508        0.878820138             20.589        0.472770098            -68.944
               522        0.47287897            -69.514         0.87821328             20.472        0.878314394              20.49        0.471954357            -69.047
               523       0.471791378            -69.614        0.877707885              20.41        0.878820138             20.442        0.471194269            -69.089
               524       0.470977326             -69.66        0.878011087              20.34        0.879123724             20.343        0.470381248            -69.113
               525        0.47048957            -69.674        0.878718966             20.299        0.879224943             20.304        0.469515571            -69.206
               526       0.470056432            -69.826        0.879123724             20.197        0.879832499             20.221        0.468921343            -69.276
               527       0.469677764            -69.871        0.879629934             20.181        0.880643228             20.203        0.468435715            -69.305
               528       0.468975333            -69.888          0.8799338             20.108        0.881454704              20.11        0.467896719            -69.399
               529       0.467842854            -69.943        0.879731211             20.039        0.880846027             20.071        0.466605657            -69.493
               530       0.466928088             -70.03        0.881353229             19.995        0.881759201             20.026        0.467035615            -69.486
               531       0.466283449            -70.073        0.881454704              19.94         0.88165769             19.936        0.465961463            -69.571
               532       0.466283449            -70.086        0.881556192             19.934        0.881759201             19.911         0.46510392            -69.626
               533       0.465318158            -70.196        0.880339118             19.835        0.882876587             19.859        0.463927375            -69.617
               534       0.464889781            -70.279        0.882063802             19.736        0.883588388             19.778        0.463713778            -69.734
               535        0.46398079            -70.324        0.882571705              19.69        0.883588388             19.729        0.462966962            -69.846
               536       0.462966962            -70.373        0.883588388             19.612         0.88328326             19.686        0.462753807            -69.887
               537       0.462647266            -70.377        0.883384958             19.614        0.884097169              19.63        0.461689502            -69.897
               538       0.462168136            -70.497         0.88328326             19.533        0.885217518             19.565        0.461052095            -69.937
               539       0.461636352            -70.535        0.884606243             19.487        0.885727237             19.508        0.460256574            -70.056
               540       0.461052095            -70.612        0.885013713             19.418        0.885217518             19.424        0.459568232            -70.065
               541       0.459938749            -70.647        0.886033209             19.348        0.885727237             19.377        0.459303759            -70.206
               542        0.45940953            -70.699        0.885013713             19.291        0.885523315             19.328        0.458194635             -70.23
               543       0.458722455            -70.745         0.88562527             19.217        0.885829216             19.286        0.457509377            -70.291
               544       0.458089144            -70.851         0.88511561             19.166        0.886339287             19.215        0.456719968            -70.342
               545        0.45724609            -70.867        0.885727237             19.097        0.887258156             19.165        0.456457135            -70.404
               546       0.456877741            -70.911        0.886441337             19.095        0.888075727             19.107        0.456036916            -70.461
               547       0.456246977            -70.979        0.886645471             19.007        0.888280237             19.062        0.454883307            -70.508
               548       0.455354885            -71.055        0.886849652             18.943         0.88879172              18.99        0.454307598            -70.576
               549       0.454935681             -71.19        0.887462478             18.916        0.888484795             18.872        0.453314906            -70.599
               550       0.454255297            -71.148          0.8886894             18.848        0.888996395             18.877        0.452793308             -70.69
               551       0.453210539            -71.241        0.888177976             18.813          0.8886894              18.81        0.452532735            -70.725
               552       0.453054032            -71.313        0.889098751             18.683        0.889610704             18.777        0.451751913             -70.82
               553       0.452012037            -71.347        0.888894052             18.684        0.889201118             18.683         0.45086861            -70.858
               554        0.45206408            -71.427        0.889405888               18.6         0.89073804             18.652        0.450609144            -70.944
               555       0.450661025            -71.469         0.88950829             18.528        0.890635496             18.582        0.450038844            -70.983
               556       0.450349827            -71.511        0.890122953             18.518         0.89073804              18.51        0.449314051            -71.054
               557       0.449469265            -71.619        0.890225438             18.415        0.891045744             18.481        0.448487146            -71.104
               558       0.449003783            -71.636        0.890635496             18.399        0.891866805             18.405        0.447764852            -71.163
               559        0.44822905            -71.693         0.89073804             18.353        0.891866805             18.319        0.447301135            -71.205
               560       0.447352635            -71.783        0.889918018             18.265        0.891764131             18.271        0.445964203            -71.239
               561       0.447198152            -71.861        0.891250938             18.212        0.892894196             18.242         0.44601555            -71.315
               562       0.446426534            -71.884        0.890840596             18.148        0.892791404             18.197        0.445194715            -71.324
               563       0.445810199            -71.914        0.891969491             18.114        0.892688623             18.163        0.444836075            -71.388
               564       0.445194715             -72.01        0.892894196             18.034         0.89381986             18.082        0.444375391            -71.506
               565       0.444938514             -72.08        0.892894196             18.003         0.89392277             18.033        0.443353356            -71.545
               566       0.444119661            -72.105        0.893202644             17.922         0.89381986             17.963        0.442792239            -71.571
               567       0.443047204            -72.142           0.892997              17.89         0.89381986              17.94        0.442231832            -71.617
               568        0.44263933            -72.198        0.893202644             17.805          0.8948495             17.867        0.441722987            -71.779
               569       0.441824709            -72.245        0.893614074              17.79        0.894746483             17.809        0.441011587            -71.758
               570       0.441316332            -72.261         0.89381986             17.712        0.895467854             17.798        0.440352027            -71.819
               571       0.440910052            -72.341        0.895261689             17.677        0.895570955             17.699        0.440047948            -71.864
               572       0.439794709            -72.387        0.894540484             17.647        0.895467854             17.659        0.439288668            -71.886
               573       0.439238096            -72.451        0.894025693             17.579        0.895570955             17.595        0.438429734            -71.975
               574       0.438884254            -72.567        0.895261689             17.469        0.896499393             17.523        0.437824439            -72.066
               575       0.437723638             -72.57        0.895364766             17.492        0.895777191             17.487         0.43721998            -72.052
               576        0.43762286            -72.626        0.896086635             17.375        0.896809087               17.4        0.436616355            -72.162
               577       0.436918063            -72.676        0.896189807             17.353        0.897118887             17.377        0.436063765            -72.223
               578       0.436415332            -72.749        0.896602613             17.317        0.897118887             17.291        0.434960681            -72.271
               579       0.435812819            -72.795        0.897222178             17.229        0.897428795             17.298         0.43476042            -72.312
               580       0.435060846            -72.823        0.897945545             17.173        0.897635459             17.234        0.434310171            -72.394
               581       0.434510224            -72.912        0.897015608             17.069        0.898669495             17.197        0.433211523            -72.403
               582       0.433810441            -72.924        0.897945545              17.09        0.898772964             17.095        0.433211523            -72.474
               583       0.433361175                -73        0.898772964              17.03        0.898979938             17.047        0.432613432             -72.54
               584       0.432713057            -72.996        0.898255738             16.991        0.898876445             17.017        0.431916704            -72.575
               585       0.432165406            -73.105        0.898359159             16.882        0.899601146             16.922        0.431022558            -72.687
               586       0.431519077            -73.139        0.898566038             16.882        0.900222783             16.874         0.43057618            -72.713
               587       0.430377938            -73.214        0.898669495             16.803        0.899083443             16.815        0.429734281             -72.79
               588       0.430229316            -73.225        0.898876445             16.742        0.900326431             16.827        0.429338663            -72.784
               589       0.430031234            -73.264        0.899911911             16.691        0.900533763              16.76        0.428597862            -72.859
               590       0.429486977            -73.376        0.900015523             16.624        0.900948569             16.725        0.428351212            -72.878
               591       0.428795284            -73.393        0.900326431             16.607        0.900741142             16.648        0.427513664            -72.954
               592       0.428153994            -73.481        0.901363567             16.545        0.900948569             16.567        0.426825148            -73.054
               593       0.427267638            -73.474        0.901674941             16.489        0.901571138             16.578        0.426677754            -73.087
               594       0.427021754            -73.544        0.901467346             16.503        0.902090273             16.528        0.426088684            -73.094
               595       0.426481307            -73.639        0.902090273             16.361        0.902401898              16.44        0.425745435            -73.204
               596       0.425647415            -73.674        0.901363567             16.365        0.902401898              16.44        0.424570681            -73.166
               597       0.425108707            -73.755        0.902921512              16.32        0.903129441             16.317        0.424717347            -73.248
               598       0.424717347            -73.724        0.901986422             16.248        0.902921512             16.293         0.42354543            -73.337
               599       0.424228655            -73.795        0.902298011             16.222        0.903337418             16.231        0.422863305            -73.345
               600       0.423447916            -73.898        0.903233424             16.154        0.903233424             16.151        0.422474013            -73.422
               601       0.422765949            -73.986        0.903441425             16.064        0.903337418             16.131        0.421696503            -73.474
               602       0.422279501            -73.984        0.903649474             16.023        0.904273908             16.135        0.421405306            -73.507
               603       0.422036488            -74.029        0.904169806             15.989        0.904273908             16.056        0.420871967            -73.572
               604       0.420920425             -74.05        0.903961637             15.995        0.904482149             15.982        0.420436101             -73.59
               605       0.420436101            -74.087        0.904690438             15.862          0.9047946             15.927        0.420097406            -73.741
               606       0.420049043            -74.174        0.904690438             15.836        0.905628331             15.918        0.419517421            -73.702
               607       0.419420834            -74.185        0.904586287             15.811        0.905628331             15.809        0.418359851            -73.751
               608       0.418552558            -74.245        0.905211369              15.71        0.904898774             15.807        0.417830367            -73.824
               609       0.418504373            -74.295        0.905732601             15.729        0.906775965             15.777        0.417637993            -73.841
               610       0.417734169            -74.347        0.905941178              15.66        0.906149802             15.717        0.416821392            -73.932
               611        0.41701339            -74.394        0.906254133             15.625        0.906775965             15.621        0.416389721            -74.011
               612       0.416533562             -74.44        0.905836883             15.535        0.906984782             15.546         0.41586273            -74.087
