!{251R15S120}
!Johanson Technology Inc.
!www.johansontechnology.com
!Test Board Conditions:
!Substrate Type  RO4350B
!Substrate Thickness        20 mil
!Substrate Dk      3.66
!TL Type: GCPW 
!TL Trace Width  34 mil
!TL Gap  10 mil
!Electrode orientation      Horizontal
!DUT TOPOLOGY	SERIES
!Mounting Pad LxW         26x52 mil
! Created Thu Mar 12 16:47:38 2020
# mhz S ma R 50
! 2 Port Network Data from SP1.SP block
! freq  magS11  angS11  magS21  angS21  magS12  angS12  magS22  angS22  
!     
               500       0.280156046            -80.869          0.9546628              8.661        0.955872572              8.636        0.279769264            -80.711
               501        0.27983369            -80.932        0.956643225              8.631        0.956533093              8.657        0.279576073            -80.844
               502         0.2789973            -80.983        0.955762529              8.558        0.956533093              8.526        0.278900954             -80.89
               503       0.278099367            -81.065        0.956422975              8.509        0.956422975              8.488        0.278483841            -80.944
               504       0.277715424            -81.068        0.956092695              8.489        0.957414499              8.443        0.278195435            -80.964
               505       0.277395876             -81.09        0.955872572              8.435        0.956973695              8.421        0.277172411            -80.947
               506       0.276630461            -81.142        0.956092695              8.362        0.956863525              8.352        0.276694165            -81.101
               507       0.276471265            -81.304        0.957194071              8.271        0.956863525              8.297        0.276439437            -81.138
               508       0.275835399            -81.252        0.956753369              8.323        0.957083877              8.271        0.276026005            -81.151
               509       0.275359459            -81.391        0.957414499              8.237        0.957414499              8.203        0.275486296            -81.219
               510       0.274821053            -81.313        0.956202776              8.181        0.957855506               8.16        0.274662899            -81.267
               511       0.274410042              -81.4        0.956973695              8.131        0.957634977              8.133        0.274346864            -81.295
               512       0.273621362            -81.462        0.957304279              8.091        0.957194071              8.087        0.273810438            -81.345
               513       0.273526873            -81.522        0.958076086              8.064        0.958627757              8.017        0.273558365            -81.364
               514       0.272929199            -81.527        0.957855506              7.992        0.958186395              8.031        0.272960623            -81.483
               515       0.272803539            -81.613        0.957745235              7.949        0.958627757               7.96        0.272552393            -81.476
               516       0.272238786            -81.695        0.957965789              7.985        0.958627757              7.908        0.272176108            -81.442
               517       0.271487601             -81.64        0.958076086              7.836        0.959400632              7.864        0.271612655            -81.571
               518       0.270676156            -81.718        0.957965789              7.819        0.958958913              7.846        0.271362605            -81.589
               519       0.270925573            -81.742        0.958186395              7.751        0.959179747              7.816        0.270676156            -81.584
               520       0.269929282            -81.822        0.958517398              7.731        0.959179747              7.753        0.270271343             -81.69
               521        0.26937048            -81.854        0.958958913              7.713        0.959179747              7.673        0.269463533            -81.765
               522       0.268998588            -81.909         0.95873813              7.645        0.959290183              7.669        0.269246459            -81.794
               523       0.268596284            -81.945        0.958848515              7.599        0.959621567              7.581        0.268812834            -81.846
               524       0.268287229            -82.038        0.960063591              7.556        0.960063591               7.55        0.268472619            -81.864
               525       0.267947679            -82.019        0.958517398              7.513        0.959400632              7.555        0.267701004            -81.902
               526       0.267331417            -82.028        0.959621567              7.493        0.960063591               7.53        0.267362196            -81.973
               527        0.26696234            -82.164        0.960063591              7.412        0.959953066              7.454        0.266655165            -82.036
               528       0.266041875            -82.187        0.959179747              7.385        0.960174129              7.382        0.266256366            -82.065
               529       0.265888773             -82.14        0.959511093               7.36        0.960395242              7.356        0.265858163            -82.065
               530       0.265216171             -82.27        0.960727008              7.292        0.959511093              7.298        0.265216171            -82.096
               531       0.264819524            -82.301        0.960505818              7.258        0.960837623              7.301        0.265124584            -82.135
               532       0.264514814            -82.378        0.960837623              7.217        0.960505818              7.194        0.264484363            -82.215
               533       0.264362591            -82.401        0.960837623              7.134        0.961058889              7.172        0.264119216            -82.308
               534       0.263845687            -82.431        0.961169542              7.142        0.961390884              7.137        0.263390435            -82.349
               535       0.263026799            -82.492        0.962055219              7.074        0.960616407              7.089        0.263420761            -82.345
               536       0.262845169            -82.539        0.960505818              7.065         0.96094825              7.067         0.26281491             -82.36
               537       0.262331233            -82.546        0.961612278              7.009        0.961058889              6.978        0.262180266            -82.443
               538       0.261758022            -82.593        0.961501575              6.924        0.961722994              6.988        0.261697757            -82.463
               539       0.261456835            -82.637        0.960837623              6.975        0.962387559              6.912        0.261306372            -82.499
               540       0.260795444            -82.726         0.96094825              6.882        0.961722994              6.864        0.260615355            -82.573
               541       0.260615355            -82.728         0.96094825               6.82        0.962055219              6.823        0.260135726            -82.657
               542       0.260075834            -82.794         0.96094825              6.774        0.961722994               6.81        0.259896242            -82.622
               543       0.259627087            -82.871        0.962055219              6.727        0.962609182              6.735         0.25953743            -82.678
               544       0.259000141            -82.837        0.961722994               6.67        0.962165986              6.712        0.259179113             -82.73
               545       0.258851091            -82.878        0.962055219              6.672        0.962387559              6.666        0.258553249            -82.713
               546       0.258583018            -82.935        0.962276766               6.68        0.962055219              6.631        0.258285485            -82.771
               547       0.257839826            -82.974        0.962276766                6.6        0.962609182              6.628        0.257750787            -82.812
               548       0.257306051            -83.026        0.962498364              6.565        0.962165986              6.557        0.257365305            -82.902
               549       0.256714264            -83.068        0.962165986               6.47        0.963052582              6.522        0.256773381            -82.928
               550       0.256448404            -83.142        0.963163464              6.447        0.962609182              6.446        0.256773381            -82.997
               551       0.256300823            -83.183        0.962830857              6.441        0.962941713              6.416        0.255888047            -82.951
               552       0.255711347            -83.247        0.963163464              6.398        0.963607119              6.397        0.255770234            -83.021
               553       0.255240743            -83.244        0.963052582              6.364        0.963496186               6.39        0.255181978            -83.045
               554       0.254829675            -83.265        0.962720013               6.29        0.964161976              6.315        0.254683025            -83.185
               555       0.254507157            -83.327        0.962941713              6.238        0.964272986              6.292        0.254272855             -83.13
               556       0.253951042            -83.386        0.963274359              6.228        0.963274359              6.214        0.253980281            -83.171
               557       0.253629637            -83.421        0.962720013              6.166        0.964161976              6.219        0.253425318            -83.216
               558       0.253017174            -83.481        0.964272986              6.137        0.963829024              6.192          0.2529298            -83.232
               559       0.252667859            -83.463        0.963829024              6.083        0.964272986              6.103        0.252551528            -83.281
               560       0.252260934            -83.514        0.963939995              6.069        0.964495043              6.116        0.252144791            -83.311
               561       0.252173822            -83.582        0.963939995              5.973        0.965050411              6.066         0.25179668             -83.43
               562       0.251420103            -83.585        0.963718065              5.951        0.964272986              6.026        0.251420103            -83.391
               563       0.250784101            -83.633        0.963829024              5.906        0.964272986              5.916        0.250957396            -83.524
               564       0.250697498            -83.627        0.964272986              5.885        0.963939995              5.936        0.250466704            -83.516
               565       0.250236121            -83.704        0.963718065              5.887        0.964495043              5.873        0.249948192            -83.567
               566       0.249718087            -83.778        0.963939995              5.812        0.964495043              5.855        0.249660594            -83.576
               567       0.249287212            -83.796        0.964161976                5.8        0.964717152              5.775        0.248971709            -83.622
               568       0.249172437            -83.845        0.964161976              5.768        0.965383785              5.735        0.248857079            -83.626
               569       0.248542121            -83.897        0.964495043              5.685        0.965494935              5.733        0.248313311            -83.746
               570       0.248141841            -83.895        0.964606091               5.68        0.965272648              5.682        0.248113274            -83.751
               571       0.247713685            -84.001        0.965494935              5.646        0.965383785              5.611         0.24777073            -83.788
               572       0.247457146            -84.084        0.965494935              5.543        0.966050879              5.534        0.247200873             -83.87
               573       0.246973297            -84.063        0.965828463              5.553        0.965606099              5.535        0.246802753            -83.883
               574       0.246547158            -84.134        0.964939312              5.479        0.965383785              5.501        0.246235123            -83.813
               575       0.246376908            -84.166        0.965494935              5.456        0.966162106              5.484        0.246008436             -83.96
               576       0.246008436            -84.174        0.965272648              5.439        0.966050879              5.455        0.245612237            -84.026
               577       0.245386124            -84.219        0.966162106              5.374        0.965606099              5.365        0.245019134            -84.036
               578       0.244624528            -84.254        0.964828225              5.332        0.965828463              5.362        0.244680861            -84.062
               579       0.244568207             -84.32        0.965494935              5.323        0.965717274              5.355          0.2445119            -84.091
               580       0.244005716            -84.326        0.966050879              5.247        0.966162106              5.264        0.244258677            -84.135
               581       0.243696897            -84.413        0.966384599              5.173        0.966495864              5.226        0.243584697            -84.254
               582       0.243192401            -84.416        0.965717274              5.192        0.966384599              5.225         0.24313641            -84.189
               583        0.24299649            -84.441        0.965939665              5.169        0.966829738              5.163        0.242772785            -84.191
               584       0.242465527            -84.479        0.966162106              5.109        0.966162106              5.118        0.242577212            -84.243
               585       0.242158657            -84.549        0.966050879               5.06        0.967052384              5.054        0.242130779            -84.328
               586         0.2420193            -84.573        0.966273346              5.031        0.966941055              5.088        0.241824334            -84.365
               587       0.241462671            -84.602        0.966941055               4.97         0.96738645              5.023        0.241268153            -84.415
               588        0.24101829            -84.632        0.966718434              4.924        0.967052384               4.98        0.240740967            -84.434
               589       0.240713252            -84.709        0.966273346              4.939        0.967497831              4.885          0.2404086             -84.48
               590       0.240159627            -84.719        0.966495864              4.831        0.967163727              4.932         0.24002142            -84.458
               591       0.239938533            -84.752        0.966941055              4.867        0.967275082              4.885        0.239800453            -84.529
               592       0.239111245            -84.788        0.967497831              4.778        0.967163727              4.831        0.239496957            -84.597
               593       0.239028673            -84.759        0.967163727              4.764        0.967720631              4.808        0.239083717            -84.649
               594       0.238616241            -84.837        0.967163727              4.755         0.96783205              4.765        0.238808621            -84.676
               595       0.238012628            -84.939        0.967497831              4.689        0.967943483              4.686        0.238314244            -84.712
               596        0.23782089            -84.951        0.966829738              4.659         0.96738645              4.671        0.237465214            -84.777
               597       0.237383211            -85.004        0.967943483              4.675        0.967275082              4.618        0.237328558             -84.72
               598       0.237219289            -85.041         0.96738645               4.57         0.96838934              4.605        0.237410542            -84.867
               599       0.236755458            -85.121        0.967720631              4.534        0.968277856               4.55        0.236755458              -84.9
               600       0.236537499            -85.088        0.967609225               4.52        0.968166386              4.581        0.236346949            -84.905
               601       0.236156552            -85.156        0.968166386              4.492         0.96894695              4.432        0.236020649            -84.955
               602       0.235803366            -85.185        0.968277856              4.413         0.96838934               4.49        0.235532043            -84.966
               603       0.235450708            -85.209         0.96783205              4.385        0.969616506              4.414         0.23531521            -85.022
               604       0.234855102            -85.295        0.968612345              4.335        0.968612345              4.371        0.234963282            -84.997
               605       0.234801031            -85.254        0.969058511              4.316        0.970174823              4.339        0.234882143             -85.08
               606       0.234530862            -85.372         0.96838934              4.331         0.96928167              4.262        0.234180107            -85.068
               607       0.233910652            -85.377        0.968723867              4.265         0.96894695              4.287        0.233749128             -85.14
               608       0.233910652            -85.453        0.968835402              4.216        0.969058511              4.253        0.233641508            -85.147
               609       0.233318943            -85.424        0.968277856              4.152        0.969839794              4.242        0.233050479            -85.212
               610        0.23272873            -85.517         0.96894695              4.205        0.969170084              4.128        0.232809126            -85.231
               611       0.232755526            -85.484         0.96928167              4.078        0.969058511              4.156        0.232568022            -85.307
               612       0.231979709            -85.552         0.96928167              4.094        0.968835402              4.097        0.232193469            -85.234
