!{201R07S3R0}
!Johanson Technology Inc.
!www.johansontechnology.com
!Test Board Conditions:
!Substrate Type  RO4350B
!Substrate Thickness        10 mil
!Substrate Dk      3.66
!TL Type: GCPW 
!TL Trace Width  21 mil
!TL Gap  20 mil
!Electrode orientation      Horizontal
!DUT TOPOLOGY	SERIES
!Mounting Pad LxW         16x21 mil
!Agilent Technologies,N5230A,MY45001966,A.07.50.67
!Agilent N5230A: A.07.50.67
! Created Mon Mar  9 16:28:33 2020
# mhz S ma R 50
! 2 Port Network Data from SP1.SP block
! freq  magS11  angS11  magS21  angS21  magS12  angS12  magS22  angS22  
!     
               500       0.748427954             -43.76        0.656825492             45.895        0.658870404             45.968        0.748514125            -43.632
               501       0.748160003            -43.771        0.658103934             45.879        0.659089643             45.955        0.748246143            -43.655
               502       0.746878573            -43.847        0.658263842             45.819        0.660237215             45.836        0.747308634            -43.752
               503       0.746706617             -43.94        0.659022132             45.736        0.660845596             45.742        0.746276902            -43.796
               504       0.745668418            -44.008        0.660306769             45.672        0.661905133             45.728        0.746441452            -43.885
               505       0.745075015            -44.063        0.660769518             45.605        0.662216504             45.645        0.744646238            -43.916
               506       0.744682278            -44.161        0.661943648             45.515        0.663316833             45.576        0.744510829            -44.011
               507       0.743532575            -44.153        0.662674105              45.49        0.663437476             45.546        0.744132033            -44.031
               508       0.742848071            -44.186        0.663666659             45.435          0.6642782             45.499        0.743446977             -44.13
               509       0.742078758            -44.355        0.664125262              45.34        0.664507673             45.362        0.741907908            -44.167
               510       0.741755727            -44.353        0.665136695             45.302        0.666132938             45.342        0.742011965            -44.254
               511       0.741182682            -44.406        0.665465068             45.247        0.666845559              45.28        0.741268019            -44.292
               512       0.740337876            -44.504        0.666008802              45.13        0.667851597               45.2        0.740337876             -44.37
               513       0.739662323             -44.54        0.667011769             45.136        0.668395469             45.153         0.74017344            -44.414
               514        0.73910286             -44.63        0.667813022             45.021        0.669121343             45.085        0.739443308            -44.512
               515        0.73849915            -44.724        0.668266976             44.947        0.669653279             45.003         0.73849915            -44.598
               516       0.737309789            -44.739        0.668959769             44.912        0.670810729             44.952        0.738074158            -44.666
               517       0.736461418            -44.822         0.67042469             44.811        0.671351556               44.9        0.737309789            -44.694
               518       0.736376635            -44.882        0.670579079             44.808        0.672047547             44.829        0.736122343            -44.716
               519       0.735529338            -44.931        0.671428853              44.72        0.672202309             44.765        0.735190692            -44.804
               520       0.734513868            -44.958        0.672047547             44.683        0.673364164             44.722        0.735444662            -44.893
               521        0.73409117            -45.094        0.672821716             44.574         0.67460569              44.65        0.734429309            -44.907
               522       0.733162089             -45.11        0.673751895             44.532        0.674295094             44.615        0.734006659            -44.978
               523       0.732824533            -45.193        0.674761042             44.488        0.675771699             44.519        0.733162089            -45.059
               524       0.732318491             -45.26        0.675305054             44.426        0.676472272             44.461        0.732318491            -45.105
               525       0.731391654            -45.325        0.676082975             44.384        0.677251538             44.392        0.732234184            -45.171
               526       0.730634205            -45.374        0.676783871             44.263        0.677641508             44.353        0.731223264            -45.277
               527       0.730158354            -45.423         0.67720017              44.28        0.679308515             44.258        0.730831165            -45.351
               528       0.728869874            -45.514        0.678344019             44.169        0.679125441             44.224        0.729961576            -45.383
               529        0.72912166            -45.496        0.678734617             44.142         0.67982949             44.197        0.728785964            -45.409
               530       0.728366562            -45.609        0.679438262             44.064         0.68084774             44.103        0.727863598            -45.512
               531       0.726691366            -45.718        0.679986045             43.997         0.68123978             44.013        0.727528482            -45.545
               532       0.726698616            -45.728        0.681246577             43.979        0.682345502             43.986        0.727451984             -45.57
               533       0.725604554            -45.811        0.681867514             43.831        0.682260142             43.925        0.726273169            -45.702
               534       0.724769652            -45.856          0.6828102             43.808        0.683124718             43.914        0.726105957            -45.746
               535       0.724860637            -45.917        0.683446488             43.787        0.684470155             43.804        0.725528566            -45.779
               536       0.724185792            -45.968        0.683754189             43.721        0.685251508             43.746        0.724686215            -45.856
               537       0.723155481            -46.034        0.684828274             43.621        0.685932976             43.666        0.724238624            -45.948
               538       0.723019483            -46.113        0.685646084             43.578        0.686198872             43.647        0.723102728            -45.973
               539       0.722466773            -46.134        0.685911174             43.507        0.687254953             43.575        0.722799558            -46.062
               540       0.721688857            -46.217        0.686593994             43.492        0.688097532             43.506        0.722104414            -46.092
               541       0.721107479            -46.232        0.687622375             43.378        0.688335233             43.482         0.72085846            -46.186
               542       0.720526569            -46.352        0.688573017             43.356        0.688731585             43.417        0.720526569            -46.183
               543       0.719634392            -46.347        0.688591901             43.296        0.690099814             43.362        0.720131669            -46.259
               544       0.718786646             -46.45        0.690001445             43.179        0.690319275             43.286        0.719448978            -46.344
               545       0.718564484            -46.482        0.690264833             43.133         0.69161714             43.207        0.718068288            -46.432
               546       0.717546417            -46.588        0.690796296             43.058        0.692309036             43.132        0.717711657             -46.48
               547       0.716555774            -46.633        0.691910625              43.04        0.692149644             43.086         0.71721605            -46.507
               548       0.715978531            -46.694        0.692388746             42.994        0.693425806             43.032        0.717050924            -46.562
               549       0.715888611             -46.77        0.693737951             42.902        0.694137413             42.969        0.715971035            -46.681
               550       0.715159366            -46.858        0.694069293             42.821        0.695028848              42.91        0.715406416            -46.732
               551       0.714454069            -46.907        0.694983212             42.783        0.695463455              42.87        0.715112408            -46.784
               552       0.713079575            -46.921        0.695245196             42.695        0.696767679             42.832        0.714312083            -46.872
               553       0.712935105            -47.044        0.696065326             42.604        0.696867162             42.778        0.713427753            -46.875
               554       0.712875571            -47.049        0.696488152             42.599        0.697611663             42.721        0.712793503            -46.953
               555       0.711950829            -47.177        0.697107893             42.523        0.698393197             42.597        0.711950829            -47.024
               556       0.711396845            -47.169        0.698010466             42.426        0.698895002             42.566        0.711314947            -47.139
               557       0.710476962            -47.263        0.698714893             42.446         0.69968087             42.497        0.710886063            -47.132
               558        0.70949608            -47.301        0.698634455             42.341        0.700325597             42.473        0.709741173            -47.145
               559       0.709052661            -47.347        0.700290913             42.263        0.701016905             42.392        0.709134298             -47.28
               560       0.708598127            -47.447        0.700164359             42.229        0.702182497              42.34        0.708190342            -47.307
               561       0.708038672            -47.481        0.701951294             42.204        0.702193781             42.278        0.707875659            -47.359
               562       0.707131201            -47.528        0.702344199             42.136        0.702586822             42.221        0.707538375            -47.428
               563        0.70625227            -47.624        0.702521883             42.083        0.703898203             42.132        0.707065841            -47.479
               564       0.705748559            -47.636         0.70307232             42.026        0.704368621             42.109        0.706236241            -47.524
               565       0.705690216            -47.731        0.703824039             41.976        0.705202911             42.022        0.705365308            -47.612
               566       0.704611943            -47.795        0.705180022             41.871        0.705423624             41.946        0.704530826            -47.704
               567       0.703882228            -47.857        0.705423624             41.815        0.706073643              41.91         0.70396327            -47.722
               568       0.703089381            -47.911        0.706090777             41.777        0.707066952             41.867        0.703737249            -47.772
               569       0.702586822            -47.949          0.7066429             41.688        0.707619838             41.827        0.702748618            -47.852
               570       0.701939807            -48.014        0.708108605             41.601        0.707782584             41.729         0.70218229            -47.975
               571       0.700244973            -48.037        0.707864284             41.582        0.708190342             41.702        0.701213066            -47.988
               572       0.700648183            -48.073        0.708271881             41.551        0.709332731             41.628        0.700406229             -48.03
               573       0.700003159            -48.163        0.709251071             41.465        0.709741173             41.583        0.700083755            -48.094
               574       0.698875796             -48.28        0.710149851             41.427        0.710640574             41.474        0.699761428            -48.153
               575       0.698634455            -48.318        0.710558763             41.336        0.711213514             41.424        0.698554026            -48.223
               576       0.697830585            -48.348        0.711131637             41.279        0.712114781             41.434        0.698554026            -48.258
               577        0.69702764            -48.396        0.711786915             41.271        0.712442797             41.316        0.697268426            -48.311
               578       0.696413898            -48.438        0.712881639             41.214        0.713210009             41.304        0.697456987            -48.382
               579        0.69574485            -48.481        0.712770965             41.156        0.713838554             41.249         0.69630578            -48.421
               580       0.695264412            -48.573        0.713756375             41.076        0.714331826              41.16        0.695504589            -48.476
               581       0.694384471            -48.609        0.713920742             41.075        0.714907742             41.101        0.694624345            -48.498
               582       0.694224602            -48.695        0.714743147             40.977        0.715648887             41.043        0.694224602            -48.563
               583       0.692627929            -48.766        0.715566499             40.937        0.715896106             40.938        0.693345977            -48.649
               584       0.692548192            -48.812        0.715731284             40.889        0.717133483             40.924        0.693345977            -48.716
               585       0.691512444            -48.876        0.716968376             40.802        0.717876935             40.829         0.69294697            -48.819
               586       0.691114492             -48.89        0.717546417             40.739        0.717876935             40.842        0.691990289            -48.841
               587       0.690398756            -48.996        0.718207606             40.678        0.718952172             40.755        0.691194064            -48.873
               588       0.689286861            -49.014        0.718703897             40.575        0.718621158             40.681        0.690001445            -48.993
               589       0.689604362            -49.068        0.719863245             40.569        0.719780373             40.692        0.690160342            -48.998
               590       0.688484997             -49.17        0.720185679             40.487         0.72060037             40.548        0.689595599            -49.086
               591       0.688335233            -49.224        0.720609528             40.437        0.721356584              40.55        0.688652296             -49.12
               592       0.687428213            -49.233        0.721069876             40.437        0.722149895             40.447         0.68806165            -49.172
               593       0.686593994            -49.328        0.722187555             40.345        0.722270704             40.411        0.687305786            -49.233
               594       0.686514951            -49.348        0.722520211             40.293        0.723185983             40.365        0.686435918            -49.318
               595       0.685093741             -49.41        0.721855052             40.232        0.723435806             40.347        0.684778317            -49.321
               596       0.684463037            -49.488        0.722936247             40.161        0.724102422             40.281        0.684857159            -49.355
               597       0.684069142            -49.544        0.724686215             40.103        0.724519369             40.219        0.684857159            -49.458
               598         0.6828102            -49.594        0.724853099             40.073        0.725020022             40.096        0.683675473            -49.535
               599       0.682876012            -49.672        0.725423895             39.974         0.72634317             40.039        0.683583949            -49.601
               600       0.681789016            -49.692        0.726105957             39.998        0.726440419             40.065        0.683124718            -49.601
               601       0.681938678            -49.775        0.727101974             39.863        0.727353149             40.002        0.682252795            -49.682
               602       0.680299262             -49.83        0.727026096             39.837        0.727696021             39.903         0.68123978            -49.757
               603       0.679907763            -49.821        0.727444727             39.822        0.728198869             39.906        0.680455925             -49.74
               604       0.679281833            -49.942        0.728366562             39.732        0.728953793             39.824        0.680142636            -49.816
               605       0.678812764            -49.968        0.728785964             39.684        0.729961576             39.754         0.67982949            -49.914
               606       0.677953645            -50.015         0.72945751             39.631        0.730802459             39.703        0.678812764            -49.942
               607       0.677251538            -50.074         0.73004562             39.567        0.730970752             39.636        0.678500231            -50.038
               608       0.676939724            -50.151        0.730718327             39.495        0.731223264             39.574        0.677095613            -50.077
               609       0.676238667            -50.158        0.730718327             39.453        0.732149888             39.537        0.676783871             -50.11
               610       0.675382806            -50.269        0.731812798             39.397        0.732655813             39.437        0.676005143            -50.212
               611       0.674838731            -50.242        0.732402807               39.4        0.733077685             39.445        0.675771699            -50.202
               612       0.673829468            -50.336        0.732740168             39.297        0.733837667             39.377        0.674916429            -50.301
