!{251R14S101}
!Johanson Technology Inc.
!www.johansontechnology.com
!Test Board Conditions:
!Substrate Type  RO4350B
!Substrate Thickness        20 mil
!Substrate Dk      3.66
!TL Type: GCPW 
!TL Trace Width  36 mil
!TL Gap  12 mil
!Electrode orientation      Horizontal
!DUT TOPOLOGY	SERIES
!Mounting Pad LxW         26x36 mil
! Created Wed Mar 11 15:49:26 2020
# mhz S ma R 50
! 2 Port Network Data from SP1.SP block
! freq  magS11  angS11  magS21  angS21  magS12  angS12  magS22  angS22  
!     
               500      0.0169961283            -87.447        0.998274551             -4.186        0.997700064             -4.146       0.0168694141            -96.764
               501      0.0169453288            -87.924        0.997929819             -4.179        0.998389489             -4.152       0.0168635886            -96.818
               502      0.0168713564            -88.238         0.99884937             -4.196        0.998901925             -4.197       0.0165234222            -97.635
               503      0.0168035097            -87.552        0.997929819             -4.214        0.998920095             -4.215       0.0167378627            -97.431
               504      0.0165044099             -87.46        0.998389489             -4.267        0.999127816             -4.212       0.0165977799            -97.993
               505      0.0166801519            -87.781        0.999357325             -4.216        0.998504439             -4.243       0.0164456105            -97.498
               506      0.0165996909            -87.764        0.997585206             -4.217         0.99902257             -4.258       0.0164892157            -97.495
               507      0.0163889073            -87.613        0.997929819             -4.293        0.997814935             -4.249       0.0160195385            -97.725
               508      0.0164569746            -87.802        0.998619403             -4.257        0.998504439             -4.297       0.0162629752            -97.893
               509      0.0163625128            -86.618        0.998159627             -4.304        0.998274551             -4.312       0.0160011059            -97.495
               510       0.016210634            -87.078        0.998619403             -4.317        0.998044717             -4.344       0.0156837532            -97.568
               511      0.0159808546            -87.716        0.998274551             -4.323        0.999057421             -4.352       0.0159275875            -97.846
               512      0.0159790148            -87.517        0.997929819             -4.363        0.998504439             -4.356       0.0157488918            -97.467
               513      0.0160601649            -87.549         0.99884937             -4.354         0.99884937             -4.313       0.0157724805             -98.38
               514       0.015823407            -87.227        0.998619403             -4.347        0.998389489             -4.388       0.0157126704            -97.541
               515      0.0155292328            -86.872        0.998619403             -4.441        0.999190854             -4.424       0.0152335106             -98.19
               516       0.015595525            -87.103        0.998926996             -4.422         0.99884937             -4.433       0.0152002244             -97.91
               517      0.0154489867            -86.807        0.998274551             -4.431        0.998504439             -4.439       0.0150522007            -97.981
               518      0.0153868599            -87.162        0.998619403             -4.446        0.998619403             -4.427       0.0150816897            -98.357
               519      0.0150331503            -86.823        0.999697946             -4.433        0.998274551             -4.453       0.0151827346            -98.704
               520      0.0153003019            -86.797        0.998159627             -4.516         0.99914346              -4.45       0.0148764737            -99.116
               521      0.0149709721            -86.798        0.999201782             -4.515        0.998917795             -4.484       0.0148936108            -99.263
               522      0.0148610673            -85.856        0.998504439             -4.509        0.998619403             -4.529       0.0148251809            -98.862
               523      0.0146757397            -86.601        0.998504439             -4.524        0.998504439             -4.553       0.0146470445            -98.195
               524       0.014697721            -86.567        0.998619403             -4.572        0.998159627             -4.579       0.0146116749            -98.855
               525      0.0147180407            -86.732        0.998159627             -4.545        0.998044717             -4.543       0.0146049475            -98.373
               526      0.0143962706            -86.986        0.998619403             -4.574        0.999133797             -4.562       0.0144095361            -99.437
               527      0.0144560619            -86.582        0.997929819             -4.591        0.998389489              -4.63       0.0139556478            -98.354
               528      0.0143615065            -85.872        0.997814935             -4.601        0.998504439             -4.627       0.0140119958            -98.377
               529      0.0141775112            -86.122         0.99884937             -4.624        0.998044717             -4.636       0.0141286283             -98.44
               530      0.0142331164            -86.805        0.998044717             -4.637        0.999170953              -4.64        0.013931568           -100.092
               531      0.0140863995            -86.503         0.99873438              -4.65        0.998863285             -4.663       0.0139187425            -98.007
               532      0.0140168363            -85.925        0.998044717             -4.703        0.998274551             -4.661       0.0138022535            -98.585
               533      0.0137467489            -85.766        0.998389489             -4.695         0.99735553             -4.689       0.0137720947            -98.214
               534      0.0135721922            -85.067        0.998504439             -4.713        0.998274551             -4.694        0.013626992            -99.241
               535      0.0140200641            -86.468        0.998044717             -4.721         0.99873438             -4.686       0.0134183773            -98.793
               536      0.0137325124            -84.447        0.998389489             -4.738        0.998274551             -4.722       0.0132693607            -99.885
               537      0.0134818658            -86.527        0.997929819             -4.789        0.997814935             -4.774       0.0131689152            -98.632
               538      0.0134896288            -86.802        0.998159627             -4.761        0.998044717             -4.727       0.0131537626            -99.137
               539      0.0132159991            -86.186        0.998619403             -4.773        0.997929819             -4.755       0.0132007924            -99.744
               540      0.0128617481            -84.785        0.998504439             -4.843        0.998504439             -4.826       0.0128676725            -99.347
               541      0.0133367497            -84.503        0.998274551             -4.808         0.99873438               -4.8       0.0130211697            -98.813
               542      0.0131401402            -85.196        0.999489187             -4.795        0.998274551             -4.818       0.0128735997            -99.507
               543      0.0129912219            -84.961        0.998044717             -4.823        0.998504439              -4.84       0.0126575602            -99.601
               544      0.0128839788            -84.237        0.998044717             -4.884        0.999093078             -4.824       0.0127511689           -100.459
               545      0.0127072039            -85.317        0.997929819             -4.889        0.999061331             -4.884       0.0124666567            -100.01
               546      0.0126081103            -85.637        0.999088937             -4.935         0.99873438             -4.886       0.0124953953           -100.292
               547      0.0124853293            -84.413         0.99873438             -4.921         0.99884937              -4.89       0.0122405237           -100.129
               548      0.0124666567            -85.382        0.998274551             -4.929        0.998159627             -4.919       0.0123651674            -99.108
               549      0.0125198752            -84.448        0.998159627              -4.91        0.998159627               -4.9       0.0121814784           -100.463
               550      0.0124136644            -84.877        0.998389489             -4.971        0.998619403             -4.962        0.011956388           -100.362
               551       0.012246162            -85.163        0.998389489             -4.965        0.999040398             -4.987       0.0119316361           -101.187
               552      0.0121464677            -84.886        0.997929819             -4.946        0.998619403             -4.979       0.0119894704            -99.938
               553      0.0122075791            -84.403        0.999162661             -4.964         0.99949355             -5.017       0.0116809871           -100.656
               554      0.0117814841            -84.619        0.998504439             -4.953         0.99873438             -5.019       0.0116640668           -100.799
               555      0.0117300537            -83.766        0.998389489              -5.03        0.999088247             -5.035       0.0115491494            -101.06
               556      0.0115146303            -84.543         0.99873438             -5.064        0.999006928             -5.031       0.0116519872           -101.904
               557      0.0118317777             -83.36        0.998949192             -5.079        0.998274551             -5.065       0.0114011852           -100.974
               558      0.0117098141            -83.487         0.99873438              -5.06        0.998274551             -5.068        0.011268082           -101.757
               559      0.0114960859            -83.353        0.998389489             -5.101        0.998619403              -5.07       0.0111814982           -101.596
               560      0.0114051237            -84.402        0.998504439             -5.132        0.998274551             -5.115       0.0110662378           -100.765
               561      0.0112137275            -83.513        0.998997612              -5.09        0.998619403             -5.123       0.0111557815           -101.563
               562      0.0112615975            -84.115        0.998389489             -5.062        0.998504439             -5.143       0.0110535047           -101.763
               563      0.0110153931            -83.519         0.99884937             -5.186        0.998274551             -5.138       0.0109925892           -102.003
               564      0.0111429453            -82.895        0.998504439             -5.146         0.99873438             -5.174       0.0108405171           -101.867
               565      0.0109294926            -82.481        0.998389489             -5.208        0.998504439             -5.203       0.0107225974           -101.896
               566      0.0109786768            -82.797        0.997585206             -5.186        0.999016589             -5.203       0.0106316336           -101.548
               567      0.0110981349            -82.019        0.998619403             -5.228        0.999065702             -5.188       0.0106108457            -102.36
               568       0.010686857            -81.951        0.998044717             -5.209        0.998274551             -5.205       0.0106059604           -101.848
               569      0.0105402279            -81.724        0.998159627             -5.297        0.999191429             -5.262       0.0103169185           -102.338
               570      0.0104809343            -83.379         0.99884937             -5.272        0.998850635              -5.27       0.0103050475            -103.37
               571      0.0103908243            -83.144        0.999220994             -5.258         0.99873438             -5.301       0.0101859139           -103.418
               572      0.0103359405            -81.122        0.998619403              -5.32        0.998389489             -5.238       0.0101566386           -103.228
               573      0.0101181241            -81.649        0.998044717             -5.332        0.997814935             -5.339       0.0100426887           -103.581
               574      0.0102920053            -81.703        0.998948272             -5.283        0.998619403             -5.343       0.0100983403           -102.073
               575      0.0101321124            -81.073        0.998044717              -5.35         0.99873438             -5.368       0.0099907939           -100.111
               576       0.010157808            -80.593        0.998159627             -5.361        0.997585206             -5.352      0.00978926308           -102.178
               577      0.0100011514             -83.05         0.99873438             -5.386        0.999011874              -5.35      0.00978025099           -103.575
               578      0.0097543874            -82.284        0.997700064             -5.381        0.998504439             -5.389      0.00959290183           -102.886
               579      0.0100774349            -81.396        0.998044717             -5.427        0.998894335             -5.399      0.00977574805            -102.77
               580     0.00990717878            -79.514        0.999454321              -5.41        0.998274551             -5.426      0.00951480736           -104.028
               581     0.00957745235            -83.444        0.998504439             -5.441        0.999365954             -5.414      0.00934006718           -104.509
               582     0.00950933178            -81.025        0.998619403             -5.474        0.999576184             -5.452      0.00938101866           -104.074
               583      0.0093723824            -81.009        0.998619403               -5.5        0.999016704              -5.47      0.00941239187           -104.939
               584     0.00930893505            -80.743        0.998159627             -5.454        0.998159627             -5.459      0.00924911118           -103.972
               585     0.00937562007            -80.629        0.997814935             -5.469        0.998619403             -5.486      0.00908134134           -104.793
               586     0.00926509763            -80.754        0.999045344              -5.54        0.998159627             -5.496       0.0089145618           -105.979
               587     0.00936375409            -77.938        0.998619403             -5.556        0.998389489             -5.503      0.00884911828           -104.636
               588     0.00908657049            -81.944        0.998274551             -5.533         0.99873438             -5.532      0.00869160538           -105.198
               589     0.00917592806            -78.014        0.997814935              -5.57        0.998619403              -5.54      0.00866363207           -105.079
               590     0.00914113241            -78.499        0.997929819             -5.532        0.997814935             -5.552      0.00880643228           -105.795
               591     0.00891250938            -79.657         0.99873438             -5.566        0.998504439             -5.609      0.00872067296           -105.297
               592     0.00869961433            -79.188        0.999077895             -5.581        0.999395639             -5.618      0.00844014679           -107.597
               593        0.00892997             -78.55        0.998389489             -5.619        0.999153238             -5.617      0.00841201426           -106.986
               594     0.00870562589            -79.687        0.998619403             -5.594        0.998619403             -5.612      0.00835603018           -106.021
               595     0.00867660846            -79.618        0.998619403             -5.619         0.99873438             -5.618      0.00823095069           -106.579
               596     0.00842461378            -77.394        0.998920785             -5.632         0.99884937             -5.667      0.00837143674           -106.221
               597     0.00844014679            -79.983         0.99873438             -5.678        0.999128046             -5.669       0.0082727519           -106.252
               598     0.00838976894            -77.074        0.999268161             -5.723         0.99873438             -5.691      0.00797719117           -107.588
               599     0.00828991352            -77.645        0.998159627             -5.726        0.998389489             -5.745      0.00775711089           -106.037
               600     0.00837722153            -76.955         0.99873438             -5.753        0.998619403             -5.704      0.00782528205           -106.869
               601      0.0082186408            -77.479        0.998159627             -5.773        0.998274551             -5.765      0.00763396211           -107.954
               602     0.00807606861            -77.648        0.998274551             -5.736        0.998274551             -5.733      0.00771524994            -108.41
               603     0.00811054429            -75.055         0.99884937              -5.77        0.998389489             -5.815      0.00749980549           -107.392
               604     0.00784874103            -75.769        0.998389489             -5.801        0.998044717             -5.749      0.00742506056           -106.698
               605     0.00771347365            -75.977         0.99884937             -5.805        0.998849485             -5.812      0.00765684755           -110.414
               606     0.00791042833            -74.148         0.99884937             -5.828        0.998619403             -5.797      0.00735783425           -108.451
               607     0.00774640145            -75.376        0.998159627             -5.812        0.998504439             -5.859      0.00741310241           -108.648
               608     0.00747480728            -74.628        0.998159627             -5.835        0.998044717             -5.798      0.00709659466           -106.309
               609     0.00755701005            -75.195        0.998389489             -5.854        0.998389489             -5.863      0.00703801195           -108.576
               610      0.0076357201            -75.974         0.99886271             -5.864        0.998999682              -5.85      0.00742762552           -108.514
               611     0.00757268688            -75.694        0.998619403             -5.891        0.998961613              -5.91      0.00687622375           -110.968
               612     0.00726691366            -75.469        0.999188093             -5.919        0.998619403             -5.912      0.00711459201            -109.56
