!{251R15S470}
!Johanson Technology Inc.
!www.johansontechnology.com
!Test Board Conditions:
!Substrate Type  RO4350B
!Substrate Thickness        20 mil
!Substrate Dk      3.66
!TL Type: GCPW 
!TL Trace Width  34 mil
!TL Gap  10 mil
!Electrode orientation      Horizontal
!DUT TOPOLOGY	SERIES
!Mounting Pad LxW         26x52 mil
! Created Thu Mar 12 17:14:30 2020
# mhz S ma R 50
! 2 Port Network Data from SP1.SP block
! freq  magS11  angS11  magS21  angS21  magS12  angS12  magS22  angS22  
!     
               500       0.052098606            -94.434        0.996726726             -3.215        0.997971878             -3.202       0.0513660421            -94.406
               501       0.051890142            -94.187        0.996861581             -3.244        0.998124828             -3.215       0.0509137234             -94.22
               502      0.0516456514            -94.099        0.997318234             -3.278        0.998122302             -3.262       0.0510427141            -94.266
               503      0.0517965646            -94.492        0.997615427             -3.258        0.997530438             -3.291       0.0509038882            -94.316
               504      0.0513555958            -94.308        0.997901722             -3.298        0.997442277             -3.275       0.0506451396            -94.365
               505      0.0510319992            -94.261        0.997683023             -3.351        0.997912775             -3.287       0.0505699568            -94.346
               506      0.0509316452            -94.492        0.997795878             -3.352        0.997442124             -3.316       0.0502212717            -94.502
               507      0.0505007681            -94.365        0.997236081             -3.392        0.998192226             -3.378       0.0498078716            -94.323
               508      0.0505391281            -94.445        0.998234354             -3.404        0.997074812             -3.428       0.0499663638            -94.362
               509      0.0505360421            -94.777        0.997433099             -3.426        0.997622822             -3.468       0.0495851037            -94.674
               510      0.0501105491            -94.662        0.997691247             -3.438        0.997646566             -3.466       0.0495597563            -94.662
               511      0.0500286421            -94.779        0.997857936             -3.471        0.997513348             -3.428       0.0494161283            -94.466
               512      0.0498582528            -94.609        0.997804952             -3.462        0.997723163              -3.48       0.0489482371            -94.433
               513      0.0495635643             -94.82        0.997648447             -3.502        0.997741946             -3.476       0.0489905743              -94.6
               514        0.04938041            -94.594        0.996907106             -3.544        0.998248674             -3.511       0.0486748578            -94.691
               515      0.0493393561            -94.523        0.997685081             -3.574         0.99796573             -3.533       0.0488138967            -94.737
               516      0.0491928265            -94.719         0.99735961             -3.555        0.998210483              -3.59       0.0485458128            -94.461
               517      0.0488657107            -94.797        0.997977086             -3.627        0.997586055             -3.555       0.0485460859            -94.737
               518      0.0486227291            -94.647        0.997675554             -3.624        0.998047431             -3.625       0.0479611216            -94.723
               519      0.0485099896            -94.608        0.997863603             -3.654        0.998129478             -3.643       0.0479436597            -94.539
               520      0.0483077721            -94.839        0.997877451             -3.645        0.997843216             -3.663        0.047920022            -94.759
               521      0.0480661035            -94.836        0.997957894             -3.678        0.997879079             -3.674       0.0476309143            -94.693
               522      0.0482569133            -94.852        0.997321403             -3.691        0.998186513             -3.682       0.0473488613            -94.693
               523      0.0479192866             -94.73        0.997669612             -3.735         0.99815881             -3.758       0.0472726931            -94.836
               524      0.0475597296            -94.866        0.997675659             -3.748        0.998145209             -3.754       0.0470694774            -94.834
               525      0.0474879879            -94.822        0.998035338             -3.744        0.997547923             -3.761       0.0466588219            -95.089
               526      0.0471635574            -94.656        0.997926039             -3.808        0.998085634             -3.816       0.0464361873            -94.968
               527      0.0470463248            -94.601        0.998349609             -3.803        0.997873989              -3.84          0.0465185            -94.777
               528      0.0469101235            -94.871        0.996934388             -3.867        0.998496338             -3.883       0.0458634348            -94.748
               529      0.0468939893            -94.899        0.997394983             -3.891        0.998357718             -3.886       0.0461335823            -94.948
               530      0.0467605514            -95.108        0.998151868             -3.881          0.9976737             -3.891       0.0459123607            -94.859
               531      0.0464108246            -94.873        0.998132933               -3.9        0.998083751             -3.908       0.0456057167            -94.747
               532      0.0462225729            -95.281        0.998128178             -3.987        0.997781313             -3.918       0.0456514016            -94.946
               533      0.0461172851             -94.95        0.997157437             -3.972        0.998508768             -3.948        0.045322487            -94.975
               534      0.0458821965            -95.111        0.998206862             -4.009        0.997924536             -3.991         0.04509145             -94.89
               535      0.0460497206            -95.177        0.997073099             -4.006         0.99841351             -3.987       0.0449652486            -94.988
               536      0.0455391805            -94.946        0.997752008             -4.023        0.998381352             -4.031       0.0449091888            -95.117
               537      0.0453907811            -95.327        0.997396078             -4.015        0.998415365             -4.063       0.0448144072            -95.044
               538      0.0451463204            -95.067        0.997954771             -4.057        0.998242277              -4.05        0.044593582            -95.179
               539      0.0450368074            -95.088        0.998275462             -4.124        0.998279714             -4.132       0.0444035401            -94.828
               540      0.0448921246             -94.98        0.997746377             -4.098        0.998498253             -4.082       0.0443680314             -95.13
               541      0.0446748055            -95.238        0.998069354             -4.129        0.998264256              -4.15       0.0440821401            -95.075
               542      0.0447032754            -95.142        0.998135138             -4.151        0.998364993             -4.158       0.0440239843            -94.911
               543      0.0446103384            -95.301        0.997885858             -4.195        0.998044069             -4.196       0.0434145714            -95.376
               544      0.0443848595            -95.153         0.99804104             -4.218        0.998382937             -4.189       0.0435446546            -95.035
               545      0.0439864674            -95.159         0.99831842             -4.258        0.998203491             -4.239       0.0434329256            -95.251
               546      0.0438429734            -95.468        0.998274551             -4.246        0.997585206             -4.254       0.0431419727            -94.933
               547       0.044009507            -95.208        0.997692031             -4.289        0.998509734             -4.257       0.0429335207            -95.108
               548      0.0435098437            -95.267        0.998378852             -4.268        0.998212199             -4.324       0.0427353754             -95.09
               549      0.0433370239            -95.507         0.99827256              -4.33        0.997930586             -4.316       0.0425950452            -95.498
               550      0.0433341207            -95.151        0.997539241             -4.341        0.998759651             -4.374       0.0426118107             -95.15
               551      0.0433337905            -95.354        0.997902542             -4.395        0.998350705             -4.336       0.0422743247            -95.421
               552      0.0431359181            -95.392        0.997330374             -4.376        0.998584367             -4.395       0.0420812901            -95.485
               553      0.0427675434            -95.324         0.99715875             -4.415         0.99872126             -4.372       0.0420111243            -95.543
               554      0.0429320266            -95.599        0.998477517             -4.407        0.998036306             -4.384       0.0421387249            -95.087
               555      0.0425032151            -95.456        0.998579931             -4.434        0.997520394             -4.454       0.0414545097            -95.517
               556      0.0421848585            -95.622        0.998632962             -4.473        0.997715219             -4.468       0.0416108509            -95.444
               557      0.0422371046            -95.776        0.997854774             -4.492        0.998527177             -4.459       0.0415569953            -95.357
               558      0.0419160735            -95.599        0.997655481             -4.538        0.998733444             -4.561       0.0412933952            -95.435
               559      0.0421391913            -95.756         0.99841293             -4.566          0.9975535             -4.508       0.0408870895            -95.716
               560      0.0415242358            -95.528        0.998048504             -4.542        0.998497078             -4.559       0.0408697187             -95.75
               561      0.0415467381            -96.081        0.998244743              -4.57        0.998220494             -4.598       0.0408495176            -95.448
               562      0.0413288698            -95.767        0.997708171             -4.603        0.998528877             -4.569       0.0405511831            -95.856
               563      0.0413416832            -95.839        0.998218478             -4.633        0.998325708             -4.623       0.0406291891            -95.683
               564      0.0410646299            -95.458        0.997970981             -4.604        0.998738435             -4.693       0.0402362885            -95.506
               565      0.0410217909            -95.967        0.997848517             -4.672        0.998534711             -4.652       0.0402081986            -95.687
               566      0.0408511484            -95.722        0.998037639             -4.704        0.998505521              -4.69       0.0400132908            -95.863
               567      0.0406228861            -95.753         0.99740324             -4.712        0.998731677             -4.651       0.0397897101            -95.901
               568      0.0405537225            -95.844        0.998281851             -4.684        0.998235994             -4.745       0.0395986815            -95.889
               569       0.040281094            -95.766        0.998609071             -4.733        0.998147577             -4.757        0.039473102            -95.683
               570      0.0399485368            -95.929        0.998046733              -4.75        0.998578997             -4.814       0.0392555329            -95.918
               571      0.0399752863            -95.627        0.998683635             -4.801        0.998105465             -4.797       0.0392456551            -95.923
               572      0.0401442862            -96.387         0.99798081             -4.791         0.99823442             -4.762       0.0388842512            -95.793
               573      0.0397709955            -96.101        0.997852758             -4.874        0.998636102             -4.829       0.0388075711            -95.823
               574      0.0394270045            -96.132         0.99768578             -4.855        0.998789303             -4.833       0.0387430478            -95.776
               575      0.0394488395            -96.081        0.998235088             -4.894        0.998464047             -4.869       0.0385065165            -95.875
               576      0.0393368858            -96.208        0.998228293             -4.899        0.998290814             -4.917       0.0383442259            -96.117
               577      0.0391304407            -96.115        0.998078589             -4.925        0.998387969             -4.923       0.0381034885            -96.308
               578      0.0388843616            -96.518        0.998520242              -4.94        0.997825902             -4.924       0.0382406243            -96.239
               579      0.0387381565            -96.434        0.998706208             -4.954        0.997674678              -4.96       0.0379523742            -96.036
               580        0.03894584            -96.771         0.99802662             -4.995        0.998206343             -4.917       0.0377712254            -96.072
               581      0.0384500753            -96.481        0.998465343             -4.973        0.998167086             -4.966       0.0377222158            -96.085
               582      0.0383659712            -96.414        0.998525009             -5.045        0.997901778             -5.018       0.0373547812            -96.339
               583      0.0381263343            -96.511        0.998348114             -5.069        0.998073103             -5.052       0.0373572632            -96.634
               584      0.0381406054            -96.153        0.998131087             -5.037        0.998558199             -5.045        0.037079817            -96.229
               585      0.0379479521            -96.325        0.998723683             -5.061        0.997781146             -5.126       0.0370286896            -96.338
               586       0.038026612            -96.549        0.997742297             -5.116        0.998644544             -5.068       0.0368627417            -96.154
               587      0.0376852595            -96.454         0.99835434             -5.122        0.998371121             -5.141       0.0368486439            -96.404
               588      0.0376628482              -96.3        0.997828168             -5.157        0.998604249             -5.141       0.0364891007            -96.593
               589      0.0374228496            -96.868        0.997422371             -5.109        0.998617229             -5.183       0.0364071644            -96.635
               590      0.0372471561            -96.686        0.997797172             -5.214        0.998658651             -5.199       0.0362070481            -96.423
               591      0.0369853819             -96.65        0.997424673             -5.143         0.99875591             -5.214        0.036101904            -96.685
               592      0.0369220561            -96.664        0.998511401             -5.246        0.997869338              -5.22       0.0360069121            -96.939
               593      0.0367357521            -97.116         0.99844287             -5.251        0.997867861             -5.241       0.0360361956            -96.815
               594      0.0364206517            -96.741        0.998102314             -5.292        0.998560913             -5.297       0.0357106465            -96.788
               595      0.0365783612            -96.865        0.998646293             -5.295        0.997715672             -5.248       0.0357539677            -96.797
               596      0.0361241356            -96.879        0.998880452             -5.293        0.997465111              -5.31       0.0354811317            -96.588
               597      0.0361278394             -96.57        0.998192356             -5.352        0.998731597             -5.301       0.0352486095            -96.452
               598      0.0360354076            -97.215        0.997951279             -5.352        0.998294869             -5.363       0.0352922575            -97.263
               599      0.0357337299            -96.868        0.998254325             -5.366        0.998511682             -5.364       0.0350129215            -96.822
               600      0.0357332028            -97.143         0.99826178             -5.389        0.998605247             -5.429       0.0349198158            -96.373
               601      0.0356156173            -96.944        0.998111537             -5.414        0.998542975             -5.412       0.0348490125            -96.988
               602      0.0354677431            -97.219         0.99754743             -5.418        0.998583312             -5.392       0.0345966106              -97.3
               603      0.0353477228            -97.233        0.998520168             -5.426        0.998223848             -5.417       0.0345113097            -96.613
               604      0.0353905168            -96.952        0.998213537             -5.481        0.998500887             -5.457       0.0341969131            -96.737
               605      0.0352925044            -96.973        0.998498986             -5.473        0.998256043             -5.473       0.0342438415            -96.818
               606      0.0346896083            -97.169        0.998324193             -5.506        0.998486243             -5.571         0.03396248            -97.024
               607      0.0346001168            -97.074         0.99862553             -5.554        0.998048887             -5.536       0.0337308717            -97.182
               608      0.0345927369            -97.497        0.998597268             -5.565        0.997794886             -5.553       0.0337625254            -97.222
               609      0.0345562061            -97.308        0.998749259             -5.586        0.997736259             -5.539       0.0336609257            -97.045
               610       0.034330852            -97.787        0.997826381             -5.604        0.998561073             -5.585       0.0332073777            -96.922
               611      0.0340791828             -97.33          0.9978977             -5.613        0.998777837             -5.615       0.0332383282            -96.997
               612      0.0341355791            -97.451        0.997372237             -5.646        0.998877602             -5.649       0.0330413113             -96.99
