!{251R14S110}
!Johanson Technology Inc.
!www.johansontechnology.com
!Test Board Conditions:
!Substrate Type  RO4350B
!Substrate Thickness        20 mil
!Substrate Dk      3.66
!TL Type: GCPW 
!TL Trace Width  36 mil
!TL Gap  12 mil
!Electrode orientation      Horizontal
!DUT TOPOLOGY	SERIES
!Mounting Pad LxW         26x36 mil
! Created Wed Mar 11 15:49:55 2020
# mhz S ma R 50
! 2 Port Network Data from SP1.SP block
! freq  magS11  angS11  magS21  angS21  magS12  angS12  magS22  angS22  
!     
               500       0.267300641            -78.052        0.960284679              11.32        0.960505818             11.288        0.267762652            -78.309
               501        0.26647103             -78.15        0.960837623             11.224        0.961169542             11.218        0.266993077            -78.398
               502       0.265766355             -78.26        0.960727008             11.138        0.961169542             11.166         0.26616442            -78.464
               503       0.265552259             -78.24        0.960174129              11.14        0.961169542              11.11        0.265429996            -78.452
               504       0.264789037            -78.262        0.960284679             11.076        0.961722994             11.093        0.264789037            -78.533
               505       0.264058408            -78.344        0.961280207              11.06        0.961390884             11.022        0.264393029            -78.612
               506       0.263390435            -78.365        0.960837623             11.029        0.961833723             10.968        0.263360113            -78.653
               507       0.262754402            -78.518        0.961833723             10.928        0.962055219             10.909        0.262845169            -78.724
               508       0.262150083            -78.446        0.961058889             10.859        0.961944465              10.92        0.262421854            -78.719
               509       0.261848446            -78.563        0.961944465             10.854        0.962941713             10.852        0.261908745            -78.795
               510       0.260945613            -78.525        0.962055219             10.797        0.962387559             10.817        0.261216135             -78.82
               511       0.260015956            -78.607        0.961722994             10.736        0.962276766             10.764        0.260705384            -78.839
               512       0.259776583            -78.684        0.962387559             10.719        0.962830857             10.712        0.260135726            -78.869
               513       0.259179113            -78.727        0.962387559             10.643        0.963274359              10.62         0.25935821            -78.966
               514       0.258642566            -78.678        0.962941713             10.624        0.962830857             10.655        0.259029961            -78.989
               515       0.258136846             -78.77        0.962165986             10.537        0.963829024             10.609         0.25825575            -79.047
               516       0.257632116            -78.785        0.963163464             10.561        0.963939995             10.577        0.258017997            -79.136
               517       0.256921234            -78.864        0.963163464             10.451        0.964050979             10.515        0.256862083            -79.178
               518       0.256536993            -78.927        0.963385266             10.449        0.964161976             10.431        0.256359845            -79.153
               519       0.255711347            -78.967        0.962830857             10.407        0.964050979             10.404        0.255711347            -79.171
               520       0.255299521            -78.948        0.963385266             10.344        0.964272986             10.388        0.255505351            -79.219
               521       0.254360693            -78.992        0.963607119             10.292        0.963718065             10.336        0.254477858            -79.304
               522       0.253951042            -79.054        0.964161976             10.286        0.964384008             10.299        0.254302131            -79.372
               523       0.253017174             -79.15        0.963607119             10.222        0.964161976             10.215        0.253337803            -79.442
               524       0.252813348            -79.149        0.964606091             10.216        0.964717152             10.208        0.253133719             -79.42
               525       0.251912664            -79.228        0.964272986             10.159        0.964717152             10.088        0.252260934             -79.49
               526        0.25168075            -79.206        0.964050979             10.147        0.965383785             10.094        0.251564874            -79.552
               527       0.250986291            -79.221        0.964161976              10.11        0.964828225              10.08        0.250986291            -79.517
               528       0.250264933            -79.321        0.964495043             10.009        0.965717274             10.021        0.250582074            -79.627
               529       0.250322565            -79.354        0.964828225              9.984        0.966050879              9.998        0.250063324            -79.597
               530       0.249287212            -79.408        0.965161523              9.951        0.965383785              9.941        0.249402039            -79.691
               531       0.248799785            -79.457        0.965717274              9.902        0.965828463              9.893        0.248914388             -79.76
               532        0.24799904            -79.537        0.965494935              9.832        0.966050879              9.836        0.248484899            -79.833
               533        0.24754263            -79.541        0.964939312              9.804        0.965494935              9.807        0.247172415            -79.766
               534       0.247115508            -79.631        0.965939665              9.734        0.965828463               9.75        0.246859588            -79.876
               535       0.246405274            -79.644        0.965494935              9.706        0.966384599              9.696        0.246660723            -79.931
               536       0.245781958            -79.683        0.966273346              9.657        0.965494935              9.706        0.245923482            -79.894
               537       0.245131995             -79.72        0.965939665              9.636        0.965939665              9.648        0.245442632            -79.903
               538         0.2445119            -79.806        0.965828463              9.586        0.966607143              9.563        0.244737207            -80.011
               539       0.244568207             -79.84        0.966718434              9.573        0.967275082              9.538        0.244427463            -80.098
               540       0.243612742             -79.84        0.966718434              9.498        0.967275082              9.519        0.243584697            -80.154
               541       0.243080432            -79.875        0.967163727              9.487        0.966941055              9.485        0.243472548            -80.146
               542       0.242633074            -79.976        0.967275082              9.418         0.96783205              9.433        0.242716891            -80.179
               543       0.242102905            -79.944        0.967275082              9.347        0.967497831              9.401        0.242130779            -80.258
               544        0.24101829            -80.133        0.966273346               9.31         0.96838934              9.293        0.241295932            -80.276
               545       0.240768685             -80.14        0.967163727              9.274        0.967609225              9.313        0.240990543            -80.322
               546       0.239910911            -80.139        0.967497831               9.23        0.967275082              9.251        0.240491649            -80.292
               547       0.239607275             -80.13        0.966829738              9.215        0.968500836              9.229        0.240076693            -80.426
               548       0.239496957             -80.19        0.966829738              9.183        0.967943483              9.174        0.239304023            -80.384
               549       0.238891116            -80.273        0.967609225              9.141         0.96838934              9.151        0.238781128            -80.425
               550       0.238204521            -80.217        0.967943483              9.041        0.968835402              9.116        0.237930436            -80.544
               551       0.237437877            -80.251        0.967720631               9.07        0.968166386               9.06        0.237738764             -80.56
               552       0.237219289            -80.361        0.968166386              9.018         0.96928167              9.028         0.23719198            -80.549
               553         0.2366737            -80.389        0.968054928              9.005        0.968277856              8.977         0.23659197            -80.574
               554       0.235939144            -80.387        0.968277856              8.931        0.969058511               8.99        0.236047823            -80.701
               555       0.235640535            -80.422         0.96838934              8.926        0.969728144              8.932        0.235857668            -80.667
               556       0.234828065            -80.431         0.96838934              8.873         0.96928167               8.89         0.23504445            -80.662
               557       0.234341929            -80.585        0.969170084              8.829        0.969170084              8.797        0.234234035            -80.766
               558       0.233964518            -80.509        0.968835402              8.845         0.96838934              8.784        0.233829876            -80.771
               559        0.23321152            -80.683        0.968500836              8.716        0.970286525              8.736         0.23348017            -80.809
               560       0.232327169            -80.609        0.969393269              8.663        0.969951458              8.654        0.233238371            -80.981
               561        0.23224694            -80.731        0.968723867              8.659        0.969616506              8.683        0.232300423            -80.848
               562       0.231472819            -80.716        0.968723867              8.659        0.969504881              8.598        0.231739465            -80.991
               563       0.231259722            -80.772         0.96928167              8.544         0.97039824              8.614        0.231366246            -81.024
               564       0.230701278            -80.853        0.969616506              8.531        0.970509967               8.54        0.230515429            -81.053
               565       0.230276702             -80.85        0.969504881              8.531        0.970174823              8.493        0.229905838            -81.015
               566       0.229694185            -80.904        0.969393269              8.455        0.970621708              8.455        0.229773532            -81.127
               567       0.229086765            -80.963        0.969951458              8.453        0.970174823              8.425        0.229403479            -81.123
               568       0.228796828             -81.02        0.970733461              8.404        0.971292421              8.401        0.228928572            -81.168
               569       0.228139245            -81.026        0.970733461              8.339        0.970733461              8.284        0.228349466             -81.27
               570       0.227824277            -81.023        0.970621708              8.251        0.971292421              8.325        0.227798049            -81.268
               571       0.226986485            -81.056         0.97039824              8.332        0.970845227              8.256        0.227431178             -81.23
               572       0.226516582            -81.162        0.970957007              8.224        0.970733461              8.251        0.226647013            -81.426
               573         0.2256836            -81.176        0.970957007              8.204        0.970733461               8.21        0.226203854            -81.411
               574       0.225579692            -81.151        0.970957007              8.141        0.971404252              8.145        0.225787555            -81.513
               575       0.224801912            -81.272        0.971068799              8.097        0.971404252                8.1        0.224879569            -81.399
               576       0.224569101            -81.341        0.971292421              8.075        0.970845227              8.101         0.22485368            -81.536
               577        0.22415581            -81.321        0.971404252              8.013        0.971627952              8.062        0.224388192            -81.575
               578       0.223357222            -81.353        0.971627952              7.972        0.972635239              8.029        0.223820571            -81.622
               579       0.223125908            -81.447        0.971739821              7.972         0.97229936              7.957        0.223048856            -81.646
               580       0.222663997             -81.47         0.97229936              7.847        0.971739821              7.912        0.222151884            -81.747
               581       0.222075168            -81.478        0.971739821              7.829         0.97229936              7.869        0.222100737            -81.745
               582       0.221207578              -81.5        0.970733461              7.852        0.972075506              7.831        0.221360435             -81.75
               583        0.22095305            -81.545        0.971739821              7.798        0.972187427              7.818        0.221156649            -81.766
               584       0.220546414            -81.564        0.970621708              7.788        0.972411307              7.774        0.220597202            -81.799
               585       0.220165872            -81.577        0.971739821              7.786        0.972411307              7.725        0.220064505            -81.849
               586       0.219760685            -81.635         0.97229936              7.733        0.973195294              7.693        0.219887226            -81.883
               587       0.219280494            -81.701        0.972635239               7.67        0.972747224              7.677        0.219356243            -81.985
               588       0.218675435             -81.74        0.973083257              7.653        0.973419406              7.627        0.218776162            -82.007
               589       0.218097155            -81.722         0.97229936              7.583        0.972635239              7.581        0.218147379             -82.01
               590       0.217695775            -81.757        0.972523266              7.542        0.972971233              7.527        0.217770977            -82.046
               591       0.217195088            -81.766        0.972971233              7.485        0.972411307              7.571        0.217120085             -82.11
               592       0.216570849             -81.86        0.972523266              7.463        0.973419406              7.451        0.216745455            -82.145
               593       0.216421299            -81.925        0.973083257              7.404        0.974204205              7.462        0.216321657            -82.233
               594       0.215923544            -81.966        0.973307343              7.407        0.973531481              7.403        0.215873832            -82.213
               595        0.21530296             -81.99        0.972971233              7.364        0.973867785              7.354        0.215154285            -82.215
               596       0.215005713            -81.968        0.972971233               7.36        0.974652946               7.32        0.214906722            -82.297
               597       0.214535912            -82.017         0.97364357              7.314        0.974092052              7.337        0.214535912            -82.238
               598       0.213993213            -82.053        0.973867785              7.244         0.97442855              7.274        0.213968578            -82.379
               599       0.213255382            -82.133        0.974204205              7.208        0.973979912              7.217        0.213378177            -82.354
               600       0.212985481            -82.107        0.973755671              7.205        0.974652946              7.178        0.212838407            -82.371
               601       0.212446705            -82.192        0.974204205              7.144        0.974652946              7.153        0.212691434            -82.493
               602       0.212080139            -82.149         0.97442855              7.168        0.974316371              7.112        0.212397793            -82.379
               603        0.21161673            -82.224        0.975101894              7.048        0.974765164              7.101        0.211689833            -82.543
               604       0.211008524            -82.229        0.974540742              7.083        0.974989638              6.995        0.211081417            -82.516
               605       0.210717206            -82.286        0.974204205              7.013        0.975663369              6.982        0.210717206            -82.626
               606       0.210159971            -82.242        0.974989638              7.019         0.97543874              6.976        0.210402066            -82.668
               607       0.209555952            -82.365        0.975101894              6.922        0.975214163              6.913        0.209797351            -82.715
               608        0.20914621            -82.459        0.975214163               6.89         0.97543874              6.864        0.209435356            -82.743
               609        0.20859313            -82.457        0.974652946              6.848        0.975551048              6.898        0.208857464             -82.76
               610       0.208017561            -82.454        0.975551048              6.813        0.974877394              6.801        0.208353116            -82.851
               611       0.207826058            -82.449        0.974877394              6.737         0.97588805              6.803        0.207873917            -82.848
               612       0.207348071            -82.582         0.97543874              6.766        0.975551048              6.744        0.207276468            -82.926
