!{201R07S0R3}
!Johanson Technology Inc.
!www.johansontechnology.com
!Test Board Conditions:
!Substrate Type  RO4350B
!Substrate Thickness        10 mil
!Substrate Dk      3.66
!TL Type: GCPW 
!TL Trace Width  21 mil
!TL Gap  20 mil
!Electrode orientation      Horizontal
!DUT TOPOLOGY	SERIES
!Mounting Pad LxW         16x21 mil
!Agilent Technologies,N5230A,MY45001966,A.07.50.67
!Agilent N5230A: A.07.50.67
! Created Mon Mar  9 16:13:47 2020
# mhz S ma R 50
! 2 Port Network Data from SP1.SP block
! freq  magS11  angS11  magS21  angS21  magS12  angS12  magS22  angS22  
!     
               500       0.995890452             -6.737       0.0801699419             83.226       0.0804565802             83.437        0.996706106              -6.86
               501       0.995591108             -6.727        0.080404621             83.216       0.0804972436             83.383        0.996737985             -6.868
               502       0.995371553             -6.747       0.0804516999             83.234       0.0806557298             83.387        0.996714164             -6.898
               503       0.995634054             -6.774        0.080584171             83.197       0.0810120725             83.381         0.99665659             -6.902
               504       0.996482035             -6.776       0.0808945891             83.204       0.0810250809             83.337        0.996596766             -6.901
               505       0.995314671             -6.769       0.0809860851             83.171       0.0811447461              83.37        0.996676011             -6.954
               506        0.99646897             -6.813       0.0812482058             83.174       0.0812949895             83.282          0.9965837             -6.946
               507       0.995811887             -6.802       0.0812694473             83.191        0.081541239              83.29        0.996627706             -6.943
               508       0.995001544             -6.801       0.0813998781             83.123       0.0816909139             83.311        0.996643077             -6.947
               509       0.996049435             -6.852         0.08161705             83.126       0.0818523012             83.256        0.996589928             -6.982
               510       0.996067112             -6.874       0.0817219274             83.119       0.0821085913             83.249        0.996530054             -6.974
               511       0.995887707             -6.862       0.0819804639              83.01       0.0822356958             83.298        0.996575879             -7.012
               512       0.995658337             -6.874       0.0820843445             83.077       0.0823114656              83.24        0.996575794             -7.021
               513       0.995696427             -6.911       0.0822104355             83.028        0.082447397             83.259         0.99655506              -7.04
               514       0.995751023               -6.9       0.0824274779             83.071       0.0826079817              83.22        0.996524812             -7.101
               515       0.996341554             -6.929       0.0826053629             82.999       0.0828720808             83.138        0.996456268             -7.059
               516       0.995750442             -6.941       0.0827276157             83.047       0.0829756203             83.171         0.99649221             -7.115
               517       0.995690232             -6.939       0.0828655938             83.013       0.0832001763             83.103        0.996492987             -7.119
               518       0.995462039             -6.967        0.083056706             82.972       0.0833728607             83.196        0.996473843             -7.118
               519       0.995434164             -6.991       0.0832937744             83.012       0.0835146263             83.085        0.996474621             -7.147
               520       0.995128724             -7.006       0.0834121397             82.863       0.0836333055             83.137         0.99647937             -7.186
               521        0.99419795             -6.975       0.0834877705             82.986       0.0836898642             83.093        0.996482264             -7.139
               522        0.99531526             -7.059       0.0837357015             82.926       0.0838997492             83.026        0.996461819              -7.14
               523        0.99579348             -7.011       0.0837650551             82.874       0.0841226371             83.088        0.996397154               -7.2
               524       0.995487923              -6.98       0.0840593439             82.914       0.0842919296             83.111        0.996411763             -7.195
               525       0.995740875             -7.011       0.0841097487             82.973       0.0843424739             83.041        0.996389828              -7.19
               526       0.994178478             -7.073       0.0842392239             82.948       0.0845793527             82.964        0.996404676             -7.204
               527       0.995303211             -7.068       0.0844802917             82.928       0.0846263101             83.023        0.996381958             -7.226
               528       0.994745964             -7.069       0.0847153649              82.92       0.0849106539             83.042        0.996366772             -7.217
               529       0.995202244             -7.087       0.0848909408             82.883       0.0850376689             83.005        0.996348673             -7.269
               530       0.996107005              -7.14       0.0849974691               82.8       0.0851443814             82.909        0.996292921             -7.322
               531       0.996297681             -7.169        0.085141073             82.783       0.0853471689             82.906        0.996068301             -7.255
               532       0.995018672             -7.131       0.0852572324              82.83       0.0854636094             82.945        0.996326383             -7.266
               533       0.995754459             -7.174       0.0855760546             82.826       0.0858325983             82.973        0.996213126             -7.305
               534       0.995040271              -7.19       0.0856920747             82.752       0.0858401875             82.824         0.99630121             -7.355
               535       0.995653597             -7.191       0.0857350227             82.714       0.0860514647             82.959        0.996226906             -7.342
               536       0.995872371             -7.199       0.0860505565             82.749       0.0861496829             82.907        0.996216392             -7.359
               537       0.994620571             -7.175       0.0861504276             82.696       0.0863390841              82.91        0.996258265             -7.354
               538       0.995447228             -7.205        0.086311416             82.663       0.0864406933             82.813        0.996249787             -7.405
               539       0.994859191             -7.239        0.086449327             82.695        0.086618691             82.852        0.996225185             -7.405
               540       0.995058829             -7.264       0.0866360728             82.661       0.0868157972             82.844        0.996208992             -7.395
               541       0.994280394             -7.202       0.0868378127             82.816       0.0869578664             82.818        0.996198138              -7.37
               542       0.995990409             -7.241       0.0868670667             82.728       0.0872680268             82.826        0.995875748             -7.426
               543       0.994903102             -7.302       0.0869722659             82.675       0.0873837715             82.817        0.996137146             -7.413
               544       0.995014083              -7.27       0.0873432259             82.588       0.0874740486             82.803        0.996160295             -7.442
               545       0.994815874             -7.283       0.0873459367             82.662        0.087627961             82.773        0.996131575             -7.473
               546       0.996095899             -7.318        0.087579236              82.61       0.0878316724             82.664        0.995637286              -7.53
               547       0.995274132             -7.322       0.0876784203             82.626        0.087910898             82.687        0.996106941             -7.505
               548       0.995897021             -7.352       0.0878950532             82.586       0.0880672496             82.721        0.996011684             -7.511
               549       0.996023958             -7.371       0.0881393382              82.62       0.0882815166             82.685        0.995794642               -7.5
               550       0.994441403             -7.354       0.0881615461             82.497       0.0883851285             82.699         0.99607949             -7.568
               551       0.995258045             -7.372        0.088457711             82.521        0.088508646             82.695        0.996060452              -7.55
               552       0.994294789             -7.387       0.0885758163             82.528       0.0886676429              82.69        0.996049595             -7.568
               553       0.995368241             -7.396        0.088732717             82.556       0.0889782336             82.665        0.995983239             -7.586
               554       0.995396126             -7.425       0.0889295196             82.492       0.0889807263             82.668        0.996015957             -7.547
               555       0.994633522             -7.411        0.089055981             82.472       0.0892099081             82.629        0.996008609             -7.572
               556       0.994982178             -7.424       0.0892720077             82.427       0.0894469017             82.598        0.995985583             -7.625
               557       0.994106894             -7.446       0.0892962222             82.481       0.0895639184             82.557        0.995975226             -7.621
               558       0.994930759             -7.495       0.0894422792             82.416       0.0898240965             82.519        0.995930213             -7.675
               559       0.994785942             -7.463       0.0896973555              82.48       0.0898937793             82.591        0.995931891             -7.645
               560       0.994937059             -7.523       0.0897419718             82.375       0.0900317326             82.536        0.995919435             -7.686
               561        0.99544629             -7.488       0.0900052479             82.347       0.0902231181             82.514        0.995904815             -7.647
               562       0.995496024             -7.553       0.0901341836              82.34       0.0904460343             82.486        0.995839915             -7.723
               563       0.994326994             -7.554       0.0902774389              82.26       0.0905168079             82.494        0.995892312              -7.71
               564       0.993972686             -7.565       0.0905053913             82.371       0.0906305155             82.509        0.995872294             -7.739
               565       0.994130659             -7.564        0.090728445             82.288       0.0908329602             82.448        0.995864423             -7.729
               566       0.994818819             -7.534       0.0908121572             82.315       0.0909691197              82.44        0.995850148             -7.763
               567       0.995259423             -7.628       0.0910198883             82.264       0.0911562179             82.351        0.995832505             -7.767
               568        0.99432523             -7.591        0.091102115             82.266       0.0913331549             82.443        0.995814531              -7.79
               569       0.994220167              -7.63       0.0911554351             82.254       0.0914813507             82.421        0.995794259             -7.823
               570       0.995322111              -7.64       0.0915089668              82.21       0.0916565807             82.383        0.995780579             -7.817
               571       0.994059262             -7.627       0.0915613687             82.191       0.0917618744             82.426        0.995777425             -7.835
               572       0.994254957             -7.676       0.0917376825             82.217       0.0919491597             82.293        0.995761807             -7.823
               573       0.993848837             -7.653       0.0919010205             82.136       0.0920810651             82.347        0.995750502              -7.86
               574       0.994925208             -7.708       0.0921914052             82.215       0.0922551108             82.319        0.995727347             -7.852
               575       0.994448268             -7.732        0.092232121             82.175       0.0924660266             82.251        0.995708457             -7.928
               576       0.994097791             -7.713       0.0923802448             82.138       0.0925825437             82.309         0.99570138             -7.914
               577        0.99452493             -7.719        0.092537055             82.182       0.0928358406             82.274        0.995670578             -7.886
               578       0.992949404             -7.745       0.0926674302               82.1       0.0928275994             82.261         0.99567928             -7.962
               579       0.993526184             -7.781       0.0928387571             82.098       0.0931063534             82.189        0.995654286             -7.965
               580       0.994042763             -7.791         0.09307972             82.088       0.0931976728             82.153        0.995646263              -7.99
               581       0.994023551             -7.804       0.0933139716             82.049       0.0933999565             82.141        0.995627019             -8.008
               582       0.993776996             -7.813       0.0933337981             82.091       0.0935704977             82.184        0.995609288             -7.983
               583       0.994228128             -7.852        0.093591422             82.013        0.093645313              82.16        0.995602654             -8.019
               584       0.993357831             -7.831       0.0936819064             82.025       0.0937142686             82.117        0.995594457             -8.006
               585       0.993625276             -7.859       0.0937718816             81.985       0.0939880481             82.146        0.995571901             -8.039
               586       0.993376743             -7.881       0.0940402961             81.964       0.0941919934             82.057        0.995552089             -8.053
               587       0.994278771              -7.89       0.0942232688             81.963       0.0943426708             82.091        0.995538745             -8.064
               588       0.994146774              -7.87       0.0943844626             81.963       0.0945258318             82.066        0.995521188             -8.121
               589       0.994244307             -7.957       0.0945459899             81.862       0.0946985029             82.041        0.995504238             -8.108
               590       0.993997639              -7.94        0.094718618             81.872       0.0948823326             82.035         0.99548645             -8.107
               591       0.993638544             -7.949        0.094782559              81.98       0.0950229327             82.019        0.995470581             -8.141
               592       0.993628388             -7.949       0.0950219615             81.846       0.0951642854             82.063        0.995460406              -8.15
               593       0.993617447             -7.978       0.0952509265             81.848       0.0952180336             82.027        0.995449444             -8.162
               594       0.994967325              -7.96       0.0953913112             81.856       0.0955011978             81.966         0.99542563             -8.202
               595       0.993924267             -7.982       0.0954560138             81.873       0.0956540349             81.964        0.995412968             -8.162
               596       0.994811048             -8.017       0.0957063161             81.814       0.0958827761             81.935        0.995383872             -8.197
               597       0.994459263             -8.041       0.0958819808             81.823       0.0960366489             81.868        0.995375616             -8.267
               598       0.994106722             -8.043        0.095969451             81.822       0.0961021293             81.955        0.995366478             -8.265
               599       0.994073089             -8.043       0.0960767529             81.823       0.0963980651             81.952        0.995332802             -8.233
               600       0.994531822             -8.057       0.0964092455             81.853       0.0964758656             81.908        0.995333643             -8.209
               601       0.993834835              -8.07       0.0964637665             81.757       0.0965860077             81.898        0.995323402             -8.257
               602       0.993708033             -8.107        0.096651545             81.748       0.0966960649             81.872        0.995310993             -8.282
               603       0.993458157             -8.091       0.0968388403             81.778       0.0969057573             81.854        0.995289861             -8.328
               604       0.993669355             -8.112       0.0970938889             81.726       0.0970380132              81.81        0.995272252             -8.322
               605       0.992968767             -8.158       0.0970254327             81.757       0.0972602963             81.821        0.995257796             -8.287
               606       0.993188286             -8.122       0.0972146213              81.79       0.0973490211             81.807         0.99524863             -8.262
               607       0.993626336             -8.127       0.0973583251             81.694       0.0975490611             81.782        0.995229163             -8.368
               608       0.994173144             -8.138       0.0976589447             81.671       0.0976701888             81.684        0.995203803             -8.375
               609       0.994494727             -8.215       0.0978030694             81.631        0.097949559             81.695        0.995181937             -8.381
               610       0.993579469             -8.238       0.0979044898             81.711       0.0980285568             81.671        0.995182221             -8.401
               611       0.993793024             -8.167       0.0980834976             81.718       0.0981851808             81.714        0.995166949               -8.4
               612       0.994005624             -8.183       0.0982966782             81.672       0.0983419559             81.734        0.995150674              -8.41
