!{501R14S200}
!Johanson Technology Inc.
!www.johansontechnology.com
!Test Board Conditions:
!Substrate Type  RO4350B
!Substrate Thickness        20 mil
!Substrate Dk      3.66
!TL Type: GCPW 
!TL Trace Width  36 mil
!TL Gap  12 mil
!Electrode orientation      Horizontal
!DUT TOPOLOGY	SERIES
!Mounting Pad LxW         26x36 mil
! Created Wed Mar 11 16:04:45 2020
# mhz S ma R 50
! 2 Port Network Data from SP1.SP block
! freq  magS11  angS11  magS21  angS21  magS12  angS12  magS22  angS22  
!     
               500       0.136615508            -85.547        0.988211719              3.849        0.987984202              3.863        0.137056615            -85.422
               501       0.136316994            -85.672        0.987756736              3.811        0.988666913              3.831        0.136662701            -85.482
               502        0.13606612            -85.782        0.988553095              3.771        0.989236199              3.772        0.135909558            -85.608
               503        0.13548774            -85.693        0.987529323              3.739        0.989008445              3.712        0.135690674            -85.665
               504       0.134927353            -85.835        0.988666913              3.686        0.989008445              3.737        0.135440953            -85.721
               505       0.134896288            -85.791        0.988894588              3.719        0.989236199               3.69        0.134896288            -85.629
               506       0.134462134            -85.879        0.987188301              3.683        0.989350095               3.64        0.134400226            -85.689
               507       0.133859747            -85.926        0.988325498              3.605        0.988325498              3.643        0.133798117            -85.733
               508       0.133767312            -85.909        0.988666913              3.601        0.989236199              3.579        0.133674941            -85.782
               509       0.133152707            -85.819        0.988097954              3.561         0.98843929              3.538         0.13321404            -85.735
               510       0.132800589            -85.972        0.988553095              3.527        0.988780744              3.484        0.132540926            -85.804
               511       0.132190425            -86.102         0.98843929               3.51        0.989236199              3.495        0.132510411              -85.8
               512        0.13206873            -86.055        0.988211719              3.447        0.989350095              3.454        0.131886396            -85.906
               513       0.131689152            -86.064        0.989464005              3.447        0.989577928              3.482        0.131795323            -85.924
               514       0.131174676            -86.079        0.989236199              3.451        0.988780744              3.406        0.131446795            -85.779
               515       0.130526893             -86.09        0.989350095               3.33        0.989805813              3.349        0.130556951            -86.004
               516       0.130421743            -86.196        0.989919775              3.313         0.99003375              3.305        0.130376705            -86.052
               517       0.129882309            -86.215        0.989122315              3.317        0.989008445              3.283        0.129732862            -86.019
               518       0.129523926            -86.212        0.989350095              3.269        0.989805813              3.291        0.129598507            -86.126
               519       0.128854622            -86.177        0.990603824              3.294        0.989236199              3.275        0.129479198             -86.16
               520       0.128721176            -86.244        0.988894588              3.193         0.99003375              3.236        0.128617481            -86.252
               521       0.128336444            -86.326        0.989464005              3.161        0.989805813              3.175        0.128410341            -86.272
               522       0.127908675            -86.291        0.989350095              3.148        0.989464005              3.131        0.128026537            -86.237
               523       0.127394301            -86.377        0.989805813              3.114        0.989919775              3.104        0.127526371             -86.28
               524       0.127028158             -86.41         0.99003375              3.072        0.989577928              3.063         0.12727702            -86.319
               525       0.126765187            -86.406        0.989122315               3.04        0.989350095              3.063        0.126779782            -86.324
               526       0.126124658            -86.514        0.989919775              3.013        0.990489783              3.043        0.126619327            -86.442
               527       0.125878048            -86.485        0.989577928              3.007        0.990147739              2.994        0.125762164            -86.348
               528       0.125602996            -86.567        0.989577928              2.984        0.989919775              2.958        0.125559622            -86.333
               529       0.125040298            -86.546        0.990147739              2.933        0.989805813              2.911        0.125386275            -86.373
               530       0.124896423            -86.614        0.989577928              2.896        0.990489783              2.902        0.124752713            -86.635
               531       0.124494453            -86.637        0.989919775              2.883        0.990717878              2.859        0.124394162            -86.373
               532       0.124036642            -86.576        0.989577928              2.801         0.99003375               2.84        0.124065206            -86.467
               533         0.1234099            -86.681        0.989464005              2.811        0.989008445              2.796        0.123608974            -86.567
               534       0.123069376            -86.653         0.99003375              2.786         0.99026174               2.78        0.123267901            -86.525
               535        0.12311189            -86.783        0.989919775              2.746         0.99026174               2.79        0.122842883            -86.539
               536        0.12260269            -86.565        0.989805813                2.7        0.990375755              2.732        0.122278471            -86.755
               537        0.12208154             -86.83        0.989691864              2.661        0.990489783              2.673        0.121997238            -86.676
               538       0.121744682            -86.899        0.990375755              2.663        0.990375755              2.721        0.121870895            -86.729
               539       0.121101633            -86.932        0.990603824              2.654        0.990603824              2.658        0.121464677            -86.732
               540       0.120753576            -86.849         0.99026174              2.559        0.990946025              2.593        0.120906598            -86.788
               541       0.120656299            -86.805        0.990489783               2.56        0.991174225              2.574        0.120823107            -86.705
               542       0.120420382            -86.913        0.991288345              2.576        0.990489783              2.553        0.120378797            -86.768
               543       0.119963741            -86.932        0.990375755              2.543        0.990831945              2.519        0.119839503            -86.819
               544       0.119618954            -86.906        0.990603824              2.475        0.991402478              2.528        0.119742963            -86.895
               545       0.119055647            -87.118         0.99026174              2.446        0.991288345              2.449        0.119041941            -86.902
               546       0.118795503             -87.23        0.991174225              2.409        0.991174225              2.438        0.118987133             -86.93
               547       0.118331399            -87.101        0.990831945              2.405        0.991174225              2.415        0.118358649            -86.905
               548       0.118059245             -87.22        0.990717878              2.361        0.990717878              2.382        0.118208852            -86.927
               549       0.117652186            -87.054        0.990603824              2.358        0.990831945              2.382        0.117719931            -87.016
               550       0.117314042             -87.19        0.990489783              2.291        0.991060119              2.301        0.117206042            -87.034
               551       0.116990339            -87.209        0.990946025              2.276        0.991630783              2.252        0.116963404            -87.181
               552       0.116600389            -87.223        0.990603824              2.294        0.990946025              2.253        0.116748148            -87.054
               553       0.116394742            -87.237        0.991478637              2.235        0.992277997              2.187        0.116180532            -87.089
               554       0.115637848            -87.279        0.991288345              2.243        0.991288345              2.177        0.115784387            -87.142
               555       0.115345326            -87.239        0.991288345               2.17        0.991859141              2.147        0.115451612            -87.121
               556       0.115027055             -87.42        0.991288345              2.128        0.991630783               2.14         0.11529222            -87.293
               557        0.11490793             -87.27        0.991402478              2.078        0.991288345              2.107        0.114683252            -87.254
               558       0.114432662            -87.336        0.991516624              2.101        0.991516624              2.105        0.114432662            -87.263
               559       0.114130048            -87.422        0.991060119              2.044        0.991402478               2.07        0.113828235            -87.359
               560       0.113553363            -87.599        0.991402478               2.01        0.991288345               1.99        0.113671084            -87.304
               561       0.113357432            -87.441        0.991516624              2.029        0.991288345              2.015        0.113488015            -87.285
               562       0.113122762            -87.498        0.991288345              2.028        0.991630783              1.945        0.113005609             -87.41
               563       0.112577085              -87.5        0.991859141              1.916        0.991402478              1.953        0.112771667            -87.468
               564        0.11234403            -87.595        0.991630783              1.926        0.992201776              1.904        0.112292306            -87.471
               565       0.111943788            -87.526        0.991630783              1.874        0.991859141              1.865        0.111905131            -87.464
               566       0.111506453            -87.555        0.990603824              1.853        0.992430265              1.845        0.111557815            -87.454
               567       0.111365328            -87.488        0.991973339              1.813        0.992316014              1.847        0.111301239            -87.531
               568       0.110853651             -87.52        0.991288345                1.8        0.991630783              1.846        0.110968573            -87.464
               569       0.110484155            -87.667        0.991630783              1.736        0.992201776              1.736        0.110446002            -87.579
               570       0.110217359            -87.737        0.992316014              1.735        0.992658807              1.724        0.110268128            -87.733
               571       0.109837338             -87.75        0.992544529              1.761        0.991973339              1.679        0.110039853            -87.659
               572        0.10949644             -87.66        0.991630783              1.666        0.991744955              1.726        0.109483835            -87.658
               573       0.109005899            -87.788        0.991402478              1.635        0.991630783              1.609        0.109131469            -87.753
               574       0.108805287            -87.716        0.992087551               1.67        0.992087551              1.594        0.109018449            -87.636
               575       0.108505062            -87.731        0.991288345              1.588        0.992201776              1.565        0.108555042             -87.53
               576       0.108143395            -87.772        0.991516624              1.591        0.991516624              1.554        0.108143395             -87.62
               577       0.107956799             -87.95        0.992087551              1.512        0.992773098              1.538        0.107931944            -87.819
               578       0.107411307             -87.97        0.991630783              1.513        0.992087551               1.52        0.107473155            -87.818
               579       0.107374215            -87.844        0.991859141              1.471        0.992087551              1.501        0.107361853             -87.83
               580       0.106819367            -87.796        0.992887401              1.469        0.991973339               1.44        0.106905488            -87.886
               581       0.106524622            -88.169        0.991973339              1.426        0.992773098               1.46        0.106487836            -87.974
               582       0.106251651            -87.908        0.992169079              1.379        0.993655151              1.407        0.106386296            -88.007
               583       0.105815673            -88.102        0.992201776              1.336        0.992887401              1.358        0.105925373            -88.035
               584       0.105329495            -88.086        0.991973339              1.378        0.992316014              1.356         0.10556015            -87.924
               585       0.105341622             -88.04        0.991973339              1.321        0.992201776              1.346        0.105099343            -87.977
               586       0.104954243            -88.067        0.992658807              1.282        0.991744955              1.303        0.104833479            -88.102
               587         0.1046285            -87.856        0.992201776              1.235        0.992201776               1.26         0.10448405            -88.102
               588         0.1043398            -88.276        0.991744955              1.243        0.993001718               1.25        0.104147776            -88.122
               589       0.103932171            -88.029        0.991630783              1.181        0.992658807               1.21        0.103693134            -88.118
               590       0.103848446            -88.141        0.991973339              1.228        0.992087551              1.175        0.103585746            -88.153
               591       0.103240476            -88.248        0.993230392              1.166        0.992887401              1.117         0.10339511            -88.208
               592       0.102955606            -88.237        0.993116048              1.153        0.993230392              1.121        0.102991172            -88.388
               593       0.102754299            -88.241        0.992773098              1.132        0.993344748              1.097        0.102777962            -88.321
               594       0.102329299            -88.251        0.992887401              1.103        0.992773098              1.064        0.102270411            -88.264
               595       0.102129216            -88.355        0.993001718              1.061        0.993116048              1.065        0.101929525            -88.336
               596        0.10161317            -88.334        0.993116048              1.037        0.993230392              1.028        0.101894326            -88.389
               597       0.101507937            -88.485        0.992773098              1.001        0.993230392              0.994        0.101543002            -88.375
               598        0.10104155            -88.355        0.993687897              0.913        0.993116048              0.972        0.101053184            -88.525
               599       0.100797556            -88.376        0.992430265              0.926        0.992887401              0.917         0.10063522            -88.405
               600       0.100519426            -88.289        0.993001718              0.889        0.993001718              0.921        0.100299785            -88.438
               601       0.100207448             -88.42        0.992773098              0.845        0.992430265              0.861       0.0997585206            -88.537
               602      0.0999539589            -88.472        0.992773098               0.89        0.992658807              0.904       0.0997700064              -88.5
               603      0.0994260074            -88.344        0.993230392              0.822        0.992544529              0.802       0.0992087551            -88.521
               604      0.0991859141            -88.473        0.992658807              0.792        0.992773098              0.848       0.0989008445             -88.47
               605      0.0987870462            -88.554        0.993459118               0.79        0.993459118              0.764       0.0989919775            -88.733
               606      0.0984237709            -88.386        0.993001718              0.707        0.992887401               0.75       0.0984804445             -88.74
               607      0.0983444826            -88.526        0.992887401              0.751        0.993344748              0.702       0.0982313245            -88.676
               608      0.0977574805            -88.525        0.993116048              0.692        0.992773098              0.753       0.0977799926            -88.444
               609      0.0978137704            -88.709        0.992887401              0.687        0.992773098              0.655       0.0974989638            -88.599
               610      0.0974204205            -88.672        0.993459118              0.663        0.993459118              0.666       0.0977687359            -88.645
               611      0.0971292421            -88.698        0.993001718              0.621        0.993802306              0.586       0.0967052384            -88.933
               612      0.0967720631            -88.732        0.994031163              0.596        0.993344748                0.6       0.0967943483            -88.817
