!{501R14S240}
!Johanson Technology Inc.
!www.johansontechnology.com
!Test Board Conditions:
!Substrate Type  RO4350B
!Substrate Thickness        20 mil
!Substrate Dk      3.66
!TL Type: GCPW 
!TL Trace Width  36 mil
!TL Gap  12 mil
!Electrode orientation      Horizontal
!DUT TOPOLOGY	SERIES
!Mounting Pad LxW         26x36 mil
! Created Wed Mar 11 16:05:43 2020
# mhz S ma R 50
! 2 Port Network Data from SP1.SP block
! freq  magS11  angS11  magS21  angS21  magS12  angS12  magS22  angS22  
!     
               500       0.112706769            -86.833        0.991174225              2.041        0.991174225              2.077        0.112849594            -87.476
               501       0.112382839            -86.966        0.990717878              2.022        0.991744955              2.043        0.112706769            -87.548
               502       0.112369901            -87.079        0.991402478              1.989        0.992201776              1.997        0.111995352            -87.635
               503       0.111789239             -86.98        0.991288345              1.969        0.992201776              1.941        0.111995352            -87.722
               504       0.111211577            -87.069        0.991288345              1.892        0.992430265              1.938        0.111493616            -87.813
               505       0.111237188             -87.05        0.991973339              1.926        0.991859141              1.923        0.111237188             -87.72
               506       0.110879179            -87.183        0.990489783              1.905        0.992430265              1.875        0.110828129            -87.734
               507       0.110331621            -87.191        0.991174225              1.828        0.991402478              1.868        0.110268128            -87.723
               508       0.110268128            -87.159        0.991516624              1.839        0.992201776              1.826        0.110230049            -87.754
               509       0.110001853            -87.106        0.990946025              1.802        0.991516624              1.789        0.109774129            -87.729
               510       0.109458628            -87.211        0.991516624              1.765        0.991630783              1.749         0.10920688            -87.866
               511       0.109093783            -87.327        0.991402478              1.757        0.992087551              1.742          0.1091566            -87.822
               512       0.108893009            -87.273        0.991288345              1.678        0.991859141              1.709         0.10870512            -87.954
               513       0.108567541            -87.317        0.992430265              1.683        0.992316014              1.712        0.108517555            -87.961
               514       0.108180753            -87.336        0.992316014              1.693        0.992201776              1.646        0.108417653            -87.871
               515       0.107671311            -87.342        0.991859141              1.585        0.992544529              1.611        0.107497905            -88.023
               516       0.107473155            -87.365        0.992430265              1.606        0.992887401              1.585        0.107386577            -88.046
               517       0.107114928            -87.396        0.992087551              1.576        0.992201776              1.564        0.107003997            -88.102
               518       0.106757895            -87.445        0.991744955              1.553        0.992430265              1.562        0.106671892            -88.179
               519       0.106157333            -87.402        0.992658807              1.553        0.992316014              1.508        0.106500096            -88.089
               520        0.10618178            -87.585        0.991630783              1.457        0.992658807              1.488        0.105949766             -88.22
               521       0.105864415            -87.545        0.992658807              1.432        0.992773098              1.457        0.105791311            -88.303
               522       0.105390145            -87.412        0.992087551              1.438        0.992316014              1.414        0.105499403            -88.247
               523       0.105002587            -87.586        0.992316014              1.397        0.992887401              1.369        0.105135649            -88.237
               524       0.104616455            -87.578        0.992430265              1.355        0.992087551              1.369        0.104857621            -88.304
               525       0.104472022            -87.584        0.991859141              1.328        0.992201776              1.369        0.104423922            -88.277
               526        0.10383649            -87.682        0.992658807              1.315        0.993230392              1.331        0.104219744            -88.408
               527       0.103752842            -87.634        0.992087551              1.301        0.992773098              1.272        0.103490384              -88.3
               528       0.103442736            -87.666        0.992087551               1.27        0.992773098               1.26        0.103264251            -88.301
               529       0.102991172            -87.673        0.992887401              1.231        0.992087551              1.226        0.103252363            -88.323
               530       0.102848983            -87.743        0.991859141              1.205        0.993116048               1.21        0.102683343            -88.581
               531       0.102565193            -87.745        0.992544529              1.197        0.993116048              1.178        0.102423591            -88.313
               532       0.102164497            -87.691        0.991859141              1.109        0.992658807              1.148        0.102046943            -88.425
               533       0.101777083            -87.764        0.992316014              1.114        0.991973339              1.131        0.101870866            -88.469
               534        0.10130946            -87.783        0.992430265              1.077        0.993001718              1.091        0.101449521            -88.538
               535       0.101566386            -87.878        0.992316014              1.079        0.992887401              1.091        0.101088092            -88.444
               536       0.100902052            -87.639        0.992201776              1.008        0.992658807              1.063        0.100681575            -88.661
               537       0.100669984            -87.921        0.992201776                  1        0.992658807              1.003        0.100345985            -88.564
               538       0.100334433            -88.093        0.993001718              0.972        0.993116048              1.011        0.100345985            -88.633
               539       0.099873438            -87.998        0.992773098               0.97        0.992544529              0.998        0.100069101            -88.694
               540      0.0994260074            -87.938        0.993001718              0.888        0.993459118              0.926       0.0995634644            -88.704
               541      0.0994374549            -87.827        0.992887401              0.883        0.993687897              0.925       0.0994374549            -88.655
               542      0.0992201776            -87.984        0.993687897              0.907        0.992887401              0.899       0.0991973339            -88.745
               543      0.0986620193              -88.1        0.992887401              0.884        0.993001718              0.835       0.0986620193            -88.669
               544      0.0985144643            -87.979        0.992773098              0.804        0.993573501              0.867       0.0985938896            -88.855
               545       0.098107001            -88.104        0.992316014              0.795        0.993459118              0.792       0.0980053987            -88.804
               546      0.0978475599            -88.402        0.993573501               0.75        0.993344748              0.791       0.0978813611            -88.919
               547      0.0974316371            -88.115        0.993116048              0.735        0.993573501              0.762       0.0974092052            -88.848
               548      0.0972523266            -88.175        0.992658807              0.693        0.992773098              0.751       0.0972747224            -88.801
               549      0.0969616506            -88.118        0.992430265              0.696        0.993001718              0.735       0.0968835402            -88.891
               550      0.0965939665            -88.248        0.992773098              0.645        0.993802306              0.682       0.0963718065            -89.002
               551      0.0963052582            -88.301        0.993344748              0.627        0.993687897              0.608       0.0962165986            -89.123
               552      0.0961280207            -88.238        0.992887401              0.678        0.993459118              0.644       0.0961169542             -88.98
               553      0.0958665758             -88.28        0.993956127              0.599        0.994299487              0.549       0.0956571011            -89.064
               554      0.0952467137            -88.319        0.993687897              0.612        0.993802306               0.55       0.0952796164            -89.071
               555      0.0949948366              -88.3        0.993344748              0.544        0.993802306              0.532       0.0949729657            -89.032
               556      0.0946782016            -88.472        0.993573501              0.519        0.993916728              0.516        0.094852766            -89.201
               557       0.094558375            -88.393        0.993802306              0.466        0.993230392              0.493       0.0943952194            -89.138
               558      0.0943191764            -88.303        0.993230392                0.5        0.993459118              0.482       0.0941564336            -89.145
               559      0.0939182518            -88.347        0.993230392              0.415        0.993802306              0.462       0.0936698878            -89.206
               560       0.093648322            -88.562        0.993573501              0.393        0.993687897              0.376       0.0935082652             -89.21
               561       0.093250249            -88.394        0.993344748              0.407        0.993230392              0.388        0.093379168            -89.269
               562      0.0930679183            -88.536        0.993230392              0.418        0.993459118              0.346       0.0930143595            -89.351
               563      0.0925230626            -88.535        0.993459118              0.303        0.993573501              0.347       0.0927043258            -89.366
               564      0.0924911118            -88.592        0.993573501              0.348        0.994145612              0.294       0.0923315232             -89.32
               565      0.0920873552            -88.468        0.993687897              0.262        0.993687897              0.266       0.0920449572            -89.373
               566      0.0918861383            -88.426        0.992544529              0.291        0.994603539              0.264       0.0918226876            -89.296
               567      0.0918332596            -88.382        0.993916728              0.208        0.994374549              0.257       0.0916009547            -89.404
               568      0.0912851219            -88.455        0.993459118              0.218        0.993687897              0.249       0.0914218489            -89.343
               569      0.0909075597            -88.564        0.993344748              0.137        0.994603539              0.156       0.0908238693            -89.469
               570      0.0906567196            -88.739        0.994260074              0.152        0.994145612              0.133       0.0908238693            -89.581
               571      0.0904586287            -88.729        0.994260074              0.153        0.994031163              0.119       0.0905002961            -89.613
               572      0.0901778756            -88.647        0.993573501              0.078        0.993916728              0.167         0.09012598            -89.522
               573       0.089629299             -88.72        0.993230392              0.044        0.993459118              0.036        0.089629299            -89.629
               574      0.0896189807            -88.605        0.993916728              0.095        0.993916728              0.028       0.0897015608            -89.433
               575      0.0892380353            -88.719        0.992887401               0.03        0.994145612             -0.019          0.0892997            -89.262
               576      0.0891045744            -88.662        0.993344748              0.034        0.993573501          -0.009724       0.0888996395            -89.495
               577      0.0888996395            -88.893        0.993916728              -0.05        0.994718053             -0.022       0.0887666847             -89.68
               578      0.0884911828            -88.942        0.993230392             -0.027        0.993916728             -0.064        0.088511561            -89.592
               579      0.0883486667            -88.794        0.993573501             -0.099        0.994031163             -0.081       0.0883181575            -89.592
               580      0.0878617805            -88.687        0.995061676             -0.077        0.993573501             -0.103         0.08799338            -89.752
               581      0.0875991718            -89.151        0.993802306             -0.129        0.994832581             -0.103       0.0875790036            -89.872
               582      0.0874681619            -88.826        0.993916728             -0.178        0.995405417             -0.164       0.0874480239             -89.84
               583      0.0870763066            -89.061        0.993916728             -0.204        0.994832581              -0.18       0.0871264462            -89.969
               584      0.0866662489            -89.045        0.993459118             -0.168        0.993916728             -0.188       0.0867361218            -89.741
               585      0.0866163742             -88.95        0.993916728             -0.197        0.993916728             -0.184       0.0864768775            -89.816
               586      0.0863574878             -88.94        0.994489037             -0.265        0.993802306             -0.241       0.0862879199            -90.035
               587      0.0860696427            -88.753        0.994374549             -0.297        0.993573501             -0.262       0.0859805067            -89.851
               588      0.0858025115            -89.236        0.993687897             -0.295        0.994832581              -0.31       0.0856643256            -89.918
               589      0.0855165162            -88.947        0.993344748             -0.328        0.994374549              -0.32       0.0852511017            -89.878
               590      0.0853394815             -89.08        0.993687897             -0.305        0.993573501             -0.365       0.0850550296            -89.947
               591      0.0847910474            -89.116        0.994603539             -0.358        0.994260074             -0.402       0.0849473822            -90.036
               592      0.0848496392            -89.153        0.994489037             -0.361        0.995061676              -0.39       0.0844986947             -90.29
               593      0.0845278845             -89.09        0.994718053              -0.41        0.994947122             -0.428       0.0844014679            -90.151
               594      0.0841879627            -89.226        0.994489037             -0.402        0.994489037             -0.434       0.0840427007            -90.081
               595       0.084071733            -89.185        0.994489037             -0.456        0.994718053             -0.437       0.0838494079            -90.097
               596      0.0836372992            -89.242        0.994489037             -0.459        0.995520024             -0.515       0.0837336456            -90.193
               597      0.0835122145            -89.424        0.994832581             -0.527        0.994832581             -0.522       0.0835891675            -90.253
               598      0.0830519818            -89.154        0.995061676             -0.566        0.994603539             -0.536       0.0829086799            -90.291
               599      0.0828800492            -89.259        0.993459118             -0.579        0.994489037             -0.616        0.082546754            -90.154
               600      0.0827942164            -89.173        0.995061676             -0.638        0.994718053              -0.58       0.0824327902            -90.353
               601      0.0822905566            -89.329        0.994145612             -0.663        0.993916728             -0.651       0.0819690685            -90.296
               602      0.0821391114            -89.396        0.994603539             -0.632        0.994489037             -0.605       0.0818182149            -90.413
               603      0.0817334818            -89.243        0.995176243             -0.674        0.994603539             -0.714       0.0814422944            -90.342
               604      0.0814329185            -89.266        0.994832581             -0.713        0.994374549              -0.65       0.0812924102            -90.304
               605      0.0812175716            -89.315        0.995405417             -0.718        0.994947122             -0.725       0.0812924102            -90.607
               606      0.0809748216             -89.19        0.994718053             -0.756        0.994718053             -0.748       0.0809468587             -90.46
               607      0.0806306201            -89.418        0.994603539             -0.729        0.994947122               -0.8       0.0806120564            -90.532
               608      0.0803803698            -89.358        0.994489037             -0.792        0.994489037             -0.736       0.0802878818            -90.169
               609      0.0804173949            -89.478        0.994031163             -0.827        0.994489037             -0.811        0.079928194            -90.415
               610      0.0800202677            -89.582        0.994832581              -0.84        0.995061676             -0.809       0.0803711162             -90.53
               611      0.0798270352            -89.552        0.994832581             -0.843        0.995634644             -0.891       0.0794328235            -90.707
               612      0.0794602633            -89.542        0.995176243             -0.886        0.995061676             -0.895       0.0795426398            -90.634
