!{501R14S100}
!Johanson Technology Inc.
!www.johansontechnology.com
!Test Board Conditions:
!Substrate Type  RO4350B
!Substrate Thickness        20 mil
!Substrate Dk      3.66
!TL Type: GCPW 
!TL Trace Width  36 mil
!TL Gap  12 mil
!Electrode orientation      Horizontal
!DUT TOPOLOGY	SERIES
!Mounting Pad LxW         26x36 mil
! Created Wed Mar 11 16:03:15 2020
# mhz S ma R 50
! 2 Port Network Data from SP1.SP block
! freq  magS11  angS11  magS21  angS21  magS12  angS12  magS22  angS22  
!     
               500        0.30415853            -76.766         0.94852766             12.606        0.949073834             12.599        0.304053495            -76.973
               501        0.30363372            -76.895        0.948418463             12.602        0.948964574             12.516        0.303389118            -77.022
               502       0.303354191            -76.879         0.94863687             12.538        0.950385934             12.499        0.302830769            -76.997
               503       0.302447501             -76.94        0.949510999             12.488        0.950167125             12.464        0.302621654            -77.129
               504       0.301404686            -76.989        0.949401689             12.421        0.949292391             12.386        0.301335293             -77.19
               505       0.301335293            -77.039        0.949839005             12.391        0.949948366             12.409        0.301023222            -77.208
               506       0.300261742            -77.091        0.949401689             12.273        0.950167125             12.318        0.300330888            -77.286
               507         0.3000544            -77.114        0.949948366             12.306        0.950385934             12.252        0.299778167            -77.272
               508       0.299226464             -77.21        0.949401689             12.178        0.951042664             12.251        0.298916577            -77.327
               509       0.298400812            -77.187        0.949948366             12.179        0.950057739             12.145        0.298229088            -77.382
               510       0.298160426            -77.245        0.950057739             12.202        0.951371199             12.093        0.297851643            -77.456
               511       0.297783068            -77.287        0.951261675             12.115        0.950823704               12.1          0.2976117             -77.44
               512        0.29699559            -77.414         0.95191901             12.064        0.951809423             12.007         0.29685885            -77.567
               513       0.296312519            -77.434        0.951371199             11.948        0.951590286             12.029        0.296278406            -77.595
               514       0.295631019            -77.458         0.95191901             11.907         0.95202861             11.971        0.295733144            -77.653
               515       0.295052976            -77.516        0.951809423             11.873        0.952138223             11.897        0.294645627            -77.658
               516       0.294374373            -77.648        0.951261675             11.835          0.9525768             11.819        0.294171097            -77.719
               517       0.293866446            -77.606        0.951809423             11.815        0.952905865             11.831         0.29366352            -77.778
               518       0.293156819            -77.623        0.951480736             11.726        0.952905865             11.738        0.292819504            -77.803
               519       0.292549931            -77.679         0.95202861             11.712        0.952905865             11.722        0.292448905            -77.884
               520       0.291843483            -77.748        0.952467137              11.68        0.953125305             11.685        0.292045151            -77.933
               521       0.291105225            -77.834        0.952357486             11.589        0.952796164             11.609        0.291339922            -78.028
               522       0.290402265            -77.841        0.952247848             11.539        0.952796164             11.547        0.290669859            -77.979
               523       0.290301981            -77.905         0.95345456             11.568        0.952905865             11.538        0.290034726            -78.064
               524       0.289734359            -77.888        0.953344795              11.48        0.953893743             11.487        0.289634305            -78.103
               525       0.289134556             -77.94        0.953564337             11.434        0.954223263             11.447        0.288934898            -78.136
               526       0.288535995            -77.979        0.953344795             11.398         0.95345456             11.394         0.28840315            -78.158
               527       0.288104472            -78.029         0.95345456             11.353        0.954552897             11.357        0.288004982            -78.244
               528       0.287541146            -78.103        0.953674126             11.291        0.954772716              11.31        0.287177229            -78.316
               529       0.286846794            -78.129        0.954223263             11.231        0.954882645             11.301        0.286549728            -78.357
               530       0.285956518            -78.201         0.95411341              11.21        0.954992586             11.188        0.286055301            -78.339
               531       0.285298836            -78.261        0.953783928             11.129        0.954333128             11.135        0.285331684            -78.436
               532       0.285200314            -78.342         0.95510254             11.124        0.955982627             11.133        0.285495982            -78.499
               533       0.284478861            -78.307        0.954882645             11.094        0.954882645             11.116        0.284413365            -78.497
               534       0.283955314            -78.399        0.955872572             10.988         0.95510254             11.039        0.284020704            -78.558
               535        0.28326962            -78.425        0.954882645             11.008        0.956092695             10.955        0.283628586            -78.588
               536       0.282780853             -78.48        0.955322486             10.947        0.955432478              10.99        0.282845973            -78.666
               537       0.282520522            -78.479        0.955652499             10.891        0.956533093              10.96        0.282097995            -78.683
               538        0.28161125            -78.591        0.956092695             10.846        0.956092695             10.872        0.281416787            -78.728
               539       0.281384389            -78.628        0.954992586             10.772        0.956973695             10.817        0.280704904            -78.735
               540       0.280672589            -78.699        0.956973695             10.763        0.956753369             10.764        0.280349638            -78.833
               541       0.279865909            -78.651        0.956092695             10.715        0.956643225             10.737        0.279769264            -78.907
               542       0.279383015             -78.68        0.956533093             10.695        0.956643225              10.68        0.279318692            -78.926
               543       0.278933066            -78.826        0.956643225             10.606        0.956753369             10.638        0.278772545            -79.012
               544       0.278067351            -78.867        0.955872572             10.586        0.956973695             10.607        0.277779377            -78.988
               545       0.277779377            -78.802        0.956312869             10.568        0.957524732             10.602        0.277747399            -78.978
               546        0.27723624             -78.87        0.957524732              10.52        0.957083877             10.521        0.277044798             -79.09
               547       0.276503097             -78.97        0.956643225             10.455        0.957524732              10.45        0.276598614            -79.129
               548       0.276057786            -78.985        0.957524732             10.409        0.958296716             10.405        0.276057786            -79.175
               549       0.275708401            -79.059        0.956973695             10.405        0.957634977             10.384        0.275454581             -79.17
               550        0.27542287            -79.092        0.957745235              10.33        0.958296716             10.322        0.274852695            -79.263
               551       0.274789415            -79.077        0.957745235             10.312        0.958296716             10.283        0.274631279            -79.334
               552       0.273778916            -79.126        0.957634977             10.236        0.958186395             10.253        0.273621362            -79.314
               553       0.273715884            -79.221        0.958186395             10.217         0.95873813             10.219        0.273117797            -79.361
               554       0.272929199            -79.223        0.957634977             10.176        0.958848515             10.186        0.272740731             -79.44
               555       0.272332831            -79.252        0.957965789             10.098        0.959511093             10.138        0.272113445            -79.469
               556       0.272144775            -79.343        0.958076086             10.092        0.959842554             10.097        0.271831637            -79.517
               557       0.271237667            -79.392        0.958407051                 10        0.959290183             10.062        0.270987963            -79.574
               558       0.270800836            -79.405        0.958517398              9.994        0.958848515              10.03        0.270489244            -79.556
               559       0.270395836            -79.437         0.95873813              9.943        0.959732054              9.985        0.269929282             -79.68
               560       0.269773943            -79.501        0.959179747              9.935        0.959732054              9.903        0.269649736            -79.655
               561        0.26915348            -79.574        0.959732054              9.864        0.958958913              9.893        0.268998588            -79.702
               562       0.268781888            -79.488        0.958958913              9.863        0.959621567              9.836        0.268627209            -79.722
               563       0.268071102            -79.603        0.959621567               9.78        0.960284679              9.834        0.268163707            -79.803
               564       0.267824313            -79.634        0.959621567              9.776        0.959953066              9.797        0.267362196             -79.86
               565       0.267177573            -79.715        0.959511093              9.695        0.960395242              9.716        0.266716572            -79.835
               566       0.266931606            -79.706        0.959842554              9.697        0.961280207              9.677        0.266225714            -79.946
               567        0.26616442            -79.761        0.959953066              9.625        0.961058889              9.641        0.265796954             -79.91
               568        0.26549112            -79.784        0.960505818              9.606        0.960395242              9.615        0.265338335            -79.999
               569       0.265002518            -79.864        0.960727008              9.546        0.961390884              9.579        0.265246706            -80.073
               570       0.264514814            -79.827        0.960505818              9.518        0.961169542              9.551        0.264362591            -80.066
               571       0.263967221            -79.894        0.960616407              9.488        0.961280207              9.467        0.264271299            -80.124
               572       0.263693849            -79.923        0.961501575              9.458         0.96094825              9.464        0.263633139            -80.154
               573       0.263329794            -80.015        0.961058889              9.363        0.961612278              9.421        0.262784654            -80.173
               574       0.262421854            -80.046         0.96094825              9.328        0.962498364              9.305        0.262180266            -80.253
               575       0.262180266            -80.069        0.961501575              9.283        0.961944465              9.301        0.261667629            -80.333
               576       0.261607385             -80.12        0.961612278              9.228        0.961501575              9.259        0.261366547            -80.369
               577       0.261005705            -80.139        0.961833723               9.19        0.962498364              9.233        0.260825471            -80.416
               578       0.260555353            -80.203        0.962387559              9.175        0.962055219              9.163        0.260555353            -80.484
               579       0.259986023            -80.252        0.961390884              9.181        0.962055219              9.169        0.259956092            -80.437
               580       0.259507551            -80.203        0.962720013              9.117        0.962830857              9.126        0.259417936            -80.485
               581       0.258821292            -80.285        0.962165986              9.037        0.962387559              9.055        0.258821292            -80.583
               582       0.258731913            -80.298        0.961944465              9.026        0.962720013              9.027         0.25825575             -80.56
               583       0.258196291            -80.317        0.962276766              9.014        0.962830857              8.967        0.257899203            -80.555
               584       0.257780463            -80.368        0.961833723              8.959        0.962720013              8.977        0.257098771             -80.58
               585       0.257009987            -80.454        0.962609182              8.884        0.963163464              8.954        0.257128372            -80.711
               586       0.256359845            -80.424        0.962276766              8.888        0.962498364              8.904        0.256418881            -80.688
               587       0.256064869            -80.499        0.962830857               8.83        0.963385266              8.843        0.256005915            -80.806
               588       0.255475937             -80.48        0.963385266              8.762        0.962609182              8.835        0.255417118            -80.757
               589        0.25527013            -80.631        0.963385266              8.694        0.963496186              8.758        0.254712348             -80.88
               590       0.254653705            -80.565        0.962941713              8.662        0.963385266               8.75        0.254448562            -80.904
               591       0.254272855            -80.668        0.962941713              8.655        0.963607119              8.687        0.253746465            -80.915
               592       0.253980281            -80.649        0.963274359              8.619        0.963718065               8.67        0.253658839            -80.921
               593       0.253425318            -80.759        0.963829024              8.568        0.964828225              8.581        0.253221164            -81.027
               594         0.2529298            -80.808        0.963718065              8.565        0.964384008              8.574        0.252638771            -81.007
               595       0.252115763             -80.71        0.963939995              8.513        0.964161976              8.509        0.251912664            -81.097
               596       0.251651776            -80.903        0.964161976              8.477        0.963939995              8.484        0.251535913            -81.072
               597       0.251130811            -80.869        0.964050979              8.397        0.964495043              8.418        0.250986291            -81.158
               598        0.25075523            -80.967        0.964717152               8.38        0.964384008              8.402        0.250726362            -81.171
               599       0.250524382            -80.953        0.964606091              8.345        0.965161523              8.372         0.25038021            -81.252
               600       0.249746839             -81.03        0.964717152               8.31        0.964939312               8.29        0.249488194            -81.309
               601       0.249258513            -81.023        0.964939312               8.27        0.964939312              8.322        0.249402039            -81.267
               602       0.248627979            -81.061        0.965272648              8.248        0.964939312              8.226        0.248742503            -81.327
               603       0.248456292            -81.128        0.965050411              8.251        0.965272648              8.232        0.248256141            -81.347
               604        0.24799904            -81.164        0.965606099              8.174        0.965272648              8.177        0.247913399            -81.431
               605       0.247599635             -81.14        0.965606099              8.085        0.965050411              8.144        0.247428658            -81.466
               606       0.247115508            -81.216        0.965717274              8.095        0.965828463              8.133        0.247143959            -81.523
               607       0.246603934             -81.16        0.964828225              8.029        0.965494935              8.129        0.246405274            -81.472
               608       0.246093419            -81.323        0.965717274              8.015        0.966050879              7.998         0.24603676            -81.568
               609       0.245951797            -81.367        0.966384599              7.922        0.965828463               7.99        0.245583961            -81.608
               610       0.245612237            -81.355        0.965828463                7.9        0.965939665              7.934        0.244906324             -81.63
               611       0.244849939            -81.407        0.966495864              7.942        0.966050879              7.902        0.244596366            -81.655
               612       0.244090007            -81.472        0.965939665              7.868        0.966050879              7.819        0.244005716            -81.731
