!{501R14S3R6}
!Johanson Technology Inc.
!www.johansontechnology.com
!Test Board Conditions:
!Substrate Type  RO4350B
!Substrate Thickness        20 mil
!Substrate Dk      3.66
!TL Type: GCPW 
!TL Trace Width  36 mil
!TL Gap  12 mil
!Electrode orientation      Horizontal
!DUT TOPOLOGY	SERIES
!Mounting Pad LxW         26x36 mil
! Created Wed Mar 11 15:59:33 2020
# mhz S ma R 50
! 2 Port Network Data from SP1.SP block
! freq  magS11  angS11  magS21  angS21  magS12  angS12  magS22  angS22  
!     
               500       0.682652995            -51.319        0.723435806             38.166        0.724352561             38.213        0.681789016            -51.349
               501       0.681867514            -51.403        0.724019061             38.157        0.724853099             38.133        0.681082937            -51.399
               502       0.681867514            -51.443        0.724602787             38.053        0.726524058             38.061        0.680377589            -51.461
               503       0.680612624            -51.519        0.725604554             37.988        0.726858712              38.01        0.679907763            -51.562
               504       0.679360043            -51.588        0.726524058             37.899        0.726942399             37.922        0.678500231            -51.654
               505       0.679125441             -51.65         0.72719352             37.856        0.728031214             37.912        0.678187842            -51.686
               506       0.678109767            -51.742        0.727109803             37.735        0.728366562             37.825        0.676939724            -51.781
               507       0.677563496            -51.814        0.728534294              37.73        0.729289566             37.686        0.676705958            -51.824
               508       0.676472272            -51.916        0.728785964               37.6        0.730381896             37.679        0.675616115            -51.866
               509       0.675849505            -51.931        0.729709499             37.531         0.73046599             37.582        0.674528028            -51.972
               510       0.674994136            -51.978        0.730213739             37.538        0.731475863             37.507        0.674062241            -52.056
               511        0.67460569            -52.074        0.731644311             37.431        0.731644311             37.468         0.67390705            -52.075
               512       0.674217468            -52.142        0.732487133             37.389        0.733330925             37.387        0.673131633            -52.179
               513       0.672744259            -52.228        0.732571468             37.231        0.733162089             37.364        0.672047547            -52.252
               514       0.671970179            -52.303          0.7334998             37.178        0.734006659             37.263         0.67119699            -52.312
               515       0.671660796            -52.346        0.733922158             37.097        0.735190692             37.197        0.669884609            -52.401
               516       0.670193174            -52.465        0.734429309             37.063        0.735359995             37.115        0.669730381            -52.445
               517       0.669961737            -52.498        0.735444662             36.988        0.736631014             37.088         0.66903679            -52.544
               518       0.668882756            -52.559        0.735698719             36.896        0.737140037             36.977        0.667728633            -52.594
               519       0.667728633            -52.621        0.736291861             36.845        0.737309789              36.94        0.667190725            -52.672
               520       0.667421204            -52.703        0.737649411             36.838        0.738414132             36.864        0.666883543            -52.711
               521         0.6661929            -52.812        0.737989189             36.741        0.738754263             36.749        0.665886178            -52.814
               522       0.664890304            -52.864        0.738244126             36.641        0.739009464             36.672        0.665119989            -52.869
               523       0.665426359            -52.916         0.73952013              36.63        0.740031149             36.659        0.663972359            -52.924
               524         0.6642782            -52.967        0.739945954             36.504        0.740798339             36.597        0.663437476            -53.019
               525        0.66389592             -53.02        0.741054246             36.483        0.741822497              36.54        0.662826709            -53.055
               526       0.662903024            -53.099        0.741054246             36.402        0.741737097             36.441        0.661683035            -53.136
               527       0.662521536            -53.149        0.741566325              36.33        0.743104686             36.403        0.661149997            -53.212
               528       0.661683035            -53.222        0.742762552             36.238        0.743789426             36.335        0.660617387            -53.325
               529       0.660845596            -53.283        0.743446977             36.164        0.744389091             36.292        0.659781297            -53.368
               530       0.659857261            -53.417        0.744389091             36.115          0.7451608             36.157         0.65924979            -53.415
               531       0.658642878            -53.471        0.744132033             36.058          0.7451608             36.088        0.657885024             -53.48
               532       0.658491237            -53.557        0.745847434             36.022        0.746878573             36.064        0.658567053            -53.554
               533        0.65743073             -53.57        0.746276902             35.936        0.746534701             36.036        0.656976749            -53.612
               534       0.656825492            -53.701         0.74713658             35.822         0.74713658             35.927        0.656220812            -53.704
               535       0.656069729            -53.734        0.747050568             35.826        0.748858908             35.836        0.656220812             -53.75
               536       0.655541212            -53.767        0.747997248             35.759        0.748514125             35.839        0.654862316            -53.815
               537       0.655390286            -53.843        0.748945128             35.656        0.750239628             35.787        0.653958215            -53.878
               538       0.654033509            -53.965        0.750066899             35.611        0.750153258             35.667        0.653280959            -53.934
               539       0.653581875            -54.021         0.74946266             35.483        0.751276839             35.602        0.651928549            -54.029
               540       0.653205751            -54.104        0.751276839             35.482        0.751795982             35.526        0.651553377             -54.09
               541        0.65170342            -54.111        0.751622894             35.384        0.752402102             35.506         0.65095355            -54.197
               542       0.651103455            -54.175        0.752228875             35.359        0.752748675              35.42        0.650354276            -54.236
               543       0.650429155             -54.29        0.752662017             35.295        0.753355564             35.349        0.649456399             -54.31
               544       0.649755553            -54.355        0.753008711             35.204        0.754657687             35.306        0.648485097            -54.373
               545       0.648709115            -54.379        0.753876143             35.143        0.754744575             35.225        0.648410442            -54.405
               546       0.648186527            -54.429        0.755005299             35.104        0.755353072             35.178        0.647291643            -54.502
               547       0.647291643            -54.537        0.755005299             35.021        0.756049099             35.073        0.646993623             -54.57
               548       0.646844664            -54.606        0.756310274             34.962        0.757355877             35.014        0.646323579            -54.618
               549       0.645802914            -54.644        0.756310274             34.918        0.756920034              34.96        0.645208381            -54.662
               550       0.645951632            -54.776        0.757443076             34.815        0.758053749             34.863        0.644095107            -54.782
               551       0.644762841            -54.761        0.757791972             34.791        0.758577575             34.809        0.643798559            -54.831
               552       0.643576237            -54.874        0.758490246              34.67        0.759101763             34.731        0.642613729            -54.922
               553       0.643724443            -54.957        0.759538863             34.628        0.760063715             34.694        0.642169981            -54.977
               554       0.642243918            -54.993        0.759538863             34.581        0.760413818             34.635        0.641726539            -55.045
               555       0.641504933            -55.064        0.760151225             34.463        0.761552766             34.568        0.640988149            -55.119
               556       0.641283403            -55.134        0.760764082             34.466         0.76207901             34.508        0.640398049            -55.169
               557       0.640103202            -55.231        0.761552766             34.345        0.762605617             34.445        0.639219478            -55.224
               558       0.639513917            -55.267        0.762342268             34.295        0.762693421             34.405        0.638483973            -55.276
               559       0.638925174            -55.339        0.762956891              34.22        0.763835784             34.314        0.637896178            -55.392
               560       0.638043076            -55.404        0.763659924             34.184        0.764099649             34.224        0.637308924            -55.424
               561       0.637455687            -55.478        0.764891791             34.089        0.764539626             34.238        0.636722211            -55.486
               562       0.636942165            -55.489        0.764539626             34.057        0.765596607              34.11        0.635769955            -55.551
               563       0.635696763            -55.568        0.765508469             33.953        0.766213854             34.104        0.635477239            -55.611
               564       0.635257791            -55.614        0.766037447             33.934        0.766390301             34.032        0.633942692            -55.668
               565       0.634380756            -55.739        0.766655049             33.827        0.767361489             33.923        0.633504932            -55.739
               566       0.634015682            -55.729        0.767538201             33.824        0.768333908             33.874        0.632994593            -55.836
               567       0.633140362            -55.842        0.768068581             33.713        0.768599327             33.788        0.632047911            -55.855
               568       0.632484665            -55.876        0.768776324             33.653         0.76913044             33.756        0.631538745            -55.949
               569       0.631756909            -55.975         0.76930756             33.599        0.770105101             33.692        0.631320657            -55.999
               570       0.630739457            -56.009         0.76966192             33.525        0.770459829             33.618        0.630376479            -56.059
               571       0.630086247            -56.069        0.770105101              33.49        0.771347365             33.545        0.629796148            -56.126
               572       0.629723644            -56.111        0.771436174             33.438        0.771347365             33.515        0.629216351            -56.178
               573       0.628999065             -56.21        0.771524994             33.304        0.772147021             33.456        0.628202991            -56.249
               574       0.628202991            -56.252        0.772147021             33.253        0.773392578             33.325        0.627335696            -56.371
               575       0.627769194            -56.341        0.772947506             33.179        0.773481623             33.285        0.626541727            -56.431
               576       0.626758164            -56.399        0.773481623             33.116        0.773837907             33.231        0.626181165            -56.508
               577       0.625892864            -56.443        0.774105227             33.057        0.774640145             33.165        0.625388657            -56.548
               578       0.625316661            -56.507        0.774729334             33.029        0.774818533             33.063        0.624525247            -56.616
               579       0.624381462            -56.569        0.774907742             32.976        0.775264683              33.06        0.623878472            -56.629
               580       0.623950303            -56.598        0.776157753             32.895        0.776425875              32.97        0.623160619            -56.714
               581       0.622658613            -56.686        0.775979057             32.798        0.776604674              32.89        0.622228644            -56.796
               582       0.622371934            -56.747        0.776515269             32.764        0.777051852             32.805        0.621584248            -56.845
               583       0.621798972            -56.779        0.777141319             32.705        0.777946981             32.758        0.621083512            -56.873
               584       0.620940519            -56.849        0.777320283             32.649        0.778215721             32.752         0.62008325             -56.91
               585       0.619726404            -56.918        0.778305322             32.568        0.778663827             32.689        0.619869118            -57.019
               586       0.619084599            -56.972        0.778753479             32.538        0.779291609             32.606        0.619155878            -57.055
               587       0.618585876            -57.008        0.779112191             32.458        0.780009694              32.55         0.61815872            -57.129
               588       0.617660744            -57.067        0.780099501             32.358        0.779740334             32.501        0.617305292            -57.171
               589       0.617731859            -57.189         0.78081833             32.275         0.78090823             32.415        0.616453042            -57.284
               590       0.616311115            -57.201        0.780638561             32.227        0.781267935              32.37        0.615672847            -57.335
               591       0.615672847            -57.293         0.78081833             32.188        0.781537822             32.281        0.614610535            -57.347
               592       0.615106052            -57.304        0.781807802             32.099        0.781897816             32.264        0.614469032            -57.432
               593       0.614964435            -57.426        0.782618302             32.041        0.783880751             32.133        0.613974028            -57.518
               594       0.613903345            -57.499        0.783159102             31.992        0.783790509             32.085        0.613055792            -57.557
               595       0.613267571            -57.484        0.783790509             31.949        0.784512739              32.01        0.612420895            -57.653
               596       0.611857094            -57.587        0.784332119             31.866        0.783790509             31.975        0.611716225             -57.68
               597       0.611012366            -57.639        0.784151541             31.798        0.785145236             31.887        0.611082716            -57.759
               598        0.61066074             -57.73        0.785506892             31.759        0.785687783             31.817        0.610449862              -57.8
               599       0.610379586            -57.747        0.785778244             31.676         0.78659286              31.79         0.60974746            -57.899
               600       0.609466726             -57.82        0.786411761             31.654        0.786864587              31.71        0.608975751            -57.931
               601       0.608485173            -57.864        0.786774001             31.564        0.787589649             31.705         0.60834508            -57.945
               602       0.607994989              -57.9         0.78749898              31.53        0.787589649             31.593        0.607365333            -57.999
               603       0.607715062            -57.969        0.787589649             31.529        0.788406144             31.549        0.606596639            -58.033
               604       0.606876052            -58.045        0.788678497             31.421        0.788860118             31.486        0.606247555            -58.146
               605       0.605968432            -58.091        0.788769302             31.323         0.78904178             31.428        0.605131834            -58.213
               606       0.605131834            -58.116        0.789132627             31.305        0.789677929             31.401        0.604783592            -58.269
               607       0.604157262            -58.183        0.788860118              31.22        0.790314591             31.344        0.603809581            -58.269
               608       0.603740069            -58.248        0.790223608             31.166         0.79113391             31.251        0.603392628            -58.399
               609       0.603323164            -58.361        0.791042833             31.067        0.791316097             31.181        0.602698347            -58.446
               610       0.602698347            -58.384        0.791042833             31.028        0.791862907             31.105        0.601935559            -58.497
               611       0.601796974            -58.417        0.791954079             31.032        0.792045261             31.092        0.601173737            -58.517
               612       0.600343759            -58.533        0.792136454             30.939        0.792592576             30.965        0.600343759            -58.628
