!{501R14S1R4}
!Johanson Technology Inc.
!www.johansontechnology.com
!Test Board Conditions:
!Substrate Type  RO4350B
!Substrate Thickness        20 mil
!Substrate Dk      3.66
!TL Type: GCPW 
!TL Trace Width  36 mil
!TL Gap  12 mil
!Electrode orientation      Horizontal
!DUT TOPOLOGY	SERIES
!Mounting Pad LxW         26x36 mil
! Created Wed Mar 11 15:54:56 2020
# mhz S ma R 50
! 2 Port Network Data from SP1.SP block
! freq  magS11  angS11  magS21  angS21  magS12  angS12  magS22  angS22  
!     
               500       0.922524066            -26.735        0.380607818              62.89        0.381836732             62.992        0.921568676            -26.695
               501       0.922038661            -26.805        0.381196699             62.798        0.382515582             62.956        0.921720255            -26.773
               502       0.922163773            -26.846        0.382039315             62.781        0.382920006             62.907        0.921102704            -26.804
               503        0.92170205            -26.907        0.382596113             62.752        0.383919838             62.765        0.920641512             -26.89
               504       0.921767447            -26.947        0.383461147             62.678        0.384123933             62.763        0.920176985            -26.936
               505       0.921091486            -27.027        0.383930636             62.616          0.3850816             62.728        0.920137579            -26.921
               506        0.92110649            -27.024        0.384821956             62.591        0.385709062             62.718        0.919623038            -26.996
               507       0.920461243            -27.111        0.385660808             62.542        0.386282921             62.604        0.919719737            -27.041
               508       0.920772263            -27.142         0.38632448             62.517        0.386858575             62.592        0.919077699            -27.121
               509       0.920037936            -27.144        0.386950788             62.456        0.387441141             62.561        0.919402616            -27.177
               510       0.919654747             -27.25        0.387681268             62.407        0.388217239             62.486        0.919337164            -27.219
               511       0.919418054            -27.314         0.38816201             62.309        0.389012026             62.414        0.918677389            -27.289
               512       0.919549075            -27.362        0.388798796             62.271        0.389650207             62.353        0.917751096            -27.352
               513       0.918672095            -27.436        0.389592444             62.174        0.390445593             62.299        0.918143417            -27.404
               514       0.918357809             -27.49        0.390356956             62.161        0.390896627             62.274        0.918146373            -27.407
               515        0.91823588            -27.533        0.390709759             62.128        0.391790823             62.189        0.917601804            -27.486
               516       0.917997951            -27.546        0.391328711             62.049        0.392456668             62.176         0.91736404            -27.579
               517       0.917578458            -27.619        0.391780854             62.054        0.393181621             62.084        0.916944836            -27.555
               518       0.917347795            -27.635        0.392901803             61.968        0.393762199             62.075        0.916819879            -27.667
               519       0.917423818            -27.741        0.393522901             61.904        0.394520896             62.027        0.915946296            -27.684
               520       0.916751536            -27.739        0.394413386             61.895        0.395004139             61.952        0.915907566            -27.713
               521        0.91605103            -27.769        0.394975054             61.848        0.395521109             61.933        0.916367477            -27.771
               522        0.91630436            -27.855        0.395266268             61.753        0.396314309             61.843        0.915144666            -27.832
               523       0.915583408            -27.902        0.396276131             61.759        0.397098196             61.832        0.915794253            -27.866
               524       0.915843853            -27.974        0.396891168             61.692        0.397531397             61.786        0.915211429            -27.929
               525       0.915205704            -28.056        0.397208669             61.606        0.398628842             61.727        0.915100343            -27.997
               526       0.915275743            -28.046        0.397788252             61.577        0.399210497              61.66        0.913906892            -28.043
               527       0.915089555            -28.109        0.398578252              61.54        0.399589068             61.639        0.913720983            -28.042
               528       0.914765413             -28.19        0.399769572             61.414        0.399953715             61.558        0.913397326            -28.156
               529       0.914318285            -28.238        0.400080519             61.381        0.400864322             61.489        0.913371393            -28.213
               530       0.913954012            -28.276        0.401027674             61.336         0.40144342             61.452        0.913217749            -28.266
               531       0.913804435             -28.32        0.401146735             61.345        0.402349311             61.369        0.912647906            -28.294
               532       0.913476348            -28.408        0.402297475             61.212        0.403085622             61.365        0.912530327            -28.379
               533       0.913179259            -28.389        0.402861753             61.212        0.403511613             61.355         0.91244362            -28.406
               534       0.913085015            -28.423        0.403609347             61.195        0.404027769             61.284        0.911824413            -28.453
               535       0.912471636            -28.502        0.404128402             61.114        0.404966756             61.235        0.911946526            -28.513
               536       0.912299735            -28.558        0.404843852             61.044         0.40549691             61.177        0.911669759            -28.598
               537        0.91183114            -28.612        0.405381961             60.976        0.406269687             61.141        0.911201487            -28.604
               538       0.911710009            -28.694        0.405841751             60.994        0.406917833             61.017        0.910765818            -28.635
               539       0.911131198            -28.721         0.40661268             60.926        0.407878598              61.02        0.910711703             -28.69
               540       0.911300308            -28.752        0.407344181             60.831        0.407954302             60.978        0.909832649            -28.758
               541       0.910961779            -28.813        0.408178529             60.842        0.408836965             60.913        0.909913599             -28.81
               542       0.910153472            -28.843        0.408756461              60.76        0.409651576             60.873        0.909943925            -28.868
               543       0.910350401            -28.919        0.409598717             60.646        0.409976146             60.802        0.908779639            -28.944
               544       0.910201295            -28.953        0.409908996             60.604        0.410664772             60.774         0.90863079            -29.011
               545       0.909727916            -29.016         0.41040394             60.587        0.411681661             60.701        0.908262789            -29.028
               546       0.909190012            -29.085        0.411485614             60.549        0.412196838             60.677        0.908457587             -29.03
               547       0.909312996            -29.113        0.412205135             60.477        0.412679977             60.616        0.907535032             -29.14
               548        0.90817546            -29.181         0.41249602             60.426        0.413446922             60.568          0.9083846            -29.157
               549       0.908733633             -29.24        0.413415354             60.365        0.413939244             60.516         0.90716566            -29.241
               550       0.907920611            -29.294        0.413902334             60.338        0.414856477             60.467        0.907293658            -29.232
               551       0.907860162            -29.318        0.414828856             60.317        0.415498021             60.424        0.906919958            -29.314
               552       0.907078374            -29.382         0.41509243             60.228         0.41619304             60.351        0.906869536            -29.355
               553       0.907390263            -29.432         0.41595286             60.176        0.416767759             60.303        0.906033206            -29.447
               554       0.907033293            -29.493        0.416603801              60.15        0.417419975             60.231        0.905676769            -29.468
               555       0.906655032            -29.519        0.417197864             60.124        0.417774643             60.174        0.905507551            -29.495
               556       0.906551408            -29.575         0.41782309             60.015        0.418834489             60.188          0.9049872            -29.589
               557       0.906127604            -29.606        0.418542304             60.044        0.419313998             60.115        0.905084986            -29.604
               558       0.905670021            -29.614        0.419391856             59.933        0.419826639             60.124        0.904836252            -29.674
               559        0.90563856              -29.7        0.419715401             59.953        0.420489258             60.001        0.903971848            -29.671
               560       0.905070296            -29.742        0.420612632             59.837        0.421194132             59.985         0.90392482            -29.752
               561       0.904499198            -29.848        0.421219226             59.764        0.422044443             59.883        0.903978676            -29.833
               562       0.904444425            -29.869        0.421776022             59.759        0.422407758             59.843        0.903611784            -29.861
               563       0.904244769            -29.916        0.422363135             59.709        0.423190593             59.824        0.903204317              -29.9
               564       0.904081388            -29.944        0.423016715             59.704         0.42374787               59.8        0.902833215            -29.912
               565       0.903947077            -30.013        0.423636142             59.636        0.424368368             59.713        0.902179604            -29.996
               566       0.903040924            -30.038        0.424382466             59.567          0.4253118             59.688        0.902417341            -30.043
               567       0.903052679            -30.122        0.425317336             59.505        0.425562239             59.612        0.901805927            -30.098
               568       0.902921512            -30.192        0.425696422             59.503        0.426383117             59.521        0.901156044            -30.124
               569        0.90229888            -30.235        0.426629044             59.386         0.42682556             59.532        0.901468215            -30.188
               570       0.902309412            -30.234        0.426928834             59.371        0.427568289             59.445        0.900337807            -30.261
               571       0.901382947            -30.316        0.427966069             59.288        0.428261799             59.383         0.90117542             -30.36
               572       0.901215216            -30.351        0.428231407              59.29        0.428872812             59.353        0.900800287            -30.344
               573       0.901064962            -30.437        0.429295269             59.208        0.429295269             59.273        0.900339082            -30.433
               574       0.900637446            -30.475        0.429536427             59.188        0.430229316             59.287        0.899808311            -30.425
               575       0.900637446            -30.498        0.430130263             59.127        0.430774513             59.245        0.899394029            -30.478
               576       0.900608994            -30.578        0.430959323             59.068        0.431207474             59.153        0.898744571            -30.557
               577       0.899601146            -30.611        0.431469399             59.017        0.432065908             59.097        0.898979938            -30.614
               578        0.89956052             -30.63        0.432046396             58.992        0.432942666             59.096        0.898835852            -30.658
               579       0.899316906             -30.69        0.432675952             58.912        0.433373905             59.055        0.898075311            -30.663
               580        0.89900929            -30.728        0.433425221             58.865        0.433874553             59.009         0.89838849            -30.778
               581       0.898462593            -30.805        0.433810441              58.84         0.43476042             58.936        0.897738809            -30.775
               582       0.898255738            -30.851        0.434610285             58.805        0.435211137             58.842        0.897635459            -30.858
               583       0.898152328            -30.905        0.435211137             58.754        0.435812819             58.839        0.897222178            -30.872
               584       0.897407695            -30.929        0.436053512             58.694        0.436455317             58.776        0.897201083            -30.942
               585       0.896912342            -30.972        0.436515832             58.655        0.436968368             58.736        0.896602613            -30.971
               586       0.896774227            -31.039        0.437354016             58.596        0.437908241             58.659        0.896464546            -31.048
               587       0.896571236            -31.072        0.438262994             58.553         0.43821254              58.65        0.896364816              -31.1
               588       0.895983475            -31.106        0.438732695             58.543        0.438833729             58.621        0.896396186            -31.119
               589       0.896082643             -31.19        0.439438461             58.505        0.439691495              58.52        0.895670076             -31.18
               590       0.895674067            -31.199        0.439744078             58.413        0.439997288             58.483        0.894746483            -31.249
               591       0.895467854            -31.237        0.440352027             58.359        0.440504146             58.455        0.894540484            -31.284
               592       0.895036765            -31.313        0.441510336             58.322        0.441256255             58.407        0.894933726            -31.353
               593       0.894643477            -31.344        0.441875579             58.294        0.441926455             58.363         0.89381986             -31.38
               594       0.894910193            -31.415        0.442414604             58.191        0.442465542             58.314          0.8935718            -31.446
               595       0.894199415            -31.454        0.443133294             58.182        0.443286373             58.247         0.89368482            -31.481
               596        0.89381986            -31.494        0.443864079             58.127          0.4437108             58.204        0.893202644            -31.516
               597       0.893579413            -31.567        0.443897966             58.088        0.444921256              58.14        0.893167999            -31.593
               598        0.89363097            -31.632        0.444844486             58.022         0.44515188             58.089        0.892294491            -31.625
               599       0.892948101            -31.647        0.445580543             57.981        0.445888445             58.088        0.892536978            -31.665
               600       0.892791404            -31.668        0.446066902             57.942        0.446375141             57.983        0.891661469            -31.757
               601       0.892380353            -31.726        0.446786457             57.924         0.44724964              57.97        0.891764131            -31.776
               602       0.891661469            -31.812        0.447301135             57.821        0.447971103             57.873         0.89145618            -31.854
               603       0.891695358            -31.861        0.448194482             57.789        0.448504191             57.849        0.891182204            -31.888
               604       0.891250938            -31.892        0.448435515              57.74        0.448900408              57.83        0.890122953            -31.924
               605       0.891568145            -31.962        0.449318751              57.72        0.449681005             57.769        0.889927328            -31.949
               606       0.891045744            -31.985        0.449831641              57.66        0.450142481             57.706        0.889713131            -32.008
               607       0.890321871            -32.041        0.450450468             57.611        0.450969367              57.64        0.889911957            -32.065
               608       0.890430444            -32.127        0.451284066             57.516        0.451491938             57.594        0.889098751            -32.145
               609       0.889405888             -32.13        0.452116128             57.477        0.451803926             57.607         0.88950829            -32.161
               610       0.889098751            -32.197         0.45206408             57.448        0.452324384              57.52         0.88838251            -32.206
               611       0.889303497            -32.232        0.453106195             57.392        0.453210539               57.5          0.8886894             -32.27
               612       0.888484795            -32.342        0.453889358             57.359        0.453993882             57.416         0.88879172            -32.303
