!{501R14S2R4}
!Johanson Technology Inc.
!www.johansontechnology.com
!Test Board Conditions:
!Substrate Type  RO4350B
!Substrate Thickness        20 mil
!Substrate Dk      3.66
!TL Type: GCPW 
!TL Trace Width  36 mil
!TL Gap  12 mil
!Electrode orientation      Horizontal
!DUT TOPOLOGY	SERIES
!Mounting Pad LxW         26x36 mil
! Created Wed Mar 11 15:57:46 2020
# mhz S ma R 50
! 2 Port Network Data from SP1.SP block
! freq  magS11  angS11  magS21  angS21  magS12  angS12  magS22  angS22  
!     
               500       0.820162673            -40.454        0.566108923             49.063        0.566761055             49.102        0.819124659            -40.647
               501       0.819879448            -40.537        0.566565336             48.932        0.567936787              49.05        0.819030359             -40.75
               502        0.81959632            -40.595        0.567348616             48.914        0.568852931             48.969        0.818370564            -40.793
               503       0.818276351            -40.679        0.567871404             48.798         0.56865649             48.867        0.816676389            -40.895
               504       0.818087958            -40.736        0.568721963             48.763        0.569967379             48.812        0.816864458            -40.922
               505       0.817146641            -40.794        0.569836154             48.721         0.57049258             48.756        0.817146641             -40.97
               506       0.816394368            -40.788        0.570098633              48.63        0.571412847             48.763        0.815736697            -41.042
               507       0.816582371            -40.931        0.571412847             48.559        0.572598228             48.654        0.815924549            -41.117
               508       0.815830617            -40.965        0.571676052             48.509        0.573125854             48.617        0.814891898            -41.186
               509       0.814985722            -41.056        0.572334598             48.449        0.573455867             48.473        0.813954259            -41.292
               510       0.814985722            -41.082        0.573257836             48.405        0.574777819             48.472        0.814329185            -41.331
               511       0.813860555            -41.201        0.574050368             48.284        0.574910182             48.384         0.81245628            -41.391
               512       0.813860555            -41.219        0.574777819             48.289        0.576368185             48.328        0.813111306            -41.426
               513       0.812924102             -41.31        0.575903874             48.159        0.576633673             48.237        0.812269227            -41.541
               514       0.812549823            -41.357        0.575970181             48.093        0.577430873             48.198        0.811428019            -41.606
               515       0.812175716            -41.446         0.57723147             48.061        0.578295749             48.112        0.810774349             -41.65
               516       0.811801781            -41.462        0.577896415              47.98        0.578828625             48.129        0.810494365            -41.699
               517       0.810867698            -41.583        0.578029495             47.894         0.57982909              47.96        0.809841447            -41.822
               518       0.810214479            -41.643         0.57956213             47.862        0.580630707             47.896        0.809468587            -41.865
               519       0.809375399            -41.707         0.57956213             47.753        0.581031931             47.852        0.808723383            -41.929
               520       0.809002754            -41.782        0.580764418             47.769        0.581701254             47.785        0.808816496            -41.962
               521       0.808816496            -41.796        0.581835211             47.707        0.582907979             47.751        0.808723383             -42.02
               522       0.807978864            -41.892        0.582572527             47.587        0.582975092             47.687        0.807606861            -42.115
               523       0.807792841            -41.972        0.583109343              47.53        0.583848273             47.617        0.806399036            -42.149
               524       0.807606861            -42.012        0.584049962             47.477        0.584655447             47.586        0.805842188            -42.191
               525        0.80723503            -42.094        0.584790084             47.415        0.585665983             47.479        0.805842188            -42.277
               526       0.807077196            -42.136        0.585686315             47.395        0.586766183             47.424        0.805591873            -42.332
               527       0.806399036            -42.182        0.586070687             47.343        0.587218866             47.371        0.804359138            -42.368
               528       0.805656657             -42.26        0.586880933             47.222        0.587963004             47.294        0.803896245            -42.485
               529       0.804173949             -42.39        0.587218866             47.127        0.588843655             47.211        0.803433618             -42.55
               530       0.803433618            -42.404        0.588233833             47.066        0.588775866             47.125        0.803248642            -42.662
               531        0.80315617            -42.452        0.588979257             47.059        0.589861431             47.093        0.802786388            -42.668
               532       0.802786388            -42.495        0.589861431              46.97        0.590812942             47.062        0.802139679            -42.755
               533       0.802601561            -42.615        0.590948997             46.882        0.591357351             46.963        0.801678063            -42.846
               534       0.802047335            -42.657        0.591561634             46.824        0.592106734             46.909        0.801308962            -42.883
               535       0.801032247            -42.735        0.591629744             46.765        0.592993592              46.87        0.800294809            -42.974
               536       0.800940031            -42.801        0.592652335             46.748        0.593471681             46.794        0.799650108            -42.964
               537       0.800386952            -42.814        0.593676694             46.642        0.594429015             46.758        0.799189924            -43.101
               538       0.799926345            -42.901         0.59401854             46.589         0.59518229             46.658        0.798821969            -43.154
               539        0.79909792            -43.024        0.594497455             46.519        0.595936519             46.568        0.798178453              -43.2
               540       0.798730006            -43.067        0.595799316             46.438        0.596829114             46.512        0.797443642            -43.298
               541       0.798454182            -43.095        0.596211021             46.407        0.597929527             46.463        0.797351839            -43.329
               542       0.797994687            -43.176        0.597241531             46.278        0.598204947             46.389        0.796801238             -43.44
               543       0.797719117            -43.198        0.597860691             46.224          0.5985494             46.388        0.795701176            -43.482
               544       0.796709508             -43.29        0.598204947             46.215        0.599583952             46.292         0.79551798            -43.499
               545       0.796251017            -43.321        0.599722027             46.229         0.60020554             46.296        0.795884414            -43.512
               546       0.795701176            -43.408         0.60020554             46.111        0.600551146             46.159         0.79441969            -43.619
               547       0.794602633            -43.505        0.600551146             45.989        0.601450652             46.081        0.794053931            -43.747
               548       0.794785618            -43.516        0.601312179             45.948        0.602351505             46.034         0.79368834            -43.804
               549       0.793779722            -43.572        0.602282161             45.896        0.602490218             45.975        0.792957662            -43.878
               550       0.793322917            -43.635        0.602628962              45.81        0.603392628             45.903        0.792136454            -43.929
               551       0.792866375            -43.706        0.603809581              45.78        0.604018166             45.881        0.792136454            -43.944
               552       0.792136454             -43.77        0.603879101             45.704        0.605131834             45.806         0.79113391            -44.047
               553       0.792227657            -43.892        0.604783592             45.625        0.606247555             45.685        0.790769663            -44.098
               554       0.791316097            -43.903        0.605549988             45.563        0.606596639              45.66        0.790223608            -44.156
               555       0.790496588            -43.966        0.606038201             45.514        0.606876052             45.606        0.789314353            -44.228
               556       0.790314591            -44.064        0.607155593             45.432        0.607785031             45.492         0.78904178            -44.315
               557       0.789223485            -44.116        0.607575146             45.362        0.608485173             45.502         0.78904178            -44.334
               558       0.789405231            -44.185        0.608205019             45.315        0.609607077             45.398        0.788043153            -44.427
               559       0.788133885            -44.244        0.609045866             45.258        0.609958096             45.344        0.787589649            -44.503
               560       0.788224628            -44.291        0.610449862             45.202         0.61009856             45.308        0.786774001            -44.528
               561        0.78786172            -44.376        0.610801367             45.112        0.612068459             45.262        0.787227035            -44.631
               562       0.787589649            -44.374        0.610942025             45.105        0.612632454             45.191        0.786230704            -44.645
               563       0.786411761            -44.441        0.612068459             45.011         0.61270299             45.139        0.785326043            -44.705
               564       0.786049689             -44.54        0.612561927             44.964        0.613691347              45.06        0.785235635             -44.75
               565       0.785868715            -44.573        0.613691347             44.909        0.614256838             44.979        0.784332119            -44.849
               566       0.784874103            -44.639        0.613903345              44.82        0.614681298              44.94        0.783700277            -44.899
               567       0.784332119            -44.755        0.614398292             44.763        0.615247702             44.862        0.782978794            -44.972
               568       0.783700277            -44.786        0.615318539             44.752        0.616240163             44.751        0.782798527            -45.022
               569       0.783610055            -44.882        0.616098285             44.622        0.616736994             44.722        0.782077875            -45.105
               570       0.782348042            -44.911        0.616524018             44.572        0.617234226             44.682        0.781447849            -45.176
               571       0.781897816            -44.977        0.617731859             44.494        0.617945252             44.598        0.781447849             -45.25
               572       0.781357887            -45.052          0.6180164              44.44        0.618728328             44.512        0.780548691            -45.293
               573        0.78090823            -45.093        0.618443458             44.365        0.619369763             44.507        0.780009694            -45.333
               574       0.780189318            -45.149        0.619512395             44.352        0.619797757             44.414        0.779740334            -45.435
               575       0.780009694            -45.242        0.619869118             44.275        0.620940519             44.305        0.778932815            -45.479
               576       0.779471068            -45.262        0.620368874             44.202        0.621584248              44.29        0.778394933            -45.544
               577       0.779201895            -45.308        0.621798972             44.184        0.622371934             44.209        0.778305322            -45.595
               578       0.778126131            -45.422        0.621870564             44.086        0.622873709              44.15        0.777499288            -45.629
               579       0.777499288            -45.459        0.622157012             44.036        0.623232367             44.041        0.776962396            -45.743
               580       0.777230796            -45.487        0.622873709             43.969        0.623734835             44.052        0.775621787            -45.811
               581       0.777051852            -45.567        0.623878472             43.896        0.624956803             43.987        0.775621787            -45.851
               582       0.775800401            -45.615        0.624884856             43.875        0.625316661             43.928        0.775443214            -45.911
               583       0.775443214            -45.696        0.625316661             43.811        0.625892864             43.846        0.774550966            -45.952
               584       0.775175432            -45.742        0.626036998              43.68        0.626325365             43.804        0.774283492            -46.048
               585       0.774194354            -45.763        0.626036998             43.716         0.62668601             43.737        0.773303543            -46.077
               586        0.77437264            -45.855        0.627407925              43.62        0.628130671             43.683        0.773303543            -46.151
               587       0.773659745            -45.925        0.628637088             43.571         0.62827532             43.624        0.772769548            -46.186
               588       0.773125504            -45.974        0.629216351             43.497        0.628781854             43.586        0.771880376            -46.237
               589       0.772769548            -46.078        0.629506183             43.431         0.62986866              43.48        0.771880376            -46.341
               590       0.771791516            -46.093         0.62986866             43.359        0.630521645             43.482        0.770992228            -46.359
               591       0.771436174            -46.163        0.630521645             43.325        0.631102645             43.399        0.770193768             -46.44
               592       0.770992228            -46.195        0.631247978             43.275         0.63102999             43.346         0.76948472            -46.487
               593       0.769750536            -46.221        0.631611458             43.203        0.632193462             43.268        0.769396134            -46.562
               594       0.770105101            -46.273        0.632557486             43.138        0.632848857             43.233        0.768864838            -46.619
               595       0.768953362            -46.379        0.633504932             43.075        0.633359078             43.119        0.768333908            -46.698
               596       0.768510844            -46.386        0.634161686             43.059        0.633869711             43.136        0.768245456            -46.711
               597       0.767891747            -46.489        0.634161686             42.943        0.634819122             43.036        0.766655049            -46.812
               598       0.767096498            -46.533        0.635038419             42.912        0.635404081             42.988         0.76647854            -46.864
               599       0.766566789            -46.648        0.635550405             42.821        0.636062805             42.892        0.766125645            -46.915
               600       0.766302072            -46.687        0.636062805             42.796        0.636502333             42.891        0.765684755             -46.95
               601       0.765684755            -46.754         0.63635579               42.7        0.637749314             42.797        0.765156021            -47.051
               602       0.766213854            -46.784        0.637675894             42.654        0.638336973              42.75        0.764451611            -47.102
               603       0.764539626             -46.89        0.638410469             42.615        0.638631006             42.649        0.764275609            -47.201
               604       0.764715688            -46.911        0.638851619             42.557        0.639808492             42.608        0.764011684            -47.256
               605       0.763923728            -47.003        0.639440295             42.449        0.639808492             42.527        0.762342268            -47.312
               606       0.763044735            -47.001        0.639513917              42.45        0.640324324             42.494         0.76172814            -47.332
               607       0.762693421            -47.113        0.640840573             42.372        0.640766798             42.435        0.761991277            -47.404
               608        0.76207901            -47.142        0.641431081             42.324        0.641726539             42.397        0.761815843            -47.418
               609       0.761552766             -47.16        0.641800424             42.301        0.642243918             42.354        0.761202139            -47.481
               610       0.761202139            -47.271         0.64253975             42.197        0.643057785             42.257        0.760413818            -47.591
               611       0.759976214             -47.32        0.642983754             42.166        0.643057785              42.19        0.759626313            -47.642
               612       0.760151225            -47.382        0.644243433              42.08        0.644317608             42.156        0.759626313            -47.677
