!{501R14S360}
!Johanson Technology Inc.
!www.johansontechnology.com
!Test Board Conditions:
!Substrate Type  RO4350B
!Substrate Thickness        20 mil
!Substrate Dk      3.66
!TL Type: GCPW 
!TL Trace Width  36 mil
!TL Gap  12 mil
!Electrode orientation      Horizontal
!DUT TOPOLOGY	SERIES
!Mounting Pad LxW         26x36 mil
! Created Wed Mar 11 16:07:11 2020
# mhz S ma R 50
! 2 Port Network Data from SP1.SP block
! freq  magS11  angS11  magS21  angS21  magS12  angS12  magS22  angS22  
!     
               500      0.0590880966            -89.297        0.996207943             -0.757        0.995634644             -0.742       0.0592038569            -89.697
               501      0.0589318399            -89.419        0.995749278             -0.788         0.99655208             -0.762       0.0591289273            -89.827
               502      0.0587556994            -89.707        0.996781571             -0.823        0.997470361             -0.808       0.0584790084            -89.943
               503      0.0584992098            -89.488        0.995863924             -0.841        0.996896336             -0.858        0.058351228            -90.041
               504      0.0580563863            -89.728        0.996437354             -0.915        0.997011115             -0.838       0.0580831284            -90.144
               505      0.0580563863            -89.599        0.997011115             -0.861         0.99655208             -0.871        0.057896192            -89.946
               506      0.0578029495             -89.71        0.995749278             -0.864        0.997125907             -0.899       0.0576235486            -89.939
               507      0.0572927937            -89.657        0.996207943             -0.946        0.995520024              -0.92       0.0570886798            -89.957
               508      0.0573455867            -89.745        0.996781571             -0.908        0.996322642             -0.954        0.057161024            -89.979
               509      0.0571412847            -89.522        0.996207943             -0.963        0.996322642              -0.98       0.0568460117            -89.843
               510      0.0566891572            -89.658        0.996437354             -1.007        0.995863924             -1.027       0.0562470824            -89.861
               511      0.0563378151            -89.848        0.996437354             -1.024        0.996781571             -1.034       0.0562535585            -90.084
               512      0.0561177177            -89.799        0.995749278             -1.067        0.996666819             -1.054       0.0559628727            -90.156
               513      0.0561241789            -89.907        0.997240712             -1.064        0.996896336             -1.025       0.0558470195            -90.222
               514      0.0555328548            -89.718        0.996781571             -1.058         0.99655208             -1.099       0.0556224354             -90.14
               515      0.0552331739             -89.71        0.996666819             -1.153        0.997470361             -1.135       0.0550110583             -90.19
               516      0.0549477609            -89.856        0.997011115             -1.149        0.997125907             -1.166       0.0548024532            -90.171
               517      0.0548087629            -89.814        0.996322642             -1.178        0.996437354             -1.183        0.054519266            -90.319
               518      0.0545695032            -89.833         0.99655208             -1.195        0.996666819             -1.154       0.0543938751             -90.35
               519      0.0541938494             -90.04        0.997929819             -1.146        0.996896336             -1.192       0.0543563142            -90.382
               520       0.054200089              -89.9        0.996093257             -1.266         0.99735553             -1.197       0.0537031796            -90.582
               521      0.0537155467            -89.855        0.997240712             -1.274        0.996896336             -1.257       0.0537155467            -90.495
               522      0.0535611632            -89.826        0.996666819              -1.27         0.99655208             -1.293       0.0534625907            -90.443
               523      0.0531434812            -89.989        0.996666819             -1.321        0.996896336             -1.331       0.0530273593            -90.347
               524      0.0529358633            -90.041        0.997011115             -1.352        0.996781571             -1.359       0.0528810415             -90.54
               525      0.0528749537             -90.09        0.996207943             -1.351        0.996437354             -1.349        0.052589616            -90.463
               526      0.0522396189             -90.17        0.996896336             -1.386        0.997240712             -1.366        0.052517011            -90.659
               527      0.0521314734            -90.171         0.99655208             -1.402        0.996666819             -1.409       0.0517606832            -90.278
               528      0.0519517283            -90.025        0.996322642             -1.412         0.99655208             -1.425       0.0517785638            -90.344
               529      0.0516416369             -90.01        0.997125907             -1.441        0.996207943              -1.45       0.0516951738            -90.425
               530      0.0516832719            -90.308        0.996322642             -1.451        0.997125907             -1.481       0.0512212296            -90.823
               531      0.0512743307            -90.188        0.997125907             -1.492        0.997585206              -1.51          0.0510505            -90.453
               532      0.0509800198            -90.052        0.996437354             -1.561        0.996666819             -1.512       0.0507983961            -90.429
               533      0.0507516306            -90.096         0.99655208             -1.533        0.995520024             -1.525        0.050640735            -90.528
               534      0.0502400427            -90.089        0.997011115             -1.578        0.996781571             -1.563       0.0503848535            -90.733
               535      0.0505999398            -90.274        0.996781571             -1.593        0.996896336             -1.569       0.0499401681            -90.423
               536      0.0500437678             -89.86        0.996781571             -1.634         0.99655208             -1.577       0.0498310456            -90.873
               537      0.0497737085             -90.43        0.996322642             -1.647        0.996322642             -1.659       0.0492833249            -90.635
               538      0.0495336122            -90.634        0.997125907             -1.647        0.996896336             -1.622        0.049391248             -90.87
               539      0.0491699764            -90.464        0.997011115             -1.661        0.996437354              -1.64         0.04912471            -90.793
               540      0.0486911464            -90.191        0.996781571             -1.726        0.997240712             -1.715       0.0486407206            -90.913
               541      0.0488708621            -90.053         0.99655208              -1.73        0.997700064             -1.723       0.0487584622            -90.727
               542      0.0485791599            -90.315        0.997700064              -1.72        0.996666819             -1.703       0.0484841739            -90.859
               543      0.0483448258            -90.328        0.997011115             -1.739        0.997240712             -1.751       0.0479843924            -90.994
               544      0.0480950079            -90.306        0.997011115             -1.804        0.997700064             -1.737       0.0480396683             -91.08
               545      0.0476760207            -90.441        0.996666819             -1.836        0.997470361             -1.807       0.0475389954            -90.973
               546      0.0474952305            -90.845        0.997585206             -1.867        0.997700064             -1.821       0.0474187389            -91.126
               547      0.0471682757             -90.32         0.99735553             -1.855        0.996896336             -1.828       0.0470327096            -90.956
               548       0.047048957            -90.595        0.997125907             -1.881        0.996781571              -1.86       0.0472117393            -90.778
               549      0.0467573619            -90.286        0.996896336               -1.9        0.996781571             -1.847       0.0467035615            -91.154
               550      0.0465050376            -90.477        0.997011115             -1.943        0.997125907             -1.927        0.046211493            -91.033
               551       0.046419451            -90.524         0.99735553             -1.936         0.99735553             -1.953       0.0462381021            -91.156
               552      0.0461423809            -90.453        0.996666819             -1.935        0.997470361             -1.937       0.0460468578            -91.142
               553      0.0460283197            -90.565        0.997413222             -1.982        0.998332297             -2.006       0.0456378442            -91.041
               554      0.0454778579             -90.53        0.997240712             -1.942        0.997240712             -2.003        0.045498806            -91.079
               555      0.0452793308            -90.484        0.997240712              -2.03        0.997700064             -2.045       0.0452220244            -91.131
               556      0.0449262325            -90.832        0.997470361             -2.066         0.99735553             -2.058       0.0450505399            -91.334
               557      0.0449676301            -90.389        0.997929819             -2.104        0.996896336             -2.049       0.0446477934            -91.316
               558      0.0447816406            -90.479        0.997125907             -2.065        0.997011115             -2.071       0.0445245973            -91.449
               559      0.0443353356            -90.551        0.997240712             -2.135         0.99735553             -2.092       0.0441417961            -91.489
               560      0.0442333671            -90.839         0.99735553             -2.137        0.997125907             -2.159       0.0440047948              -91.1
               561      0.0437874848             -90.54        0.997585206             -2.134        0.997011115             -2.149       0.0438480213            -91.193
               562      0.0437774036            -90.663        0.997125907             -2.105        0.997470361              -2.18       0.0436515832            -91.292
               563      0.0434560252            -90.697        0.997585206             -2.223        0.997240712              -2.19       0.0433161651            -91.558
               564      0.0433460971            -90.772         0.99735553             -2.216         0.99735553             -2.214        0.043052661            -91.546
               565      0.0429338663            -90.547        0.997011115             -2.278         0.99735553             -2.249        0.042894341            -91.363
               566      0.0427612114             -90.47         0.99655208             -2.253        0.997585206             -2.262       0.0426088684            -91.245
               567      0.0426677754            -90.414        0.997240712             -2.302        0.997585206             -2.287       0.0424375204            -91.483
               568       0.042320423            -90.406        0.997585206             -2.309        0.997125907             -2.249       0.0424033335            -91.432
               569      0.0420194148            -90.456        0.997011115             -2.381        0.997700064             -2.345       0.0419275997            -91.546
               570      0.0419034711            -90.803        0.997585206             -2.356        0.997814935             -2.362        0.041821538            -91.617
               571      0.0415192978            -90.955        0.998274551             -2.347        0.997814935             -2.393       0.0415001819            -91.756
               572      0.0413142621            -90.433        0.997011115             -2.414         0.99735553             -2.344       0.0413047502            -91.537
               573      0.0410818507            -90.717        0.997011115             -2.429        0.996666819             -2.447       0.0410204103            -91.813
               574      0.0409213545            -90.614        0.997814935             -2.412        0.997240712             -2.474       0.0409779285            -91.286
               575      0.0407427182            -90.407        0.996666819             -2.463         0.99735553             -2.485       0.0405461852            -90.892
               576      0.0405835468            -90.317        0.997011115             -2.474        0.996781571             -2.497       0.0403877817            -91.154
               577      0.0404017335            -90.661        0.997011115              -2.53        0.997814935             -2.498       0.0402485278            -91.553
               578      0.0399990798            -90.943        0.996896336             -2.524        0.997470361             -2.525       0.0400451569             -91.49
               579      0.0401374706            -90.807        0.997011115             -2.557         0.99735553             -2.544       0.0399806638            -91.319
               580      0.0397191549            -90.452        0.998389489             -2.555        0.997240712             -2.555       0.0396734529            -91.725
               581      0.0395093605            -91.174        0.997240712             -2.593        0.998274551             -2.562       0.0391786981            -91.836
               582      0.0392916259            -90.663         0.99735553             -2.642        0.998619403             -2.609       0.0391471365            -91.754
               583      0.0389493308            -90.884        0.997240712             -2.673        0.998159627              -2.64       0.0389269162            -92.041
               584      0.0386189089            -90.719        0.996781571              -2.64        0.997011115             -2.632       0.0386100176             -91.76
               585      0.0385922412            -90.627        0.997125907             -2.682        0.997470361             -2.627       0.0384458972            -91.787
               586      0.0383442281            -90.695        0.997814935             -2.733        0.997125907             -2.707       0.0381636584            -91.797
               587      0.0381944271            -90.241        0.997814935             -2.729        0.996896336             -2.714        0.038071501            -91.883
               588      0.0380189396            -91.042        0.996781571              -2.75        0.997585206             -2.731       0.0377485262            -91.622
               589      0.0376313674            -90.351         0.99655208             -2.783        0.997240712             -2.769       0.0373809212            -91.607
               590      0.0377007509            -90.638        0.996781571              -2.75         0.99735553             -2.766       0.0372949475            -91.895
               591      0.0372520348             -90.87        0.997814935             -2.793        0.997700064             -2.812       0.0372177402            -91.785
               592      0.0370211581            -90.805        0.997814935              -2.81        0.998159627             -2.816       0.0368595476            -92.206
               593      0.0370638048            -90.768         0.99735553             -2.832        0.998159627             -2.837       0.0367409177            -92.011
               594      0.0365636885            -90.578        0.997814935             -2.846        0.997470361             -2.872       0.0362785566            -91.893
               595      0.0364837944             -90.91        0.997240712             -2.873        0.998044717             -2.864       0.0361534711             -91.97
               596      0.0361118718            -90.685        0.997814935             -2.894        0.998044717             -2.926       0.0361451474            -91.809
               597      0.0360661679            -91.118         0.99735553             -2.942        0.998044717              -2.93       0.0360371137            -92.012
               598      0.0357807962            -90.457        0.998159627             -2.992        0.997585206             -2.937       0.0354772542            -92.126
               599      0.0356410098            -90.905        0.997125907             -2.993        0.997700064             -2.978       0.0353061206            -91.915
               600      0.0354650029            -90.465        0.998159627             -3.037        0.997929819             -2.978        0.035127723            -92.047
               601      0.0352492597            -90.657        0.997125907             -3.057        0.997240712             -3.035       0.0347616194            -92.166
               602      0.0350711494            -90.716        0.997125907             -3.023        0.997470361             -2.989       0.0347576175            -92.195
               603      0.0346337885              -90.5        0.997929819              -3.08         0.99735553             -3.078       0.0344468886             -92.03
               604      0.0344587881            -90.637        0.997470361             -3.124        0.997470361             -3.027       0.0341940073            -91.845
               605      0.0342333973            -90.616        0.998159627             -3.085        0.997929819             -3.096       0.0343044136            -92.287
               606      0.0340996562            -90.268        0.997240712             -3.147        0.997240712             -3.091       0.0339078302            -92.204
               607      0.0340251462            -90.694        0.997585206             -3.124        0.997814935              -3.16       0.0337987003            -92.346
               608      0.0335583037            -90.672        0.997240712             -3.177        0.997240712             -3.083       0.0334580018            -91.589
               609      0.0336589063            -90.854        0.997125907             -3.168        0.997240712             -3.184        0.033174165            -91.872
               610      0.0334695598            -91.033        0.998044717             -3.209        0.997585206              -3.19       0.0336085674            -92.135
               611      0.0332582964            -90.838        0.997700064             -3.211        0.998159627             -3.235       0.0326475052            -92.447
               612      0.0329078872            -90.831        0.998044717             -3.253        0.998159627             -3.231        0.032930627            -92.309
