! Created Tue May  5 12:35:45 2020
# mhz S ma R 50
! 2 Port Network Data from SP1.SP block
! freq  magS11  angS11  magS21  angS21  magS12  angS12  magS22  angS22  
!     
               500       0.967275082            -18.276        0.246802753             71.493        0.246603934             71.406        0.967497831            -18.183
               501       0.967163727            -18.242        0.247172415              71.48        0.246944865             71.442        0.967497831            -18.217
               502        0.96738645            -18.311        0.247742206              71.45        0.247343214             71.369        0.966607143             -18.26
               503       0.967275082            -18.311        0.248198984             71.398        0.248056151             71.349        0.967163727            -18.288
               504       0.966384599            -18.406        0.248484899             71.373        0.248313311             71.303        0.966941055            -18.281
               505       0.967379622            -18.409        0.249342859             71.361        0.248712112             71.259        0.966600321             -18.32
               506       0.967163727            -18.426        0.249718087             71.281        0.249459473             71.251        0.966607143            -18.402
               507       0.966495864            -18.507        0.250063324             71.268        0.249775594             71.188        0.966718434            -18.399
               508       0.966273346            -18.503        0.250697498              71.21        0.250178509              71.17        0.966718434            -18.465
               509       0.966420676            -18.504        0.251111275             71.208        0.250908984             71.164        0.966754523            -18.493
               510       0.966489979            -18.577        0.251679218             71.133        0.251360688             71.099        0.966489979            -18.575
               511        0.96585687             -18.62        0.252181238             71.104        0.251891071             71.086        0.966746866            -18.585
               512       0.965494935            -18.646         0.25243525             71.086        0.252377132             71.028        0.966495864            -18.599
               513       0.966180398            -18.677        0.253021964             71.074        0.252643554             71.047        0.966180398            -18.606
               514       0.965824867            -18.724        0.253453552             70.978        0.253307695             70.971        0.966047282            -18.683
               515       0.965717274            -18.792        0.253951042             70.974        0.253658839             70.913        0.965383785            -18.687
               516       0.965742865            -18.761        0.254543205             70.979         0.25416252             70.974        0.965965261            -18.729
               517       0.965491039            -18.805        0.254946026              70.89        0.254769977             70.889        0.965602201            -18.774
               518       0.965154752            -18.939        0.255385922             70.793        0.255444734             70.833          0.9657105            -18.821
               519       0.965690773            -18.882        0.255674892             70.871        0.255851567             70.776        0.964912832            -18.854
               520       0.965548815            -18.955        0.256315125             70.783         0.25613813             70.756        0.964882068              -18.9
               521       0.965420138            -18.962        0.256694376             70.735        0.256576191             70.762        0.964642415            -18.907
               522       0.965157923            -19.005        0.257305092             70.715        0.257097812             70.683        0.964602493            -18.953
               523       0.964665612            -19.037        0.257648013             70.698        0.257499741             70.659        0.964998854            -18.977
               524       0.964891667            -19.103        0.258213269             70.613        0.257975555             70.649        0.964558462            -19.023
               525       0.964103967            -19.094        0.258835517             70.625         0.25847817             70.644        0.964992349            -19.047
               526       0.965011983            -19.156        0.259138957             70.571        0.259168793             70.619        0.963679691             -19.07
               527       0.964272986            -19.198        0.259507551             70.564        0.259627087             70.515        0.964161976            -19.113
               528       0.963890924            -19.219        0.260212342             70.483        0.260062594             70.531        0.964445943            -19.163
               529       0.964341355            -19.224        0.260393891             70.479        0.260633833             70.496        0.963786395            -19.198
               530        0.96420022            -19.293         0.26104611             70.415        0.260865848             70.413        0.963423479            -19.228
               531       0.964278104            -19.321        0.261398027             70.409        0.261488326             70.446         0.96339038            -19.252
               532       0.963906007            -19.355        0.262050315             70.321        0.261959822             70.409        0.963573143             -19.34
               533       0.963798308            -19.413        0.262413491             70.271        0.262322873             70.373        0.963243661            -19.324
               534       0.963814409            -19.422        0.262901712             70.259        0.262871446             70.343        0.962816257            -19.357
               535       0.963532674            -19.463        0.263521738             70.244        0.263582423              70.32         0.96297818            -19.382
               536       0.963530271            -19.478        0.263915783             70.193        0.263915783              70.27        0.962532413            -19.441
               537       0.963244786            -19.552        0.264415352             70.146        0.264293612             70.214        0.962690457            -19.469
               538       0.963143892            -19.546        0.264783656             70.173        0.264997133             70.219        0.962589622            -19.466
               539       0.962609182            -19.613        0.265429996             70.132        0.265155109             70.173        0.962830857            -19.493
               540       0.963114738            -19.684        0.265538825             70.054        0.265936549             70.118        0.961785065             -19.53
               541       0.962978963             -19.66        0.266174716             70.049        0.266266666             70.079        0.961870931            -19.622
               542       0.962575248            -19.708        0.266737877             69.993        0.266737877              70.08        0.962132068            -19.619
               543       0.962358279            -19.808        0.267200205             69.967        0.267292509             69.961         0.96202595            -19.653
               544       0.962484775            -19.773        0.267573974             69.914        0.267697225             69.971        0.961598702            -19.741
               545       0.962480062            -19.822        0.268066005             69.876        0.268066005             69.964        0.961151265            -19.728
               546       0.961722994            -19.863        0.268472619             69.852        0.268472619             69.902         0.96094825            -19.769
               547       0.961722994            -19.885         0.26896762             69.783        0.269060534             69.882        0.961280207            -19.804
               548       0.961899481            -19.897        0.269637127             69.812        0.269637127             69.884        0.961124594            -19.815
               549       0.961574399            -19.966        0.270229584             69.717        0.269887576             69.807        0.961242341             -19.91
               550       0.961058889             -19.98        0.270676156             69.704        0.270333583             69.771        0.960837623            -19.925
               551       0.960837623            -20.041        0.271112786             69.677        0.270738489             69.722         0.96094825            -19.946
               552        0.96120514            -20.036        0.271622714             69.649          0.2714039             69.677        0.960541392            -19.997
               553       0.960505818            -20.074         0.27192554             69.589        0.271706482             69.673        0.960505818            -20.012
               554       0.960395242            -20.138        0.272426907             69.553        0.272395545             69.599        0.960284679            -20.085
               555       0.960505818            -20.147        0.272897778             69.551        0.272834948              69.64        0.960616407            -20.076
               556       0.960453961            -20.245        0.273417654              69.48        0.273260307             69.533        0.960564544            -20.153
               557       0.960616407            -20.244        0.273778916             69.473        0.273652865             69.506        0.959400632            -20.163
               558       0.960505818            -20.266         0.27431528             69.455        0.274094297             69.528        0.959511093            -20.176
               559       0.960063591            -20.299        0.274884341             69.412        0.274473234             69.456        0.959842554            -20.225
               560       0.959732054             -20.36        0.275391163             69.334        0.275042622             69.376        0.959511093            -20.288
               561       0.960063591            -20.346        0.275803644              69.34        0.275518014             69.398        0.959179747            -20.326
               562       0.958517398             -20.45        0.276153149             69.232        0.275835399             69.342        0.958848515            -20.379
               563       0.959179747            -20.436        0.276694165             69.273        0.276280352             69.285        0.958848515             -20.39
               564       0.959290183            -20.471        0.277108597             69.219        0.276949127             69.304        0.958186395            -20.431
               565       0.959179747            -20.553        0.277651485              69.19         0.27758756             69.258        0.958627757            -20.448
               566       0.959069323            -20.579          0.2782595             69.149        0.277875335               69.2        0.958407051            -20.482
               567       0.958296716              -20.6        0.278387672             69.131        0.278451781             69.176        0.958627757            -20.525
               568       0.958627757            -20.638        0.278965181             69.082        0.278933066             69.155        0.958186395            -20.537
               569       0.958186395            -20.645        0.279511705             69.028        0.279029422             69.091        0.958296716            -20.641
               570       0.957965789             -20.73        0.279898132             68.964        0.279704852             69.049        0.957634977            -20.661
               571       0.958076086            -20.751        0.280640277             68.939        0.279865909             68.998        0.957634977             -20.69
               572       0.957414499             -20.76        0.280769546             68.947        0.280414199             68.991        0.956753369            -20.725
               573       0.958407051            -20.802        0.281481593             68.887        0.281157712             68.949        0.957414499            -20.759
               574       0.957634977            -20.856         0.28206552             68.838        0.281222458             68.917        0.956863525             -20.81
               575       0.957745235            -20.899         0.28242296             68.796        0.281968114             68.892        0.957083877            -20.826
               576       0.957634977            -20.878        0.282845973             68.796        0.282325431             68.835        0.956973695            -20.879
               577       0.957524732            -20.914        0.283041424             68.778        0.282878539             68.859        0.956422975            -20.875
               578       0.957083877            -20.995        0.283824577             68.705        0.283204402             68.799        0.956422975             -20.96
               579       0.956643225            -21.026        0.284315149             68.705        0.283563286             68.702        0.956863525            -20.946
               580       0.956092695            -21.062        0.284544372             68.601        0.283955314             68.726        0.955322486            -21.028
               581       0.956643225            -21.069        0.285298836             68.687        0.284544372             68.675        0.956092695             -21.01
               582       0.956533093            -21.115        0.285791955             68.581        0.284839359             68.663        0.955542482            -21.059
               583       0.956202776             -21.14        0.286187065             68.599        0.285463115             68.577        0.955652499            -21.071
               584       0.956202776            -21.195        0.286681719              68.51        0.285693263             68.534        0.954772716            -21.143
               585       0.956422975            -21.208         0.28744185             68.442        0.286318889             68.536        0.955322486            -21.217
               586        0.95510254            -21.238        0.287640477             68.446         0.28658272             68.535        0.954992586            -21.206
               587       0.955542482            -21.278        0.288203997             68.438        0.287177229             68.457        0.954882645             -21.25
               588       0.954882645            -21.323        0.288535995             68.383        0.287508044             68.417        0.954443006            -21.278
               589       0.955432478            -21.361        0.288901635             68.361        0.288303557             68.382        0.954882645            -21.336
               590       0.955432478            -21.384        0.289567622              68.29        0.288502778             68.401          0.9546628            -21.372
               591       0.954223263            -21.454        0.290101517             68.273         0.28903471             68.307        0.954772716            -21.363
               592       0.954772716            -21.479        0.290502584             68.237        0.289600962             68.257         0.95411341            -21.447
               593        0.95400357            -21.543         0.29077027             68.177        0.289934569             68.247         0.95400357            -21.459
               594       0.954552897             -21.51        0.291205786             68.157        0.290402265             68.281        0.953344795             -21.48
               595       0.954333128            -21.594        0.291742701              68.08         0.29083723             68.196        0.953235044            -21.577
               596        0.95411341            -21.661        0.292280607             68.096        0.291306382             68.139        0.953344795            -21.575
               597       0.953893743            -21.643        0.292549931             68.049        0.291776291             68.121        0.952686476            -21.606
               598        0.95400357            -21.666         0.29312307             68.059        0.292146037             68.055        0.952796164            -21.658
               599       0.953564337            -21.696         0.29366352             67.996        0.292819504             68.087        0.952686476            -21.676
               600       0.954333128            -21.764        0.294408266             67.942        0.293629713             67.978         0.95345456            -21.763
               601       0.953564337            -21.809        0.294781348                 68         0.29356211             67.967        0.952905865            -21.716
               602       0.953015579            -21.829        0.295019009             67.857        0.294204967             67.935        0.952247848            -21.786
               603       0.952796164            -21.887        0.295665057             67.868        0.294611707             67.888        0.952467137            -21.785
               604       0.952905865            -21.952         0.29600565             67.779        0.295188885             67.826        0.952247848            -21.885
               605       0.952138223            -21.941        0.296346635             67.753        0.295699098             67.816        0.952357486            -21.911
               606         0.9525768            -21.965        0.297132393             67.692        0.296141997             67.786        0.952467137            -21.951
               607       0.951809423            -22.031        0.297063983             67.683        0.296414879             67.719        0.950714242            -21.958
               608       0.951042664            -22.088        0.297954535             67.637        0.296790503             67.679         0.95202861            -22.021
               609        0.95202861            -22.082        0.298126101             67.625         0.29737195             67.712        0.951152163            -22.049
               610       0.952357486            -22.154        0.298950993             67.529        0.297817353             67.614        0.950933178            -22.123
               611       0.951371199            -22.223        0.299088697             67.546        0.298435168             67.547        0.951042664            -22.094
               612       0.950933178            -22.216        0.299743656             67.519        0.298572634             67.551        0.950933178            -22.187
               613       0.951261675            -22.273        0.299985318             67.416        0.299329831              67.48        0.950385934            -22.235
               614       0.950167125            -22.282         0.30060763             67.411        0.299571159             67.476        0.950604794            -22.258
