!{501R14S2R0}
!Johanson Technology Inc.
!www.johansontechnology.com
!Test Board Conditions:
!Substrate Type  RO4350B
!Substrate Thickness        20 mil
!Substrate Dk      3.66
!TL Type: GCPW 
!TL Trace Width  36 mil
!TL Gap  12 mil
!Electrode orientation      Horizontal
!DUT TOPOLOGY	SERIES
!Mounting Pad LxW         26x36 mil
! Created Wed Mar 11 15:57:02 2020
# mhz S ma R 50
! 2 Port Network Data from SP1.SP block
! freq  magS11  angS11  magS21  angS21  magS12  angS12  magS22  angS22  
!     
               500       0.862084824            -34.718        0.499286703             54.706         0.49997697             54.793        0.860993752            -34.912
               501       0.861588711            -34.776         0.49997697             54.689        0.500668191              54.73        0.860498267            -34.952
               502       0.861787122            -34.833        0.500437678             54.595        0.502053501             54.649        0.859904061            -35.019
               503       0.861092883            -34.893        0.501649057             54.556        0.502689715             54.615        0.860399204            -35.098
               504       0.860003067            -34.956        0.502284759             54.478         0.50297917             54.533         0.85871688            -35.168
               505       0.859805067            -34.978        0.503210854             54.422        0.503848535              54.54        0.859013522            -35.224
               506       0.859211339            -35.093        0.503500609              54.32        0.504661298              54.44         0.85782757            -35.288
               507       0.859310266            -35.112        0.504661298             54.313         0.50553357             54.348        0.858123904            -35.343
               508       0.858420341            -35.235         0.50506817             54.204         0.50640735             54.336        0.857136521            -35.382
               509       0.858025115            -35.264        0.506115922             54.134        0.506873983             54.224        0.856544637            -35.472
               510       0.857630071            -35.299        0.506757284             54.169         0.50792548             54.156        0.856446029            -35.529
               511       0.857432617            -35.374         0.50792548             54.046        0.508276464             54.128        0.856544637            -35.571
               512       0.857266164            -35.454        0.509173371             54.021        0.509583882             54.034        0.856279768            -35.653
               513       0.855854621            -35.518        0.509330871             53.861        0.509800198             54.044        0.855263622            -35.716
               514       0.855854621             -35.57        0.510211214              53.82         0.51074015              53.96        0.855066713            -35.772
               515       0.855657576            -35.637         0.51074015             53.764        0.511740748             53.868        0.853787909            -35.842
               516       0.854771434            -35.732        0.511387373             53.744         0.51227127             53.822        0.854082847            -35.866
               517       0.854476258            -35.746        0.512212296             53.679        0.513333964             53.803        0.853493072            -35.956
               518       0.853689618            -35.815        0.512743307             53.556        0.514102836             53.681        0.852412874            -36.028
               519       0.852903703            -35.859        0.513333964              53.53        0.514635807             53.655        0.852020413            -36.083
               520       0.852903703            -35.907        0.514458089             53.508        0.515465971             53.612        0.852216621            -36.137
               521       0.851824251            -36.014        0.515110022             53.403        0.516059765             53.513        0.851432062            -36.245
               522       0.850942079             -36.08        0.515762782             53.373        0.516535292             53.421        0.851236035            -36.238
               523       0.852020413            -36.115         0.51677322              53.37        0.517487662             53.404        0.850158693            -36.298
               524       0.850942079            -36.167        0.517547244             53.273        0.518382104             53.343        0.850256577            -36.359
               525       0.850746165            -36.221         0.51850148             53.196        0.519158537             53.285        0.849865109            -36.431
               526       0.849865109            -36.286        0.518800039              53.14        0.519337879             53.198        0.848789503            -36.498
               527       0.849767271            -36.354        0.519517283             53.073        0.520774847             53.165        0.848789503            -36.559
               528       0.849571627            -36.412        0.520595009             52.985        0.521494821             53.113        0.848203382            -36.652
               529       0.848887229            -36.452        0.521254719              52.93        0.522155672             53.067        0.847715258            -36.706
               530       0.848203382            -36.545        0.522155672             52.878        0.523058182             52.984        0.847715258            -36.743
               531       0.847422518              -36.6        0.522336049             52.827        0.523540158             52.889        0.846252569            -36.798
               532       0.847520087            -36.676        0.523660722             52.783        0.524988754             52.884        0.847422518            -36.868
               533       0.846544905            -36.685        0.524203601             52.722         0.52480746             52.862          0.8456682            -36.906
               534       0.846837341            -36.832        0.525351528             52.634        0.525714554             52.745          0.8456682            -36.995
               535       0.845376167            -36.833        0.525472509             52.616         0.52686579             52.681        0.845960334            -37.039
               536       0.845278845            -36.852        0.526380752             52.562        0.526987119             52.697        0.844792404            -37.108
               537       0.845765567            -36.933        0.527472716             52.519        0.528445252             52.622        0.844209043            -37.135
               538       0.844597905            -37.044        0.528445252              52.43        0.528932192             52.548        0.843917514            -37.197
               539       0.844792404            -37.093        0.528384416             52.321        0.529846415             52.468        0.842849435             -37.28
               540       0.844111856            -37.167        0.530090474             52.304        0.530456774             52.417        0.843140595            -37.334
               541       0.843237671            -37.196        0.530151507             52.236        0.531067837             52.364        0.841879627            -37.422
               542       0.842655384            -37.222        0.531190134             52.191        0.531618395             52.304        0.841782708            -37.471
               543       0.842461378            -37.332        0.531618395             52.122        0.532598575             52.224        0.841007754            -37.549
               544       0.841588902            -37.409        0.532353361             52.038        0.533457715             52.179         0.84071733            -37.594
               545       0.841007754            -37.401        0.532843902             51.998         0.53401075             52.148        0.840427007             -37.63
               546       0.841007754            -37.455        0.534441286             51.977        0.534749023             52.088        0.840040065            -37.712
               547       0.839846661            -37.564        0.534195223             51.891        0.535241772             51.977        0.839459987            -37.792
               548       0.839943358            -37.615        0.535734975              51.83        0.536475632             51.926        0.839653302            -37.836
               549       0.839459987             -37.65        0.535981747              51.78        0.536784541             51.885        0.838494079            -37.892
               550       0.839943358            -37.767        0.537155467             51.698        0.537898087             51.793        0.837625712            -37.975
               551       0.838880308            -37.767        0.537526649             51.647        0.538331757             51.739        0.837432864            -38.042
               552       0.838011542            -37.841        0.538207815             51.591        0.539013944             51.684        0.836469288            -38.074
               553        0.83830103            -37.904        0.539262226             51.541        0.540007759             51.669        0.836469288            -38.132
               554       0.836758244            -37.954        0.539634864             51.511        0.540318702             51.587        0.836372992            -38.187
               555       0.836469288            -38.026        0.540505354             51.384        0.541626619             51.508        0.835891675            -38.271
               556       0.836661914            -38.082        0.541003407             51.379        0.542437868              51.47        0.835314461            -38.334
               557       0.835795445            -38.147        0.541813722             51.259        0.543062732             51.457        0.834545462             -38.39
               558       0.835122145            -38.207        0.542687727             51.246        0.543125258             51.373        0.833873169            -38.411
               559       0.834929873            -38.248        0.543500565             51.209        0.544189302             51.323        0.833969178            -38.476
               560       0.834353323            -38.333        0.544126654             51.132        0.544941647             51.209        0.833393291            -38.553
               561       0.833969178            -38.403         0.54519266             51.073        0.545380995             51.215        0.833009588            -38.578
               562       0.833489245            -38.411        0.545443788             51.012        0.546260754             51.105        0.832434364             -38.68
               563       0.832817802            -38.498        0.546449459              50.94        0.547141932             51.102        0.832434364             -38.71
               564       0.832434364            -38.538        0.547015963             50.915        0.547520015             51.038        0.831093719            -38.763
               565       0.831955314            -38.647        0.547772216             50.796        0.548529514             50.941        0.830998041            -38.845
               566       0.832051102            -38.624        0.548592669             50.814        0.549477609             50.911        0.830424206            -38.924
               567       0.831189407            -38.745        0.549161396             50.729        0.550047253             50.814        0.829755233            -38.934
               568       0.830519818            -38.757        0.550110583             50.652        0.550490717             50.785        0.829659709            -39.031
               569       0.830233016            -38.872        0.550934539             50.595        0.551632697             50.716        0.829946313            -39.082
               570       0.829564197            -38.883        0.551378719             50.534        0.552331739             50.667        0.829277725            -39.132
               571       0.829086799            -38.961        0.552013883             50.491           0.552968             50.582        0.828609675            -39.215
               572       0.828800492            -39.004        0.553095341             50.464         0.55322271             50.543        0.828228174            -39.244
               573       0.828418903             -39.09        0.553859998             50.322        0.554242723             50.502        0.827751545             -39.33
               574       0.828228174            -39.133        0.554561863             50.293        0.555584345             50.373        0.827179952            -39.417
               575        0.82756097            -39.213        0.555328548             50.229        0.555648313              50.35        0.826513592            -39.453
               576       0.826703926            -39.276         0.55584026             50.166        0.556032274             50.273        0.826133056            -39.541
               577       0.826418442            -39.304        0.556544634             50.116        0.557249901             50.235        0.825942854             -39.58
               578        0.82603795            -39.368         0.55731406             50.078        0.557634969             50.135        0.825182483            -39.666
               579       0.825087485            -39.399        0.557442402             50.033         0.55808455             50.156        0.824422811            -39.654
               580        0.82537251            -39.455        0.558791769             49.967        0.559499883              50.06        0.824517732            -39.726
               581       0.823948372            -39.549        0.559177902             49.874         0.55982205             49.978        0.823474206             -39.82
               582       0.824043238            -39.567        0.560015439             49.844        0.560402417             49.927        0.823379405            -39.882
               583       0.823663839            -39.637        0.560273395             49.785        0.561241789             49.857        0.822621394            -39.907
               584       0.822905566            -39.711         0.56085423             49.713         0.56175895             49.838        0.821958706             -39.95
               585        0.82186408            -39.761        0.561888314             49.671        0.562211856               49.8         0.82224265            -40.017
               586       0.821391114            -39.796        0.562276587             49.638        0.563053938             49.711        0.821485685            -40.056
               587       0.821391114            -39.855        0.563118765             49.556        0.563962205             49.656        0.820823913            -40.141
               588       0.820729417            -39.915        0.564092077             49.455        0.564027137             49.598        0.820162673            -40.203
               589       0.820918419            -40.019        0.564871938             49.379        0.565067071             49.526        0.819690685            -40.309
               590       0.819879448            -40.043        0.565132131              49.35        0.565718003              49.48        0.819313291            -40.326
               591       0.819218969            -40.125        0.565652877             49.286        0.566043751             49.401        0.818276351            -40.375
               592       0.819124659            -40.132        0.566434895             49.228        0.566761055             49.392        0.818276351            -40.419
               593       0.819218969            -40.242        0.567544605             49.159        0.568329239             49.267        0.818276351            -40.527
               594       0.818087958            -40.308        0.567936787             49.119        0.568525567             49.206        0.817052569            -40.549
               595       0.817711301            -40.314        0.568787443              49.08        0.569246016             49.141        0.816958508            -40.637
               596       0.816676389            -40.394        0.569311557             49.009        0.569311557             49.131        0.816300382            -40.668
               597       0.816018491             -40.45        0.569770553             48.913        0.570558264             49.031        0.816018491            -40.765
               598       0.815830617            -40.529         0.57108401             48.908        0.571149762             48.976        0.815924549            -40.777
               599       0.815642787            -40.543        0.571412847             48.836        0.571873537             48.941        0.815267256            -40.874
               600       0.814891898            -40.606        0.572268709             48.788        0.572532309             48.871        0.814891898            -40.919
               601       0.814141701             -40.68        0.572598228             48.709        0.573059874              48.86        0.814329185            -40.929
               602       0.814047974            -40.729        0.573587925             48.677        0.573587925             48.732        0.813579506            -40.994
               603       0.813860555             -40.75        0.574248673             48.666        0.574380913             48.729        0.813204925            -41.036
               604       0.813111306            -40.852        0.575108783             48.573        0.574843996             48.655        0.812924102            -41.106
               605       0.812924102             -40.89        0.575506191             48.463        0.575638722             48.619        0.812082216            -41.189
               606       0.811988727            -40.928        0.575903874             48.461        0.576368185             48.538        0.811895249            -41.245
               607       0.810961058            -40.967        0.576102819             48.376        0.576899284             48.517         0.81114781            -41.263
               608        0.81114781             -41.06         0.57729793             48.322        0.577829886             48.411        0.811054429            -41.377
               609        0.81114781            -41.137        0.578096047             48.238        0.578428922             48.373        0.810214479            -41.412
               610       0.810214479            -41.182         0.57849552             48.188        0.578761988             48.278        0.809561786            -41.463
               611       0.810214479            -41.232        0.579428696             48.212        0.579895849             48.234        0.809375399            -41.486
               612       0.808723383            -41.324        0.579628859             48.109        0.580296565             48.141        0.808444108            -41.601
