!{501R14S1R2}
!Johanson Technology Inc.
!www.johansontechnology.com
!Test Board Conditions:
!Substrate Type  RO4350B
!Substrate Thickness        20 mil
!Substrate Dk      3.66
!TL Type: GCPW 
!TL Trace Width  36 mil
!TL Gap  12 mil
!Electrode orientation      Horizontal
!DUT TOPOLOGY	SERIES
!Mounting Pad LxW         26x36 mil
! Created Wed Mar 11 15:54:02 2020
# mhz S ma R 50
! 2 Port Network Data from SP1.SP block
! freq  magS11  angS11  magS21  angS21  magS12  angS12  magS22  angS22  
!     
               500       0.940167471            -25.507        0.335587071             64.033        0.336631863             64.119        0.939085686            -25.643
               501       0.939615127            -25.572        0.336008296             63.951        0.337364981             64.093        0.938750108            -25.719
               502       0.939900766            -25.597        0.336613867             63.899        0.337856286             64.036        0.938062994            -25.742
               503       0.939430594            -25.624          0.3373764             63.898        0.338426763             63.943        0.938457694            -25.821
               504       0.939398798            -25.682         0.33810376             63.809        0.338610172             63.935        0.937669954            -25.883
               505       0.938879631            -25.776        0.338539943             63.747        0.339437576             63.872        0.938123288             -25.86
               506       0.939124751            -25.763        0.339330804             63.773        0.339995592             63.878         0.93761228            -25.913
               507       0.938209876            -25.859        0.339859958             63.688         0.34056499             63.737        0.937562007             -25.97
               508       0.938784943            -25.872        0.340499215             63.677        0.341166292             63.744        0.936949352            -26.033
               509       0.938259511            -25.883        0.341053865             63.594        0.341682688             63.714        0.937287825            -26.115
               510       0.937898647             -25.97          0.3417086             63.544        0.342338631             63.634        0.937250993            -26.161
               511       0.937627314            -26.037        0.342160798             63.456        0.343028536             63.557        0.936764125            -26.216
               512       0.937794075             -26.08        0.342773694             63.444        0.343642986             63.527         0.93617596            -26.263
               513       0.937070731            -26.142        0.343536094              63.33        0.344288386             63.483        0.936639293            -26.346
               514       0.936993986            -26.207        0.344101688             63.326        0.344736131              63.45        0.936346957            -26.321
               515       0.936419154            -26.231        0.344564308             63.299        0.345438142             63.356        0.936311351            -26.387
               516       0.936535732            -26.262        0.345083625              63.22        0.346118133             63.331        0.935673548             -26.47
               517       0.935836544            -26.323         0.34554133             63.247        0.346497416             63.284        0.935513373            -26.453
               518       0.936159826            -26.336        0.346337885              63.16        0.347256193             63.269        0.935082652            -26.574
               519       0.936183379            -26.454        0.347065086             63.077        0.347825106             63.194        0.934675645            -26.587
               520       0.935702515            -26.452        0.347846627             63.082        0.348367632             63.125        0.934733477             -26.63
               521       0.935068077            -26.475        0.348211597             63.016        0.348933953             63.146        0.935283409            -26.683
               522       0.935311017             -26.58        0.348783595             62.945        0.349547379              63.04         0.93423482             -26.72
               523        0.93459495            -26.594        0.349360202             62.915        0.350326855             63.025        0.934702556            -26.779
               524       0.934861837            -26.676        0.350104289             62.838         0.35058831             62.965         0.93410873             -26.84
               525       0.934545865            -26.728        0.350227803               62.8        0.351682389             62.921        0.933900527            -26.899
               526       0.934361473            -26.745        0.351006309             62.778        0.351977516             62.846         0.93360877            -26.944
               527       0.934440523            -26.832        0.351561787             62.747        0.352412792             62.811         0.93304301             -26.93
               528       0.934200431            -26.865        0.352484532             62.612        0.352849953             62.763        0.932481154            -27.039
               529       0.933733325            -26.922        0.352917228             62.615        0.353690064             62.687        0.932766326            -27.075
               530       0.933502465            -26.952        0.353684045             62.525        0.354132242             62.664        0.932535705             -27.15
               531       0.933449001            -26.995        0.353867433             62.559        0.354887412             62.584        0.932160284            -27.175
               532       0.933152542            -27.093        0.354733859             62.427        0.355469746             62.549        0.931971526             -27.24
               533       0.932866011            -27.085         0.35544243             62.419        0.355810918             62.545        0.932114513            -27.277
               534        0.93283851            -27.104        0.355964318             62.409        0.356456441             62.494        0.931550636            -27.322
               535       0.932177455            -27.183        0.356408945             62.289        0.357024973             62.399        0.931641005            -27.402
               536       0.932231217            -27.242        0.357045564             62.293         0.35782744             62.378        0.931265773            -27.418
               537       0.931924106            -27.287        0.357503704             62.202        0.358492889             62.354         0.93095898            -27.466
               538       0.931810543            -27.355        0.357995543             62.202        0.358862121              62.25        0.930738374            -27.502
               539       0.931304669             -27.38        0.358543439             62.105         0.35994967             62.225          0.9304473            -27.589
               540       0.931454354            -27.422        0.359262243             62.042        0.360007524             62.178        0.929740131            -27.629
               541        0.93111254            -27.477         0.36004118             62.067        0.360621965             62.145        0.930362455            -27.667
               542       0.930435575            -27.478        0.360525765             61.968        0.361356863             62.125        0.930221359            -27.726
               543       0.930679183            -27.584        0.361285058             61.887        0.361659602             62.027        0.928966387            -27.798
               544       0.930644723            -27.632        0.361604577             61.847        0.362271291             61.975        0.928825049            -27.837
               545       0.930139865            -27.654        0.362116454             61.797        0.363202023             61.939        0.928748784            -27.886
               546       0.930077612            -27.731        0.362885145             61.754        0.363721682             61.941         0.92879355            -27.918
               547        0.92984985            -27.764        0.363548892             61.715        0.364051501              61.83        0.928245442             -27.98
               548       0.928858143            -27.817        0.364124074             61.679         0.36487944             61.834        0.929285996            -28.016
               549        0.92942603             -27.87        0.364682423             61.613        0.365186598             61.757        0.928036017            -28.081
               550       0.928856219            -27.944         0.36517286             61.628        0.366056812             61.699        0.928214809            -28.054
               551        0.92890849            -27.967        0.365824622             61.572        0.366583516             61.665        0.927732845            -28.144
               552       0.928098587            -28.018        0.366263897             61.495        0.367235039             61.611        0.927991742            -28.184
               553       0.928322468            -28.053        0.366943215             61.415        0.367577451             61.536        0.927040829            -28.274
               554       0.927999721            -28.102        0.367661238             61.426        0.368254316             61.505        0.927252143            -28.295
               555       0.927968162            -28.166        0.368029877             61.359        0.368665991             61.407        0.926260355            -28.327
               556       0.927703572            -28.177        0.368645748              61.28        0.369410494             61.451        0.926316134            -28.392
               557       0.927480978            -28.217        0.369321858             61.265        0.369960205             61.403        0.926413791            -28.456
               558       0.926896362            -28.236        0.370195536             61.206        0.370451346             61.392        0.926362951            -28.469
               559       0.927247799            -28.326        0.370293263             61.191        0.370975997             61.267        0.925221702            -28.514
               560       0.926659492            -28.354        0.371039528             61.107        0.371638055             61.248        0.925486693            -28.575
               561       0.926032686            -28.446        0.371814495             61.054         0.37232853             61.168        0.925819484            -28.636
               562       0.926158347             -28.45        0.372121913             61.041          0.3727651             61.114        0.925092681            -28.676
               563       0.925869974            -28.525        0.372691939             60.987        0.373422085             61.098        0.924911118            -28.706
               564       0.926130369            -28.538        0.373011418             60.963        0.373957395             61.092        0.924106714            -28.728
               565       0.925840532            -28.609        0.373754293             60.909        0.374529637             60.986        0.924030251            -28.824
               566        0.92459172            -28.628        0.374455316             60.828        0.375145723             60.982        0.924166028            -28.862
               567       0.925229645            -28.721        0.375188518             60.781        0.375707219             60.895        0.923420559            -28.899
               568       0.924911118            -28.752        0.375664365             60.778        0.376227035             60.832        0.923421538            -28.945
               569       0.924473724            -28.835        0.376569006             60.682        0.376655724             60.807        0.923728986            -28.996
               570        0.92437885            -28.819         0.37692071             60.649        0.377137745              60.75        0.922890127            -29.058
               571        0.92367364            -28.887        0.377675271             60.597        0.377849237             60.694        0.923567304             -29.13
               572       0.923729137            -28.929        0.377828438             60.569        0.378568647             60.663        0.922984999            -29.142
               573       0.923456246            -29.017        0.378892774             60.512        0.378849155             60.567        0.922818565            -29.212
               574       0.923208937            -29.048        0.378965784             60.465        0.379751939             60.591        0.922040505            -29.212
               575       0.922890127            -29.083          0.3796208             60.423        0.379970605             60.534        0.921934357            -29.265
               576       0.923191815            -29.132        0.380401259             60.366        0.380532667             60.489        0.921492798            -29.328
               577       0.922040505            -29.174        0.380671181             60.329        0.381153577             60.417        0.921403802            -29.404
               578       0.922252837            -29.201        0.381197462             60.317        0.382076213               60.4        0.921509889            -29.426
               579       0.922235162            -29.255        0.381892981             60.234        0.382464981             60.385         0.92117401            -29.438
               580       0.922095457            -29.289        0.382363019             60.185        0.382979813              60.32        0.921034466             -29.54
               581       0.921509889            -29.348        0.382780672             60.142        0.383663072             60.263        0.920661538            -29.557
               582       0.921085615            -29.389        0.383574741             60.115        0.384016602             60.179        0.920343607            -29.638
               583       0.921085615            -29.466        0.384149259             60.084        0.384636062             60.158        0.920131715             -29.63
               584       0.920661538            -29.485        0.384813235             60.022        0.385300879             60.101        0.920131715            -29.701
               585       0.919919871            -29.524        0.385256522              59.99         0.38552274             60.061        0.919813967            -29.739
               586       0.920131715             -29.58        0.385877983             59.945        0.386500447             59.998        0.919708076            -29.793
               587       0.919813967            -29.621        0.386678478             59.868        0.386812055             59.973        0.919602197            -29.861
               588       0.919708076            -29.633        0.387079347             59.883        0.387480633             59.966        0.919178802            -29.876
               589       0.919757714            -29.733         0.38794793             59.825        0.388216008             59.861        0.919122588            -29.945
               590       0.919178802            -29.725        0.388150366             59.748        0.388418583             59.821        0.918332596            -29.989
               591       0.919072983              -29.8        0.388776495             59.698        0.388821257             59.768        0.918332596            -30.051
               592       0.919019962            -29.856        0.389560527             59.654         0.38960538             59.723        0.918385345            -30.101
               593       0.918755602            -29.887         0.38985221             59.645         0.39016652             59.694        0.917275935            -30.099
               594       0.918721964            -29.953        0.390691623             59.527        0.390601673             59.643        0.917664855            -30.209
               595        0.91801547            -29.965        0.390975911              59.54        0.391381236             59.621        0.917275935            -30.212
               596       0.917804114             -30.03        0.391516437             59.495        0.391741877             59.544        0.916748061            -30.245
               597       0.917780408            -30.099        0.391957323             59.441            0.39268             59.474        0.917252244            -30.325
               598       0.917698454            -30.136        0.392690143             59.387        0.393051991             59.471        0.916536996            -30.341
               599       0.916959174            -30.165        0.393504769             59.348        0.393504769             59.448        0.916959174            -30.413
               600       0.916959174            -30.204        0.393686026             59.297        0.393912715             59.355        0.915798652            -30.473
               601       0.916536996            -30.223        0.394366485             59.261        0.394729878             59.355        0.915904093            -30.512
               602        0.91622049            -30.319        0.394684435             59.178        0.395412141             59.252        0.915587806            -30.584
               603       0.916483663            -30.344        0.395616802             59.146        0.395981346             59.258        0.915850797            -30.634
               604       0.915587806            -30.407        0.396095583             59.112        0.396232414             59.202        0.914850227             -30.65
               605       0.915587806            -30.454        0.396688856             59.039        0.396780207             59.135        0.914744907            -30.697
               606       0.915778886            -30.464        0.397137252             59.035        0.397365928               59.1        0.914725163            -30.712
               607       0.915464417            -30.526        0.397549735             58.965        0.398282724             59.016        0.914411057            -30.806
               608       0.915271628            -30.617        0.398336405             58.874        0.398703456             58.972        0.913797572            -30.872
               609       0.914218489            -30.631        0.399162744             58.839        0.398841187             58.975        0.914113241            -30.887
               610       0.914008006            -30.656        0.399116792             58.848        0.399392587             58.943        0.913482012            -30.903
               611       0.914451193            -30.738        0.400046551             58.787        0.400276903             58.854        0.913714529            -30.955
               612       0.913902783            -30.808        0.400682154             58.738        0.400820569             58.809        0.913692374            -31.012
