!{501R14S300}
!Johanson Technology Inc.
!www.johansontechnology.com
!Test Board Conditions:
!Substrate Type  RO4350B
!Substrate Thickness        20 mil
!Substrate Dk      3.66
!TL Type: GCPW 
!TL Trace Width  36 mil
!TL Gap  12 mil
!Electrode orientation      Horizontal
!DUT TOPOLOGY	SERIES
!Mounting Pad LxW         26x36 mil
! Created Wed Mar 11 16:06:25 2020
# mhz S ma R 50
! 2 Port Network Data from SP1.SP block
! freq  magS11  angS11  magS21  angS21  magS12  angS12  magS22  angS22  
!     
               500      0.0750844493            -88.463        0.995520024              0.304        0.994718053              0.323       0.0753182117            -89.127
               501      0.0750066899            -88.666        0.994718053              0.286        0.995520024              0.299       0.0751363337            -89.165
               502      0.0747222602            -88.771        0.995634644               0.25        0.996093257               0.26       0.0745418213            -89.238
               503        0.07429336            -88.548        0.995061676              0.216        0.995863924              0.209       0.0744474797             -89.29
               504       0.073883932            -88.709        0.995405417              0.173        0.995634644               0.19       0.0740372024            -89.461
               505      0.0738414132            -88.626        0.996322642              0.191        0.995749278              0.189       0.0737649411            -89.356
               506      0.0736122343            -88.727        0.994603539              0.194        0.996207943              0.132       0.0734006659            -89.265
               507      0.0729877541            -88.834        0.995290824              0.108        0.994718053              0.126       0.0728785964            -89.406
               508      0.0730634205            -88.728        0.995634644               0.13        0.995978584              0.108       0.0729793515            -89.429
               509      0.0728115037            -88.681        0.995405417              0.098        0.995176243              0.067       0.0726022366            -89.318
               510      0.0724185792            -88.744        0.995520024              0.051        0.995290824              0.038       0.0719200532            -89.362
               511      0.0718786646            -88.921        0.995290824              0.025        0.995634644              0.021       0.0720360681            -89.454
               512      0.0719200532            -88.832        0.994603539             -0.013        0.995978584             -0.015       0.0715484121            -89.525
               513      0.0715978531            -88.898        0.995863924          -0.008663         0.99655208              0.016        0.071285303            -89.521
               514      0.0711541115            -88.826        0.995863924             -0.021        0.995749278             -0.048       0.0712114781            -89.448
               515      0.0707123686            -88.869           0.995968             -0.118        0.996885743             -0.092       0.0705497347             -89.77
               516      0.0705342414            -88.882        0.996207943             -0.109        0.996207943             -0.141        0.070307232            -89.669
               517      0.0701293801            -89.028        0.995863924             -0.139        0.995634644             -0.179       0.0699197714             -89.72
               518      0.0699036737            -89.016        0.995863924             -0.153        0.996093257             -0.137       0.0697991285             -89.83
               519      0.0694132417            -89.049         0.99710829             -0.146        0.995731685             -0.157       0.0697256107            -89.747
               520      0.0693026753             -89.04        0.995405417             -0.232         0.99655208             -0.192       0.0690637252            -89.865
               521      0.0689366222            -89.096        0.996093257             -0.234        0.996207943             -0.244       0.0688335233            -89.866
               522      0.0686752106            -88.919        0.996093257             -0.249        0.995634644             -0.261       0.0686593994            -89.945
               523      0.0682417256            -89.069        0.996093257              -0.28        0.996093257             -0.297       0.0683518069            -89.817
               524      0.0679751227            -89.016        0.995634644             -0.344        0.995749278              -0.33       0.0680377589            -89.911
               525      0.0680455925            -89.157        0.995634644             -0.347        0.995863924             -0.319       0.0677017664            -89.922
               526      0.0673441693            -89.184        0.995863924             -0.345        0.996781571             -0.351       0.0675227311            -90.053
               527      0.0671583473            -89.173        0.995290824             -0.381        0.996322642             -0.401       0.0668651772            -89.895
               528      0.0668882756            -89.101        0.995863924              -0.41        0.996437354             -0.404       0.0668805753            -89.872
               529      0.0665732869            -89.114        0.996207943             -0.429        0.995749278             -0.439       0.0666883543            -89.884
               530      0.0664737225            -89.295        0.995405417              -0.44        0.996666819             -0.475       0.0661759219             -90.21
               531      0.0661226119            -89.223        0.996093257              -0.51        0.996207943             -0.499       0.0659553455            -89.937
               532      0.0659022132            -89.145        0.995290824             -0.525        0.996322642             -0.506       0.0656749877            -89.842
               533      0.0655767667            -89.248        0.995978584             -0.552        0.995061676             -0.525       0.0654862316            -90.008
               534      0.0650504043            -89.148        0.996207943             -0.539        0.995978584             -0.552       0.0652153756            -90.058
               535      0.0652379041            -89.414        0.995863924             -0.595        0.995978584             -0.569       0.0647888095            -89.963
               536      0.0647888095            -89.001        0.995749278              -0.61        0.995863924             -0.592       0.0643946816            -90.215
               537      0.0643502147            -89.455        0.995749278             -0.664        0.995520024             -0.648       0.0640766798            -90.114
               538      0.0642096053            -89.596        0.996093257             -0.647        0.995863924             -0.627       0.0640398049            -90.132
               539      0.0637602484            -89.535        0.996093257             -0.671        0.996093257             -0.664       0.0636502333            -90.243
               540      0.0633067473            -89.386        0.995634644             -0.748        0.996666819             -0.725       0.0632484665            -90.361
               541      0.0632994593            -89.183        0.995978584             -0.753        0.996781571             -0.728       0.0632630316            -90.105
               542      0.0631611458             -89.29        0.997011115             -0.746        0.996093257             -0.729       0.0630449058            -90.243
               543      0.0627841473            -89.499        0.996207943             -0.741        0.996781571              -0.78       0.0625100721            -90.297
               544      0.0625460662            -89.413        0.996437354             -0.818        0.996666819             -0.763       0.0625316661            -90.403
               545      0.0622085387            -89.573        0.995749278             -0.838        0.997125907             -0.824       0.0619084599            -90.522
               546      0.0618942066            -89.818        0.996781571             -0.871        0.996666819             -0.836       0.0618728328            -90.417
               547       0.061482285            -89.432        0.996437354              -0.89        0.996322642             -0.879       0.0613691347            -90.512
               548      0.0613832671             -89.68        0.996093257             -0.902        0.996207943             -0.868       0.0614186123            -90.418
               549      0.0611293813            -89.467        0.996093257             -0.906        0.996322642             -0.906       0.0610168804            -90.466
               550      0.0606945925            -89.569        0.995978584             -0.965        0.996437354             -0.928       0.0605619709            -90.541
               551      0.0606596639            -89.581        0.996437354             -0.993        0.997470361              -0.97       0.0604435551            -90.744
               552      0.0603670565            -89.682        0.995863924             -0.948         0.99655208             -0.965       0.0602420858            -90.517
               553      0.0600289135            -89.543        0.996805631              -0.99        0.997379604             -1.037       0.0598081657            -90.444
               554      0.0596005133            -89.628        0.997125907             -0.973        0.997011115             -1.047       0.0596279667             -90.69
               555      0.0593608348            -89.563        0.996322642             -1.074        0.996896336             -1.082       0.0592106734            -90.596
               556      0.0590948997            -89.883        0.996781571             -1.078        0.997011115             -1.074        0.059047294            -90.875
               557       0.058945411            -89.497        0.996666819             -1.125         0.99655208             -1.105       0.0587489353            -90.687
               558      0.0586678266            -89.599        0.996781571             -1.087        0.997011115             -1.109       0.0585328944            -90.686
               559      0.0583781059            -89.651        0.996437354             -1.178        0.996781571             -1.142       0.0580296565            -90.855
               560      0.0580697558            -89.958        0.996437354             -1.169         0.99655208             -1.204       0.0578295749            -90.645
               561      0.0577763364            -89.763         0.99655208             -1.177        0.996437354             -1.199       0.0577497356            -90.707
               562      0.0576434545            -89.929         0.99655208             -1.156        0.996781571             -1.233       0.0575771283            -90.998
               563      0.0571873537            -89.801        0.996781571             -1.275         0.99655208             -1.216       0.0572466398             -90.92
               564      0.0570821076            -89.845        0.996437354             -1.252        0.997125907              -1.28       0.0568983929            -90.886
               565      0.0566826309            -89.666        0.996666819             -1.328        0.996781571             -1.306       0.0565392444            -90.941
               566      0.0565718003            -89.617        0.995405417             -1.296        0.997011115             -1.298       0.0564092077            -90.841
               567      0.0564871938            -89.683        0.996896336             -1.345        0.996896336             -1.319       0.0561371034            -90.957
               568      0.0560144402            -89.701        0.996781571             -1.345        0.996666819             -1.321       0.0560079917            -90.914
               569       0.055584026            -89.759        0.996322642             -1.446         0.99735553             -1.417        0.055449802            -91.034
               570      0.0554370357            -90.042        0.997011115             -1.406        0.997470361              -1.43        0.055341382            -91.107
               571      0.0551442202            -90.011        0.997470361             -1.404        0.996896336             -1.456       0.0551759729            -91.171
               572      0.0549287859            -89.682        0.996437354             -1.466        0.996666819             -1.401       0.0547835284            -91.062
               573       0.054519266            -89.942        0.996666819             -1.491         0.99655208             -1.501       0.0545443788            -91.304
               574      0.0543625725            -89.763        0.997011115             -1.458        0.996781571             -1.509       0.0544878912            -90.989
               575      0.0541564265            -89.772        0.995978584             -1.528        0.996666819             -1.535       0.0540816583             -90.77
               576      0.0539696995            -89.828        0.996322642             -1.536        0.996093257             -1.564       0.0538455726            -90.903
               577      0.0538517722            -90.093        0.996781571             -1.578        0.997240712             -1.574         0.05365374            -91.129
               578      0.0533703437            -90.043        0.996666819             -1.592        0.996666819             -1.591       0.0533273497            -91.062
               579      0.0534133725             -89.88        0.996093257             -1.632        0.997240712             -1.632        0.053278256             -91.01
               580      0.0529724427            -89.768        0.997700064             -1.653        0.996896336             -1.641       0.0528262765            -91.342
               581      0.0526441357            -90.372        0.996896336              -1.68        0.997814935             -1.649        0.052517011            -91.483
               582      0.0525291048             -89.93        0.996896336             -1.727        0.998044717              -1.68       0.0525109651            -91.336
               583      0.0521975357            -90.132        0.997125907             -1.737        0.997585206             -1.728       0.0521795104            -91.581
               584      0.0517666427            -90.144        0.996781571             -1.687         0.99655208             -1.716       0.0519158537            -91.296
               585      0.0518680595            -89.959        0.996207943             -1.732        0.996781571             -1.734        0.051487286            -91.366
               586      0.0514635807            -90.018        0.997125907               -1.8        0.996322642             -1.795       0.0512330251            -91.352
               587      0.0512684279            -89.637        0.997011115             -1.819         0.99655208             -1.795       0.0511210776            -91.443
               588      0.0510857766            -90.484        0.996322642             -1.811        0.997240712             -1.778        0.050728264            -91.493
               589      0.0507341046            -89.784        0.995863924             -1.885        0.996666819             -1.843       0.0504138657            -91.352
               590      0.0506523968            -90.074        0.996666819             -1.834        0.996322642             -1.869       0.0504138657            -91.522
               591      0.0501995703            -90.199         0.99735553             -1.884        0.997011115             -1.913       0.0502516122            -91.503
               592      0.0499689243            -90.291        0.997585206             -1.896        0.997929819             -1.925       0.0498425209            -91.865
               593      0.0499746775             -90.16        0.997011115             -1.923        0.998044717             -1.941       0.0496821063            -91.698
               594      0.0495336122            -90.086        0.997125907             -1.921        0.997011115             -1.949       0.0493230586            -91.693
               595      0.0493457779            -90.269        0.997125907             -1.952         0.99735553             -1.956       0.0490964397            -91.654
               596      0.0490286573            -90.187        0.997240712             -1.999        0.997470361             -2.009       0.0490907876            -91.687
               597      0.0488652359            -90.467        0.997700064             -2.032         0.99735553              -2.02       0.0488596104            -91.756
               598      0.0485679754            -90.152        0.997929819             -2.093         0.99735553             -2.041       0.0484005169            -91.976
               599      0.0484060896            -90.151         0.99655208             -2.109        0.997011115             -2.102        0.048155955            -91.731
               600      0.0481060834            -89.999         0.99735553             -2.125        0.997125907             -2.084       0.0478464808            -91.624
               601      0.0479402175            -90.254        0.996322642             -2.147        0.996781571             -2.139       0.0474842956            -91.755
               602      0.0478079366            -90.305        0.997011115             -2.116        0.996896336             -2.105       0.0474023639            -92.024
               603      0.0473587248            -90.179        0.997470361             -2.153        0.997011115             -2.183       0.0471140024            -91.741
               604      0.0470923106            -90.135        0.997011115              -2.21        0.997240712             -2.134       0.0468327867            -91.544
               605      0.0468220042            -90.241        0.997929819             -2.189        0.997814935             -2.209       0.0469353434            -92.265
               606       0.046730454            -89.969        0.997125907             -2.246         0.99735553             -2.213       0.0464408329            -91.921
               607       0.046515747            -90.362        0.996896336             -2.232        0.997240712             -2.289       0.0462274566            -92.131
               608      0.0460945946            -90.212         0.99735553             -2.267         0.99655208             -2.205       0.0458933753            -91.684
               609      0.0461530068            -90.251        0.996781571             -2.298        0.997125907             -2.292        0.045724609            -91.761
               610      0.0458775271            -90.477        0.997585206             -2.343        0.997700064             -2.292       0.0458722455            -92.009
               611      0.0456982953            -90.236        0.997125907             -2.331        0.997814935             -2.361       0.0451284066             -92.29
               612      0.0454046153            -90.242        0.997700064             -2.354        0.997470361             -2.333       0.0453262719            -92.151
