!{501R14S0R6}
!Johanson Technology Inc.
!www.johansontechnology.com
!Test Board Conditions:
!Substrate Type  RO4350B
!Substrate Thickness        20 mil
!Substrate Dk      3.66
!TL Type: GCPW 
!TL Trace Width  36 mil
!TL Gap  12 mil
!Electrode orientation      Horizontal
!DUT TOPOLOGY	SERIES
!Mounting Pad LxW         26x36 mil
! Created Mon Mar 16 16:44:24 2020
# mhz S ma R 50
! 2 Port Network Data from SP1.SP block
! freq  magS11  angS11  magS21  angS21  magS12  angS12  magS22  angS22  
!     
               500       0.983633783        -14.9406742        0.176366389         74.8695776        0.176366389          74.771511        0.983357959        -14.8879854
               501       0.983612094        -14.9642323        0.176711023         74.8427701        0.176711023         74.7520146        0.983244336        -14.9139805
               502       0.983587816        -14.9877904        0.177055176         74.8159626        0.177055176         74.7325183        0.983128131        -14.9399756
               503       0.983561023        -15.0113485        0.177398857         74.7891552        0.177398857         74.7130219        0.983009415        -14.9659708
               504       0.983531804        -15.0349066        0.177742082         74.7623477        0.177742082         74.6935256        0.982888281        -14.9919659
               505       0.983500263        -15.0584647        0.178084865         74.7355402        0.178084865         74.6740292        0.982764832         -15.017961
               506       0.983466515        -15.0820227        0.178427226         74.7087327        0.178427226         74.6545329        0.982639183        -15.0439561
               507       0.983430679        -15.1055808        0.178769183         74.6819253        0.178769183         74.6350366        0.982511455        -15.0699513
               508        0.98339288        -15.1291389        0.179110757         74.6551178        0.179110757         74.6155402        0.982381772        -15.0959464
               509       0.983353241         -15.152697        0.179451968         74.6283103        0.179451968         74.5960439        0.982250259        -15.1219415
               510       0.983280578        -15.1807224        0.179804384         74.5970373        0.179792529         74.5681575        0.982212482        -15.1524026
               511       0.983191934        -15.2107549        0.180161634         74.5637581        0.180132599         74.5365016        0.982215675        -15.1848701
               512       0.983101214        -15.2407873        0.180518506         74.5304789        0.180472291         74.5048458        0.982216794        -15.2173377
               513       0.983008296        -15.2708198        0.180874974         74.4971997        0.180811578         74.4731899        0.982215716        -15.2498052
               514       0.982913058        -15.3008523        0.181231014         74.4639205        0.181150438         74.4415341        0.982212321        -15.2822727
               515       0.982815392        -15.3308847        0.181586602         74.4306412        0.181488847         74.4098782        0.982206498        -15.3147403
               516       0.982715198        -15.3609172        0.181941718          74.397362        0.181826783         74.3782224        0.982198148        -15.3472078
               517       0.982612395        -15.3909497        0.182296343         74.3640828         0.18216423         74.3465666        0.982187188        -15.3796753
               518        0.98250692        -15.4209821        0.182650463         74.3308036        0.182501173         74.3149107        0.982173555        -15.4121429
               519       0.982398731        -15.4510146        0.183004068         74.2975244          0.1828376         74.2832549        0.982157206        -15.4446104
               520       0.982287813        -15.4810471        0.183357151         74.2642451        0.183173507          74.251599        0.982138126        -15.4770779
               521       0.982174174        -15.5110795         0.18370971         74.2309659        0.183508892         74.2199432         0.98211632        -15.5095455
               522       0.982079968        -15.5402193        0.184056205         74.2000812        0.183850926         74.1930869        0.982079968        -15.5384159
               523       0.982022474        -15.5678392        0.184393093         74.1732738        0.184205001         74.1744029        0.982022474        -15.5611617
               524        0.98196481         -15.595459        0.184729974         74.1464663        0.184559069         74.1557189         0.98196481        -15.5839074
               525       0.981906975        -15.6230788        0.185066847         74.1196588         0.18491313         74.1370349        0.981906975        -15.6066531
               526       0.981848966        -15.6506986        0.185403711         74.0928513        0.185267183         74.1183509        0.981848966        -15.6293989
               527       0.981790781        -15.6783184        0.185740565         74.0660439        0.185621229         74.0996669        0.981790781        -15.6521446
               528       0.981732419        -15.7059383         0.18607741         74.0392364        0.185975265         74.0809829        0.981732419        -15.6748903
               529       0.981673877        -15.7335581        0.186414244         74.0124289        0.186329293         74.0622989        0.981673877        -15.6976361
               530       0.981615153        -15.7611779        0.186751068         73.9856214        0.186683311         74.0436149        0.981615153        -15.7203818
               531       0.981556245        -15.7887977         0.18708788          73.958814        0.187037318          74.024931        0.981556245        -15.7431275
               532       0.981497151        -15.8164175        0.187424679         73.9320065        0.187391314          74.006247        0.981497151        -15.7658733
               533       0.981437869        -15.8440374        0.187761466          73.905199        0.187745299          73.987563        0.981437869         -15.788619
               534       0.981377229         -15.871511        0.188099532         73.8781966        0.188098453         73.9680504        0.981377229        -15.8118522
               535       0.981298095        -15.8966937        0.188457833         73.8481397        0.188438764         73.9355565        0.981298095        -15.8427214
               536       0.981218697        -15.9218765        0.188816093         73.8180829        0.188779034         73.9030626        0.981218697        -15.8735906
               537       0.981139041        -15.9470593        0.189174312          73.788026        0.189119263         73.8705686        0.981139041        -15.9044598
               538       0.981059129        -15.9722421        0.189532492         73.7579691        0.189459451         73.8380747        0.981059129         -15.935329
               539       0.980978967        -15.9974249        0.189890631         73.7279123        0.189799599         73.8055808        0.980978967        -15.9661982
               540       0.980898559        -16.0226076        0.190248732         73.6978554        0.190139709         73.7730869        0.980898559        -15.9970674
               541       0.980817908        -16.0477904        0.190606794         73.6677985        0.190479779          73.740593        0.980817908        -16.0279366
               542       0.980737018        -16.0729732        0.190964819         73.6377417         0.19081981         73.7080991        0.980737018        -16.0588058
               543       0.980655893         -16.098156        0.191322805         73.6076848        0.191159804         73.6756052        0.980655893        -16.0896751
               544       0.980574535        -16.1233387        0.191680754         73.5776279         0.19149976         73.6431113        0.980574535        -16.1205443
               545       0.980492949        -16.1485215        0.192038666         73.5475711        0.191839679         73.6106174        0.980492949        -16.1514135
               546       0.980411136        -16.1737043        0.192396542         73.5175142         0.19217956         73.5781235        0.980411136        -16.1822827
               547        0.98034182        -16.2043704        0.192749277         73.4886759        0.192527494         73.5468481         0.98034182        -16.2125426
               548       0.980276621        -16.2368643        0.193100303         73.4602437        0.192878116         73.5159789        0.980276621        -16.2425995
               549       0.980211311        -16.2693582        0.193451328         73.4318115        0.193228737         73.4851097        0.980211311        -16.2726564
               550        0.98014589        -16.3018522         0.19380235         73.4033794        0.193579355         73.4542405         0.98014589        -16.3027132
               551       0.980080358        -16.3343461         0.19415337         73.3749472        0.193929971         73.4233712        0.980080358        -16.3327701
               552       0.980014716          -16.36684        0.194504387          73.346515        0.194280584          73.392502        0.980014716         -16.362827
               553       0.979948964        -16.3993339        0.194855401         73.3180829        0.194631195         73.3616328        0.979948964        -16.3928838
               554         0.9798831        -16.4318278        0.195206413         73.2896507        0.194981802         73.3307636          0.9798831        -16.4229407
               555       0.979816293        -16.4643217        0.195557255         73.2612185        0.195332241         73.2998944        0.979816293        -16.4529976
               556       0.979724634        -16.4968156        0.195903147         73.2327864        0.195677735         73.2690252        0.979724634        -16.4830544
               557       0.979632974        -16.5293095        0.196249038         73.2043542        0.196023228          73.238156        0.979632974        -16.5131113
               558       0.979541315        -16.5618034         0.19659493          73.175922        0.196368722         73.2072868        0.979541315        -16.5431682
               559       0.979449734        -16.5932143        0.196944061         73.1464286        0.196700948         73.1778571        0.979449734        -16.5717857
               560       0.979358255        -16.6232468        0.197297315         73.1155844         0.19701629         73.1502597        0.979358255        -16.5985714
               561       0.979266775        -16.6532792        0.197650569         73.0847403        0.197331631         73.1226623        0.979266775        -16.6253571
               562       0.979175295        -16.6833117        0.198003823         73.0538961        0.197646972         73.0950649        0.979175295        -16.6521429
               563       0.979083815        -16.7133442        0.198357077         73.0230519        0.197962313         73.0674675        0.979083815        -16.6789286
               564       0.978992336        -16.7433766        0.198710331         72.9922078        0.198277655         73.0398701        0.978992336        -16.7057143
               565       0.978900856        -16.7734091        0.199063586         72.9613636        0.198592996         73.0122727        0.978900856           -16.7325
               566       0.978809376        -16.8034416         0.19941684         72.9305195        0.198908337         72.9846753        0.978809376        -16.7592857
               567       0.978717896         -16.833474        0.199770094         72.8996753        0.199223679         72.9570779        0.978717896        -16.7860714
               568       0.978626416        -16.8635065        0.200123348         72.8688312         0.19953902         72.9294805        0.978626416        -16.8128571
               569       0.978534937         -16.893539        0.200476602          72.837987        0.199854361         72.9018831        0.978534937        -16.8396429
               570       0.978443457        -16.9235714        0.200829856         72.8071429        0.200169702         72.8742857        0.978443457        -16.8664286
               571       0.978351981        -16.9531194        0.201181777         72.7765881        0.200490416         72.8465881        0.978351981        -16.8939968
               572       0.978260532        -16.9791145         0.20152392          72.748156         0.20085053          72.818156        0.978260532         -16.927303
               573       0.978169083        -17.0051097        0.201866063         72.7197238        0.201210644         72.7897238        0.978169083        -16.9606093
               574       0.978077635        -17.0311048        0.202208207         72.6912916        0.201570758         72.7612916        0.978077635        -16.9939155
               575       0.977986186        -17.0570999         0.20255035         72.6628595        0.201930872         72.7328595        0.977986186        -17.0272218
               576       0.977894737         -17.083095        0.202892493         72.6344273        0.202290986         72.7044273        0.977894737         -17.060528
               577       0.977803289        -17.1090902        0.203234636         72.6059951          0.2026511         72.6759951        0.977803289        -17.0938343
               578        0.97771184        -17.1350853        0.203576779          72.577563        0.203011214          72.647563         0.97771184        -17.1271405
               579       0.977620391        -17.1610804        0.203918923         72.5491308        0.203371328         72.6191308        0.977620391        -17.1604468
               580       0.977528942        -17.1870755        0.204261066         72.5206986        0.203731442         72.5906986        0.977528942         -17.193753
               581       0.977437494        -17.2130707        0.204603209         72.4922665        0.204091556         72.5622665        0.977437494        -17.2270593
               582       0.977346045        -17.2390658        0.204945352         72.4638343        0.204451669         72.5338343        0.977346045        -17.2603656
               583       0.977254596        -17.2650609        0.205287495         72.4354021        0.204811783         72.5054021        0.977254596        -17.2936718
               584       0.977237221        -17.2936881        0.205635442          72.412892        0.205146657         72.4776279        0.977163233          -17.31974
               585       0.977237221        -17.3229326        0.205984749         72.3917709        0.205475609         72.4500081        0.977071889        -17.3441105
               586       0.977237221        -17.3521771        0.206334057         72.3706499        0.205804562         72.4223883        0.976980546        -17.3684809
               587       0.977237221        -17.3814216        0.206683364         72.3495288        0.206133515         72.3947685        0.976889202        -17.3928513
               588       0.977237221        -17.4106661        0.207032672         72.3284078        0.206462468         72.3671487        0.976797859        -17.4172218
               589       0.977237221        -17.4399106        0.207381979         72.3072868         0.20679142         72.3395288        0.976706515        -17.4415922
               590       0.977237221        -17.4691552        0.207731287         72.2861657        0.207120373          72.311909        0.976615172        -17.4659626
               591       0.977237221        -17.4983997        0.208080594         72.2650447        0.207449326         72.2842892        0.976523828        -17.4903331
               592       0.977237221        -17.5276442        0.208429902         72.2439236        0.207778279         72.2566694        0.976432485        -17.5147035
               593       0.977237221        -17.5568887        0.208779209         72.2228026        0.208107231         72.2290496        0.976341141        -17.5390739
               594       0.977237221        -17.5861332        0.209128517         72.2016816        0.208436184         72.2014297        0.976249798        -17.5634444
               595       0.977237221        -17.6153777        0.209477824         72.1805605        0.208765137         72.1738099        0.976158454        -17.5878148
               596        0.97714593        -17.6478716        0.209820786         72.1500975         0.20909734         72.1409098        0.976021597         -17.618684
               597       0.976963348        -17.6836149        0.210157401         72.1102924        0.209432795         72.1027295        0.975839225         -17.656052
               598       0.976780766        -17.7193582        0.210494016         72.0704874        0.209768249         72.0645491        0.975656853          -17.69342
               599       0.976598184        -17.7551015        0.210830631         72.0306824        0.210103703         72.0263688        0.975474481         -17.730788
               600       0.976415602        -17.7908448        0.211167246         71.9908773        0.210439158         71.9881885        0.975292109         -17.768156
               601        0.97623302        -17.8265881        0.211503861         71.9510723        0.210774612         71.9500081        0.975109737         -17.805524
               602       0.976050439        -17.8623314        0.211840476         71.9112673        0.211110067         71.9118278        0.974927366         -17.842892
               603       0.975867857        -17.8980747        0.212177091         71.8714622        0.211445521         71.8736474        0.974744994          -17.88026
               604       0.975685275         -17.933818        0.212513706         71.8316572        0.211780975         71.8354671        0.974562622        -17.9176279
               605       0.975502693        -17.9695613        0.212850321         71.7918522         0.21211643         71.7972868         0.97438025        -17.9549959
               606       0.975320111        -18.0053046        0.213186936         71.7520471        0.212451884         71.7591064        0.974197878        -17.9923639
               607       0.975137529        -18.0410479        0.213523551         71.7122421        0.212787339         71.7209261        0.974015507        -18.0297319
               608       0.974972336        -18.0753977        0.213857508         71.6749107         0.21312786         71.6841396        0.973867785        -18.0658604
               609       0.974881277        -18.1038068        0.214180135          71.648125        0.213489982         71.6532955        0.973867785        -18.0967045
               610       0.974790218        -18.1322159        0.214502763         71.6213393        0.213852105         71.6224513        0.973867785        -18.1275487
               611       0.974699158         -18.160625         0.21482539         71.5945536        0.214214227         71.5916071        0.973867785        -18.1583929
               612       0.974608099        -18.1890341        0.215148017         71.5677679        0.214576349          71.560763        0.973867785         -18.189237
