!{501R14S150}
!Johanson Technology Inc.
!www.johansontechnology.com
!Test Board Conditions:
!Substrate Type  RO4350B
!Substrate Thickness        20 mil
!Substrate Dk      3.66
!TL Type: GCPW 
!TL Trace Width  36 mil
!TL Gap  12 mil
!Electrode orientation      Horizontal
!DUT TOPOLOGY	SERIES
!Mounting Pad LxW         26x36 mil
! Created Wed Mar 11 16:04:02 2020
# mhz S ma R 50
! 2 Port Network Data from SP1.SP block
! freq  magS11  angS11  magS21  angS21  magS12  angS12  magS22  angS22  
!     
               500       0.220470253            -82.458        0.972075506              6.853        0.971851703              6.851        0.220800473            -82.618
               501       0.220267286            -82.596        0.971851703              6.885        0.971963598              6.783        0.220140526            -82.648
               502       0.220039171            -82.569        0.971627952              6.792        0.972971233              6.759        0.219684795            -82.607
               503       0.219406758            -82.611        0.972187427              6.748        0.972859222              6.736         0.21958365            -82.766
               504       0.218650261            -82.594        0.971963598              6.729        0.971851703              6.691        0.218650261            -82.734
               505       0.218574755            -82.684        0.972747224              6.685        0.972411307              6.686        0.218499275             -82.78
               506        0.21792146            -82.708        0.972187427              6.598        0.972523266               6.63        0.217896372            -82.853
               507        0.21779605            -82.719        0.972411307              6.639        0.972971233              6.558        0.217570495            -82.836
               508       0.217045107            -82.851        0.971963598              6.535        0.972971233              6.543        0.216945177            -82.858
               509       0.216620722            -82.735        0.972523266              6.515         0.97229936              6.498        0.216695554            -82.962
               510       0.216670607            -82.858        0.972523266              6.561        0.973755671              6.448        0.216271852            -82.957
               511       0.216271852              -82.9         0.97364357              6.454        0.972747224              6.471         0.21622206            -82.958
               512       0.215526164            -82.979        0.973867785              6.429        0.973755671              6.383        0.215600617            -83.095
               513       0.215055226            -82.967        0.973531481              6.304        0.972859222              6.418        0.215278173             -83.13
               514       0.214535912            -83.001        0.973419406              6.311         0.97364357              6.354        0.214832509            -83.125
               515        0.21428906            -83.021        0.973195294               6.26        0.974092052               6.31        0.213993213            -83.181
               516       0.213845443            -83.116        0.973195294              6.276        0.973867785              6.278        0.213968578             -83.18
               517       0.213525624            -83.121        0.973307343              6.217        0.974652946              6.246        0.213427315            -83.274
               518       0.212985481            -83.106        0.972635239              6.146        0.974204205              6.204        0.212544563            -83.264
               519       0.212422248            -83.136        0.973419406               6.16        0.973979912              6.182        0.212495628            -83.334
               520       0.212104557            -83.223        0.973755671              6.127        0.974540742              6.136        0.212202258            -83.394
               521       0.211689833            -83.316        0.973531481              6.066        0.974204205              6.076        0.211689833            -83.437
               522       0.210959943            -83.264        0.973419406              6.013         0.97364357              5.995        0.211227277            -83.404
               523       0.211130025            -83.362        0.974316371               6.04        0.974092052               6.02        0.210789998            -83.449
               524       0.210184168            -83.334        0.974316371              5.961         0.97442855              5.977        0.210426291            -83.519
               525       0.210039028            -83.374        0.974540742               5.93        0.974765164              5.948        0.210039028            -83.564
               526       0.209652478             -83.38        0.973979912                5.9        0.973867785              5.901        0.209580079            -83.533
               527       0.209363032            -83.455        0.974092052               5.86        0.974765164              5.852        0.209387138            -83.625
               528       0.209073986            -83.484        0.974316371              5.799        0.975214163              5.847        0.208761304            -83.698
               529       0.208521097            -83.537        0.974765164              5.797        0.975214163              5.818        0.208353116            -83.649
               530       0.207921787            -83.597        0.974540742              5.768         0.97543874              5.725        0.207921787            -83.649
               531       0.207586927            -83.627        0.973867785              5.712        0.974989638              5.677        0.207419699            -83.714
               532       0.207300333            -83.697         0.97543874              5.707        0.976337567              5.712        0.207658637            -83.836
               533       0.206871184            -83.637        0.974652946              5.668        0.974877394              5.699        0.206704533            -83.786
               534       0.206609364            -83.781        0.975775703                5.6        0.975326445              5.632        0.206538016             -83.86
               535       0.206062991            -83.722        0.974877394              5.602        0.976337567              5.563        0.206395393            -83.865
               536       0.205731125            -83.763        0.975214163              5.543        0.975101894              5.602        0.205873288            -83.983
               537       0.205636404            -83.833        0.975551048              5.523        0.976337567              5.538        0.205376146            -83.952
               538       0.204927386            -83.886        0.976225168              5.475        0.975775703              5.492        0.204833035             -83.99
               539         0.2047623            -83.894        0.974989638               5.41        0.976449978              5.469         0.20429136            -83.985
               540       0.204197302            -83.907         0.97588805              5.406         0.97600041              5.414         0.20398583            -84.034
               541       0.203657309            -83.912        0.975326445              5.354        0.975551048              5.398         0.20361042            -84.133
               542        0.20337614            -83.924         0.97588805              5.334         0.97588805               5.35        0.203352727            -84.173
               543       0.202908388            -84.108        0.975551048              5.284        0.976112782              5.288        0.203001852            -84.197
               544       0.202278628            -84.116        0.975214163              5.236        0.976337567              5.279        0.202371803            -84.206
               545       0.202138947            -84.046        0.975551048              5.252        0.976337567              5.249        0.202278628            -84.143
               546       0.201859875            -84.085        0.976225168              5.206        0.976337567              5.232        0.201720483            -84.266
               547       0.201349242            -84.169         0.97543874              5.164        0.976562402               5.14        0.201604397            -84.313
               548       0.201117564            -84.182        0.976449978               5.13        0.977124719              5.146        0.201163878            -84.332
               549       0.200747433            -84.245         0.97588805              5.139        0.976225168              5.097        0.200839902            -84.304
               550       0.200539533            -84.298        0.976899753               5.06         0.97678729              5.044        0.200216562            -84.405
               551       0.200170466            -84.247        0.976337567              5.061         0.97701223              5.036        0.200239614            -84.468
               552       0.199365497            -84.294         0.97588805              5.003        0.976337567              4.987        0.199204892            -84.419
               553       0.199457329            -84.385         0.97701223              4.967        0.977237221              4.963        0.199113176            -84.484
               554        0.19899859            -84.388        0.976225168              4.947         0.97701223              4.935        0.198838281            -84.556
               555       0.198358128            -84.423        0.976225168              4.894        0.977574805              4.913         0.19842665             -84.55
               556       0.198312459            -84.503        0.976449978              4.878        0.977574805              4.862        0.198198334            -84.589
               557       0.197651448            -84.554        0.976449978               4.79        0.977574805              4.849        0.197446755            -84.626
               558       0.197333128            -84.517        0.976899753              4.815        0.976899753              4.828        0.197446755            -84.609
               559       0.197196862            -84.557        0.977124719              4.753        0.977687359              4.796        0.196901942            -84.757
               560       0.196607463            -84.636        0.977124719              4.754        0.977574805              4.713        0.196765974            -84.689
               561        0.19622304              -84.7        0.977687359              4.697        0.976899753              4.723        0.196155279            -84.735
               562        0.19620045            -84.571         0.97667484              4.712        0.977687359              4.674        0.195952135            -84.753
               563        0.19561403            -84.717        0.977237221              4.631        0.978137704              4.682        0.195681604            -84.816
               564       0.195276508            -84.699         0.97701223              4.632        0.977574805              4.642         0.19498446            -84.928
               565       0.194782529             -84.73        0.977349736              4.553        0.977237221               4.59        0.194670435            -84.842
               566       0.194580807            -84.752        0.977462264              4.573        0.978250323              4.548        0.194289799            -84.958
               567       0.194133283            -84.814        0.977349736              4.505        0.978137704                4.5        0.194043902            -84.883
               568       0.193887584             -84.83        0.977912506              4.485        0.978025099              4.505        0.193619904            -84.978
               569       0.193486202            -84.884        0.978137704              4.438        0.978475599              4.467         0.19370909             -85.03
               570       0.193107882             -84.83        0.977687359              4.426        0.978362955              4.432        0.192974534            -85.016
               571       0.192685928            -84.881        0.977574805              4.393        0.978475599              4.391        0.193018973            -85.068
               572       0.192486378             -84.94        0.978700928              4.363        0.978025099              4.371        0.192575041            -85.147
               573       0.192154252            -84.975        0.978025099              4.285        0.978588257              4.359        0.191977353            -85.101
               574       0.191447632            -84.992        0.977912506              4.274        0.979039017              4.265        0.191469675            -85.174
               575       0.191425593            -85.039        0.978700928              4.246        0.978700928              4.241        0.191315431            -85.206
               576       0.191051301            -85.089        0.978250323              4.181        0.978475599              4.219        0.190919373            -85.285
               577        0.19056801            -85.098        0.978137704               4.15        0.978700928              4.194        0.190633842            -85.303
               578       0.190348737            -85.174        0.978362955              4.163        0.978475599              4.138        0.190370653            -85.375
               579       0.189889084            -85.225        0.977912506              4.165        0.978250323              4.149        0.189954681            -85.317
               580       0.189626924            -85.124        0.978813611              4.093        0.979377224              4.118        0.189430541            -85.381
               581       0.189234362             -85.19        0.978025099              4.051         0.97915174              4.064        0.189190794            -85.438
               582       0.189016623            -85.244        0.978475599              4.023        0.979039017              4.006        0.188864355            -85.417
               583       0.188799135            -85.193        0.978475599              4.021        0.979264475              3.997        0.188603609            -85.416
               584       0.188560187            -85.243        0.978025099               3.98        0.979039017              4.013        0.188126511            -85.442
               585       0.187823531             -85.36        0.979039017              3.923        0.979264475              3.983        0.188191498            -85.583
               586       0.187477865            -85.349        0.978588257              3.928        0.979264475              3.914        0.187564222            -85.504
               587       0.187262148            -85.353        0.978813611              3.885         0.97915174              3.884        0.187369975            -85.623
               588       0.186831457            -85.306        0.979264475              3.846        0.978700928              3.886        0.186874481            -85.523
               589       0.186680949            -85.532        0.979264475              3.774        0.979264475              3.819        0.186380297            -85.644
               590       0.186251595            -85.397        0.979039017              3.731        0.978926308              3.841        0.186251595            -85.691
               591       0.185908822            -85.498        0.978588257              3.739        0.979039017              3.763        0.185737673            -85.674
               592       0.185759058            -85.442        0.979264475              3.697         0.97915174              3.769         0.18571629            -85.699
               593       0.185459891            -85.614         0.97960276              3.641        0.980279679              3.663        0.185331824            -85.828
               594       0.185118576            -85.639         0.97960276              3.648        0.979828348              3.682        0.184990744             -85.82
               595       0.184692815            -85.566        0.979489985              3.622        0.980053987              3.608        0.184586528             -85.83
               596        0.18416199            -85.695        0.979941161              3.584        0.979377224              3.626        0.184268033            -85.851
               597       0.183928911            -85.638        0.979377224              3.537        0.980053987              3.575        0.183717277            -85.892
               598       0.183548145            -85.764        0.979941161               3.51        0.979941161              3.538        0.183548145            -85.925
               599       0.183421398            -85.765        0.979715547              3.487        0.980392545               3.52        0.183421398            -85.972
               600       0.183104914            -85.836        0.980279679              3.466        0.980392545              3.448        0.182978473            -86.028
               601       0.182599675            -85.762         0.97960276              3.424        0.980279679               3.49        0.182641725            -85.981
               602        0.18209583            -85.716        0.980166827              3.408        0.979715547              3.428        0.182326586            -86.019
               603       0.182116796             -85.87        0.980731219              3.438        0.980505423              3.398         0.18209583            -86.021
               604       0.181781633            -85.877        0.980618314              3.339        0.980166827               3.38        0.181656106            -86.126
               605       0.181530666            -85.875        0.980166827              3.287        0.980279679              3.354        0.181405312            -86.088
               606       0.181134009            -85.952        0.980053987              3.288        0.980618314              3.295         0.18100893            -86.138
               607       0.180842291            -85.921        0.979377224              3.245        0.980392545              3.305        0.180696608            -86.098
               608       0.180613413            -85.979        0.980392545              3.222        0.981295935              3.247        0.180447139            -86.236
               609       0.180260263            -86.038        0.980731219              3.169        0.980618314              3.224        0.180073581            -86.145
               610       0.180094313             -86.05        0.980279679              3.137        0.980392545              3.158        0.179576706             -86.22
               611       0.179597381             -86.08        0.980731219              3.165        0.980392545              3.164        0.179370079            -86.301
               612       0.178998751            -86.157        0.980279679              3.114        0.980166827               3.05        0.178998751            -86.304
