!{501R14S1R0}
!Johanson Technology Inc.
!www.johansontechnology.com
!Test Board Conditions:
!Substrate Type  RO4350B
!Substrate Thickness        20 mil
!Substrate Dk      3.66
!TL Type: GCPW 
!TL Trace Width  36 mil
!TL Gap  12 mil
!Electrode orientation      Horizontal
!DUT TOPOLOGY	SERIES
!Mounting Pad LxW         26x36 mil
! Created Wed Mar 11 15:54:02 2020! 
# mhz S ma R 50
! 2 Port Network Data from SP1.SP block
! freq  magS11  angS11  magS21  angS21  magS12  angS12  magS22  angS22  
!     
               500       0.958862883        -21.0447929        0.278585396          68.727896        0.278505909         68.6176442        0.958862883        -21.1072299
               501       0.958683634        -21.0797238         0.27910956          68.690528        0.279003577         68.5835256        0.958683634        -21.1429732
               502       0.958504384        -21.1146548        0.279633724           68.65316        0.279501245          68.549407        0.958504384        -21.1787165
               503       0.958325135        -21.1495857        0.280157888          68.615792        0.279998913         68.5152884        0.958325135        -21.2144598
               504       0.958145886        -21.1845167        0.280682052          68.578424        0.280496581         68.4811698        0.958145886        -21.2502031
               505       0.957966636        -21.2194476        0.281206216         68.5410561         0.28099425         68.4470512        0.957966636        -21.2859464
               506       0.957787387        -21.2543786         0.28173038         68.5036881        0.281491918         68.4129326        0.957787387        -21.3216897
               507       0.957608137        -21.2893095        0.282254544         68.4663201        0.281989586          68.378814        0.957608137         -21.357433
               508       0.957428888        -21.3242405        0.282778708         68.4289521        0.282487254         68.3446954        0.957428888        -21.3931763
               509       0.957249639        -21.3591714        0.283302872         68.3915841        0.282984922         68.3105768        0.957249639        -21.4289196
               510       0.957132387        -21.3968831        0.283835161         68.3497565        0.283508571         68.2719968        0.957132387        -21.4702435
               511        0.95704299        -21.4358442        0.284371099         68.3059253        0.284043893         68.2314123         0.95704299        -21.5140747
               512       0.956953592        -21.4748052        0.284907037         68.2620942        0.284579214         68.1908279        0.956953592        -21.5579058
               513       0.956864195        -21.5137662        0.285442975          68.218263        0.285114535         68.1502435        0.956864195         -21.601737
               514       0.956774797        -21.5527273        0.285978913         68.1744318        0.285649857         68.1096591        0.956774797        -21.6455682
               515         0.9566854        -21.5916883        0.286514851         68.1306006        0.286185178         68.0690747          0.9566854        -21.6893994
               516       0.956596003        -21.6306494        0.287050789         68.0867695        0.286720499         68.0284903        0.956596003        -21.7332305
               517        0.95648432        -21.6696104        0.287580026         68.0429383        0.287249128         67.9879058         0.95648432        -21.7770617
               518       0.956323494        -21.7085714        0.288094433         67.9991071        0.287762943         67.9473214        0.956323494        -21.8208929
               519       0.956162402        -21.7475325        0.288608676          67.955276        0.288276594          67.906737        0.956162402         -21.864724
               520       0.956001046        -21.7864935        0.289122754         67.9114448        0.288790081         67.8661526        0.956001046        -21.9085552
               521       0.955839425        -21.8254545        0.289636667         67.8676136        0.289303403         67.8255682        0.955839425        -21.9523864
               522       0.955693178         -21.865329        0.290159704         67.8252721        0.289836088         67.7870755          0.9556602        -21.9929245
               523       0.955572161        -21.9067587        0.290698153         67.7854671        0.290401622         67.7521446        0.955450045        -22.0278554
               524       0.955449217        -21.9481885        0.291236084         67.7456621        0.290966643         67.7172136        0.955237953        -22.0627864
               525       0.955324345        -21.9896182        0.291773493          67.705857        0.291531145         67.6822827        0.955023923        -22.0977173
               526       0.955197551        -22.0310479        0.292310379          67.666052        0.292095127         67.6473517        0.954807962        -22.1326483
               527       0.955068845        -22.0724777         0.29284674          67.626247        0.292658589         67.6124208         0.95459008        -22.1675792
               528       0.954938245        -22.1139074         0.29338258         67.5864419        0.293221532         67.5774898        0.954370295        -22.2025102
               529       0.954776182        -22.1553371        0.293908793         67.5466369        0.293774855         67.5425589        0.954119061        -22.2374411
               530        0.95459755        -22.1967669        0.294429916         67.5068318        0.294323091         67.5076279        0.953851268        -22.2723721
               531       0.954418919        -22.2381966        0.294951039         67.4670268        0.294871326          67.472697        0.953583475         -22.307303
               532       0.954240288        -22.2796263        0.295472161         67.4272218        0.295419562          67.437766        0.953315682         -22.342234
               533       0.954061656        -22.3210561        0.295993284         67.3874167        0.295967797         67.4028351        0.953047889        -22.3771649
               534        0.95388305        -22.3621446        0.296513398         67.3474167        0.296511701          67.367563         0.95279082        -22.4125345
               535       0.953704829        -22.3978879         0.29701772         67.3043623         0.29698773         67.3269456        0.952701762        -22.4547766
               536       0.953526609        -22.4336312        0.297522042         67.2613079        0.297463759         67.2863282        0.952612703        -22.4970187
               537       0.953348388        -22.4693745        0.298026364         67.2182535        0.297939788         67.2457108        0.952523644        -22.5392608
               538       0.953170167        -22.5051178        0.298530686          67.175199        0.298415817         67.2050934        0.952434585        -22.5815028
               539       0.952991947        -22.5408611        0.299035008         67.1321446        0.298891846          67.164476        0.952345526        -22.6237449
               540       0.952813726        -22.5766044         0.29953933         67.0890902        0.299367875         67.1238587        0.952256467         -22.665987
               541       0.952635506        -22.6123477        0.300043652         67.0460357        0.299843904         67.0832413        0.952167408        -22.7082291
               542       0.952457285         -22.648091        0.300547974         67.0029813        0.300319933         67.0426239        0.952078349        -22.7504712
               543       0.952279065        -22.6838343        0.301052296         66.9599269        0.300795963         67.0020065         0.95198929        -22.7927132
               544       0.952091568        -22.7195776         0.30155368         66.9168725        0.301269056         66.9613891        0.951890956        -22.8349553
               545       0.951879122        -22.7553209        0.302047137          66.873818        0.301734231         66.9207717        0.951767675        -22.8771974
               546       0.951664964        -22.7910642        0.302540008         66.8307636        0.302198824         66.8801543        0.951642676        -22.9194395
               547       0.951495423        -22.8335093        0.303054869         66.7907555        0.302727828         66.8389277        0.951495423        -22.9616816
               548       0.951340791        -22.8781885        0.303577105         66.7517628        0.303278347          66.797498        0.951340791        -23.0039236
               549         0.9511858        -22.9228676        0.304099254         66.7127701        0.303828781         66.7560682          0.9511858        -23.0461657
               550       0.951030446        -22.9675467        0.304621315         66.6737774        0.304379128         66.7146385        0.951030446        -23.0884078
               551       0.950855248        -23.0122258        0.305137033         66.6347847        0.304923139         66.6732088        0.950855248        -23.1306499
               552       0.950677437         -23.056905        0.305651916          66.595792        0.305466314          66.631779        0.950677437         -23.172892
               553       0.950499626        -23.1015841        0.306166798         66.5567994        0.306009489         66.5903493        0.950499626         -23.215134
               554       0.950321816        -23.1462632         0.30668168         66.5178067        0.306552665         66.5489196        0.950321816        -23.2573761
               555       0.950144005        -23.1909423        0.307196562          66.478814         0.30709584         66.5074898        0.950144005        -23.2996182
               556       0.949966194        -23.2356214        0.307711445         66.4398213        0.307639015         66.4660601        0.949966194        -23.3418603
               557       0.949788384        -23.2803006        0.308226327         66.4008286         0.30818219         66.4246304        0.949788384        -23.3841024
               558       0.949610573        -23.3249797        0.308741209         66.3618359        0.308725365         66.3832006        0.949610573        -23.4263444
               559       0.949433006        -23.3678571        0.309260648         66.3210714        0.309234732         66.3428571        0.949394076        -23.4671429
               560       0.949255748        -23.4084416        0.309785884         66.2780519         0.30970107         66.3038961        0.949128343        -23.5061039
               561        0.94907849         -23.449026        0.310311121         66.2350325        0.310167409         66.2649351        0.948862609        -23.5450649
               562       0.948901233        -23.4896104        0.310836358          66.192013        0.310633747          66.225974        0.948596876         -23.584026
               563       0.948723975        -23.5301948        0.311361595         66.1489935        0.311100085          66.187013        0.948331142         -23.622987
               564       0.948546717        -23.5707792        0.311886832          66.105974        0.311566424         66.1480519        0.948065408        -23.6619481
               565        0.94836946        -23.6113636        0.312412069         66.0629545        0.312032762         66.1090909        0.947799675        -23.7009091
               566       0.948192202        -23.6519481        0.312937306         66.0199351          0.3124991         66.0701299        0.947533941        -23.7398701
               567       0.948014944        -23.6925325        0.313462543         65.9769156        0.312965439         66.0311688        0.947268208        -23.7788312
               568       0.947837687        -23.7331169         0.31398778         65.9338961        0.313431777         65.9922078        0.947002474        -23.8177922
               569       0.947660429        -23.7737013        0.314513017         65.8908766        0.313898115         65.9532468        0.946736741        -23.8567532
               570       0.947483171        -23.8142857        0.315038254         65.8478571        0.314364454         65.9142857        0.946471007        -23.8957143
               571       0.947305945        -23.8541917         0.31556125         65.8052234        0.314835479         65.8754184        0.946215947        -23.9351665
               572       0.947128952        -23.8891227        0.316067813         65.7654184        0.315340877          65.837238        0.946039157         -23.978221
               573       0.946951958        -23.9240536        0.316574376         65.7256133        0.315846275         65.7990577        0.945862367        -24.0212754
               574       0.946774964        -23.9589846        0.317080939         65.6858083        0.316351673         65.7608773        0.945685577        -24.0643298
               575       0.946597971        -23.9939155        0.317587502         65.6460032        0.316857071          65.722697        0.945508787        -24.1073842
               576       0.946420977        -24.0288465        0.318094065         65.6061982        0.317362469         65.6845167        0.945331996        -24.1504387
               577       0.946243983        -24.0637774        0.318600628         65.5663932        0.317867867         65.6463363        0.945155206        -24.1934931
               578        0.94606699        -24.0987084        0.319107191         65.5265881        0.318373265          65.608156        0.944978416        -24.2365475
               579       0.945889996        -24.1336393        0.319613754         65.4867831        0.318878663         65.5699756        0.944801626        -24.2796019
               580       0.945713002        -24.1685703        0.320120317         65.4469781        0.319384061         65.5317953        0.944624836        -24.3226564
               581       0.945536009        -24.2035012         0.32062688          65.407173        0.319889459         65.4936149        0.944448046        -24.3657108
               582       0.945359015        -24.2384322        0.321133443          65.367368        0.320394857         65.4554346        0.944271256        -24.4087652
               583       0.945182021        -24.2733631        0.321640006          65.327563        0.320900255         65.4172543        0.944094466        -24.4518197
               584       0.945005357        -24.3129001        0.322154679         65.2923639        0.321413744         65.3770999        0.943918006        -24.4896101
               585       0.944828771        -24.3535175        0.322671254         65.2582453        0.321929131         65.3364825        0.943741622        -24.5261657
               586       0.944652184        -24.3941348        0.323187829         65.2241267        0.322444518         65.2958652        0.943565239        -24.5627214
               587       0.944475598        -24.4347522        0.323704405         65.1900081        0.322959905         65.2552478        0.943388855         -24.599277
               588       0.944299011        -24.4753696         0.32422098         65.1558895        0.323475292         65.2146304        0.943212472        -24.6358327
               589       0.944122424         -24.515987        0.324737555         65.1217709        0.323990679          65.174013        0.943036089        -24.6723883
               590       0.943945838        -24.5566044         0.32525413         65.0876523        0.324506066         65.1333956        0.942859705        -24.7089439
               591       0.943769251        -24.5972218        0.325770705         65.0535337        0.325021453         65.0927782        0.942683322        -24.7454996
               592       0.943592665        -24.6378392         0.32628728         65.0194151         0.32553684         65.0521608        0.942506938        -24.7820552
               593       0.943416078        -24.6784565        0.326803855         64.9852965        0.326052227         65.0115435        0.942330555        -24.8186109
               594       0.943239491        -24.7190739         0.32732043         64.9511779        0.326567614         64.9709261        0.942154172        -24.8551665
               595       0.943062905        -24.7596913        0.327837006         64.9170593        0.327083001         64.9303087        0.941977788        -24.8917222
               596       0.942886521        -24.8027457        0.328343049         64.8792851        0.327572298         64.8864419        0.941757689        -24.9315272
               597       0.942710341        -24.8482372         0.32883856         64.8378554        0.328035504         64.8393258        0.941493874        -24.9745816
               598        0.94253416        -24.8937287        0.329334072         64.7964257         0.32849871         64.7922096         0.94123006        -25.0176361
               599        0.94235798        -24.9392201        0.329829583         64.7549959        0.328961916         64.7450934        0.940966245        -25.0606905
               600       0.942181799        -24.9847116        0.330325095         64.7135662        0.329425122         64.6979773         0.94070243        -25.1037449
               601       0.942005619        -25.0302031        0.330820607         64.6721365        0.329888329         64.6508611        0.940438615        -25.1467994
               602       0.941829438        -25.0756946        0.331316118         64.6307067        0.330351535         64.6037449        0.940174801        -25.1898538
               603       0.941653258         -25.121186         0.33181163          64.589277        0.330814741         64.5566288        0.939910986        -25.2329082
               604       0.941477078        -25.1666775        0.332307141         64.5478473        0.331277947         64.5095126        0.939647171        -25.2759626
               605       0.941300897         -25.212169        0.332802653         64.5064175        0.331741153         64.4623964        0.939383356        -25.3190171
               606       0.941124717        -25.2576604        0.333298164         64.4649878        0.332204359         64.4152803        0.939119541        -25.3620715
               607       0.940948536        -25.3031519        0.333793676         64.4235581        0.332667565         64.3681641        0.938855727        -25.4051259
               608       0.940755804        -25.3475568        0.334284819         64.3816721        0.333144278         64.3224432        0.938608743        -25.4484821
               609       0.940492506        -25.3873295        0.334757341         64.3378409        0.333678573         64.2826705        0.938433515         -25.493125
               610       0.940229209        -25.4271023        0.335229862         64.2940097        0.334212868         64.2428977        0.938258286        -25.5377679
               611       0.939965912         -25.466875        0.335702384         64.2501786        0.334747162          64.203125        0.938083057        -25.5824107
               612       0.939702614        -25.5066477        0.336174905         64.2063474        0.335281457         64.1633523        0.937907829        -25.6270536
