!{501R14S0R8}
!Johanson Technology Inc.
!www.johansontechnology.com
!Test Board Conditions:
!Substrate Type  RO4350B
!Substrate Thickness        20 mil
!Substrate Dk      3.66
!TL Type: GCPW 
!TL Trace Width  36 mil
!TL Gap  12 mil
!Electrode orientation      Horizontal
!DUT TOPOLOGY	SERIES
!Mounting Pad LxW         26x36 mil
! Created Mon Mar 16 16:45:18 2020
# mhz S ma R 50
! 2 Port Network Data from SP1.SP block
! freq  magS11  angS11  magS21  angS21  magS12  angS12  magS22  angS22  
!     
               500         0.9735947        -17.9477335        0.222885793         71.8898294        0.222822143         71.7795776          0.9735947        -17.9101706
               501       0.973503671        -17.9769781        0.223326254         71.8597725        0.223241387         71.7527701        0.973503671        -17.9402275
               502       0.973412643        -18.0062226        0.223766715         71.8297157        0.223660631         71.7259626        0.973412643        -17.9702843
               503       0.973321614        -18.0354671        0.224207176         71.7996588        0.224079876         71.6991552        0.973321614        -18.0003412
               504       0.973230585        -18.0647116        0.224647637         71.7696019         0.22449912         71.6723477        0.973230585        -18.0303981
               505       0.973139557        -18.0939561        0.225088098         71.7395451        0.224918365         71.6455402        0.973139557        -18.0604549
               506       0.973048528        -18.1232006        0.225528559         71.7094882        0.225337609         71.6187327        0.973048528        -18.0905118
               507         0.9729575        -18.1524452         0.22596902         71.6794314        0.225756853         71.5919253          0.9729575        -18.1205686
               508       0.972866471        -18.1816897        0.226409481         71.6493745        0.226176098         71.5651178        0.972866471        -18.1506255
               509       0.972775443        -18.2109342        0.226849942         71.6193176        0.226595342         71.5383103        0.972775443        -18.1806824
               510       0.972684537        -18.2418425        0.227282602         71.5836769        0.227021084         71.5070373        0.972684537        -18.2163231
               511       0.972593687        -18.2734984        0.227711758         71.5455276        0.227449746         71.4737581        0.972593687        -18.2544724
               512       0.972502837        -18.3051542        0.228140913         71.5073782        0.227878407         71.4404789        0.972502837        -18.2926218
               513       0.972411987        -18.3368101        0.228570069         71.4692289        0.228307069         71.4071997        0.972411987        -18.3307711
               514       0.972321137        -18.3684659        0.228999224         71.4310795        0.228735731         71.3739205        0.972321137        -18.3689205
               515       0.972230287        -18.4001218        0.229428379         71.3929302        0.229164392         71.3406412        0.972230287        -18.4070698
               516       0.972139437        -18.4317776        0.229857535         71.3547808        0.229593054          71.307362        0.972139437        -18.4452192
               517       0.972048587        -18.4634334         0.23028669         71.3166315        0.230021715         71.2740828        0.972048587        -18.4833685
               518       0.971957737        -18.4950893        0.230715846         71.2784821        0.230450377         71.2408036        0.971957737        -18.5215179
               519       0.971866887        -18.5267451        0.231145001         71.2403328        0.230879039         71.2075244        0.971866887        -18.5596672
               520       0.971776037         -18.558401        0.231574156         71.2021834          0.2313077         71.1742451        0.971776037        -18.5978166
               521       0.971685187        -18.5900568        0.232003312         71.1640341        0.231736362         71.1409659        0.971685187        -18.6359659
               522       0.971594348         -18.623225        0.232428078         71.1270755         0.23217707         71.1091795        0.971560784        -18.6714216
               523       0.971503529        -18.6589683        0.232845369         71.0921446        0.232638289          71.079935         0.97137925        -18.7022908
               524        0.97141271        -18.6947116        0.233262661         71.0572136        0.233099508         71.0506905        0.971197716          -18.73316
               525       0.971321891        -18.7304549        0.233679953         71.0222827        0.233560728          71.021446        0.971016182        -18.7640292
               526       0.971231072        -18.7661982        0.234097245         70.9873517        0.234021947         70.9922015        0.970834648        -18.7948985
               527       0.971140252        -18.8019415        0.234514537         70.9524208        0.234483166         70.9629569        0.970653115        -18.8257677
               528       0.971049433        -18.8376848        0.234931829         70.9174898        0.234944386         70.9337124        0.970471581        -18.8566369
               529       0.970958614        -18.8734281        0.235349121         70.8825589        0.235405605         70.9044679        0.970290047        -18.8875061
               530       0.970867795        -18.9091714        0.235766412         70.8476279        0.235866824         70.8752234        0.970108513        -18.9183753
               531       0.970776976        -18.9449147        0.236183704          70.812697        0.236328044         70.8459789        0.969926979        -18.9492445
               532       0.970686156         -18.980658        0.236600996          70.777766        0.236789263         70.8167344        0.969745445        -18.9801137
               533       0.970595337        -19.0164013        0.237018288         70.7428351        0.237250482         70.7874898        0.969563911        -19.0109829
               534       0.970504524        -19.0519009        0.237436134         70.7078067        0.237706926         70.7577579        0.969393269        -19.0420959
               535        0.97041381        -19.0835825        0.237862654          70.671251        0.238088548         70.7203899        0.969393269        -19.0770268
               536       0.970323095         -19.115264        0.238289174         70.6346954         0.23847017         70.6830219        0.969393269        -19.1119578
               537        0.97023238        -19.1469456        0.238715695         70.5981397        0.238851792         70.6456539        0.969393269        -19.1468887
               538       0.970141666        -19.1786271        0.239142215         70.5615841        0.239233414         70.6082859        0.969393269        -19.1818197
               539       0.970050951        -19.2103087        0.239568736         70.5250284        0.239615036          70.570918        0.969393269        -19.2167506
               540       0.969960236        -19.2419903        0.239995256         70.4884728        0.239996658           70.53355        0.969393269        -19.2516816
               541       0.969852256        -19.2736718        0.240417497         70.4519171        0.240374001          70.496182        0.969376012        -19.2866125
               542       0.969702732        -19.3053534        0.240829404         70.4153615        0.240741016          70.458814        0.969317225        -19.3215435
               543       0.969550447        -19.3370349         0.24124057         70.3788058        0.241107295          70.421446        0.969255667        -19.3564744
               544       0.969395476        -19.3687165        0.241651008         70.3422502        0.241472854          70.384078        0.969191411        -19.3914054
               545       0.969237909        -19.4003981        0.242060739         70.3056946        0.241837711           70.34671        0.969124547        -19.4263363
               546       0.969077848        -19.4320796        0.242469784         70.2691389         0.24220189          70.309342        0.969055177        -19.4612673
               547       0.968996159        -19.4686353        0.242905463         70.2350203        0.242625969          70.274411        0.968928302        -19.4968075
               548       0.968939331        -19.5068156        0.243349745         70.2017141         0.24306974         70.2402924        0.968780994        -19.5325508
               549       0.968880444        -19.5449959        0.243793541         70.1684078        0.243513025         70.2061738         0.96863162        -19.5682941
               550        0.96881946        -19.5831763        0.244236838         70.1351015        0.243955812         70.1720552        0.968480144        -19.6040374
               551       0.968756349        -19.6213566        0.244679626         70.1017953         0.24439809         70.1379366        0.968326537        -19.6397807
               552       0.968691093         -19.659537        0.245121897          70.068489        0.244839853          70.103818        0.968170781         -19.675524
               553       0.968623684        -19.6977173        0.245563647         70.0351828        0.245281094         70.0696994        0.968012868        -19.7112673
               554       0.968554126        -19.7358976        0.246004872         70.0018765        0.245721811         70.0355808        0.967852803        -19.7470106
               555       0.968482431         -19.774078        0.246445574         69.9685703        0.246162006         70.0014622        0.967690599        -19.7827539
               556       0.968408626        -19.8122583        0.246885755          69.935264        0.246601681         69.9673436        0.967526284        -19.8184972
               557       0.968332744        -19.8504387        0.247325422         69.9019578        0.247040842          69.933225         0.96735989        -19.8542405
               558       0.968254829         -19.888619        0.247764583         69.8686515        0.247479498         69.8991064        0.967191464        -19.8899838
               559        0.96815829        -19.9253571        0.248213233         69.8332143        0.247906833         69.8657143        0.967044298        -19.9253571
               560        0.96801756        -19.9602597        0.248668729         69.7950649        0.248314532         69.8332468         0.96690373        -19.9602597
               561       0.967836799        -19.9951623        0.249113962         69.7569156         0.24871198         69.8007792        0.966723177        -19.9951623
               562       0.967656038        -20.0300649        0.249559195         69.7187662        0.249109429         69.7683117        0.966542624        -20.0300649
               563       0.967475277        -20.0649675        0.250004428         69.6806169        0.249506877         69.7358442        0.966362071        -20.0649675
               564       0.967294516        -20.0998701        0.250449661         69.6424675        0.249904325         69.7033766        0.966181517        -20.0998701
               565       0.967113755        -20.1347727        0.250894894         69.6043182        0.250301774         69.6709091        0.966000964        -20.1347727
               566       0.966932993        -20.1696753        0.251340127         69.5661688        0.250699222         69.6384416        0.965820411        -20.1696753
               567       0.966752232        -20.2045779        0.251785359         69.5280195        0.251096671          69.605974        0.965639858        -20.2045779
               568       0.966571471        -20.2394805        0.252230592         69.4898701        0.251494119         69.5735065        0.965459305        -20.2394805
               569        0.96639071        -20.2743831        0.252675825         69.4517208        0.251891568          69.541039        0.965278752        -20.2743831
               570       0.966209949        -20.3092857        0.253121058         69.4135714        0.252289016         69.5085714        0.965098199        -20.3092857
               571       0.966040043        -20.3437043        0.253561707         69.3761007         0.25269034         69.4761007        0.964928489        -20.3445816
               572       0.965949745        -20.3745735        0.253968744         69.3436068        0.253120082         69.4436068        0.964838295         -20.382762
               573       0.965859447        -20.4054427        0.254375781         69.3111129        0.253549824         69.4111129        0.964748101        -20.4209423
               574        0.96576915        -20.4363119        0.254782817          69.278619        0.253979566          69.378619        0.964657907        -20.4591227
               575       0.965678852        -20.4671812        0.255189854         69.2461251        0.254409309         69.3461251        0.964567713         -20.497303
               576       0.965588554        -20.4980504        0.255596891         69.2136312        0.254839051         69.3136312        0.964477519        -20.5354833
               577       0.965498256        -20.5289196        0.256003927         69.1811373        0.255268793         69.2811373        0.964387325        -20.5736637
               578       0.965407958        -20.5597888        0.256410964         69.1486434        0.255698535         69.2486434        0.964297131         -20.611844
               579        0.96531766         -20.590658           0.256818         69.1161495        0.256128277         69.2161495        0.964206936        -20.6500244
               580       0.965227362        -20.6215272        0.257225037         69.0836556        0.256558019         69.1836556        0.964116742        -20.6882047
               581       0.965137064        -20.6523964        0.257632074         69.0511617        0.256987761         69.1511617        0.964026548        -20.7263851
               582       0.965046766        -20.6832656         0.25803911         69.0186677        0.257417503         69.1186677        0.963936354        -20.7645654
               583       0.964956468        -20.7141348        0.258446147         68.9861738        0.257847245         69.0861738         0.96384616        -20.8027457
               584       0.964866255        -20.7482941          0.2588597         68.9576279        0.258264339         69.0523639        0.963756051        -20.8330301
               585       0.964776061         -20.783225        0.259274782         68.9300081        0.258678466         69.0182453         0.96366596        -20.8614622
               586       0.964685867         -20.818156        0.259689863         68.9023883        0.259092593         68.9841267         0.96357587        -20.8898944
               587       0.964595673        -20.8530869        0.260104945         68.8747685         0.25950672         68.9500081         0.96348578        -20.9183266
               588       0.964505479        -20.8880179        0.260520027         68.8471487        0.259920847         68.9158895         0.96339569        -20.9467587
               589       0.964415285        -20.9229488        0.260935108         68.8195288        0.260334974         68.8817709        0.963305599        -20.9751909
               590       0.964325091        -20.9578798         0.26135019          68.791909        0.260749101         68.8476523        0.963215509        -21.0036231
               591       0.964234897        -20.9928107        0.261765271         68.7642892        0.261163228         68.8135337        0.963125419        -21.0320552
               592       0.964144703        -21.0277417        0.262180353         68.7366694        0.261577355         68.7794151        0.963035329        -21.0604874
               593       0.964054509        -21.0626726        0.262595435         68.7090496        0.261991482         68.7452965        0.962945239        -21.0889196
               594       0.963964315        -21.0976036        0.263010516         68.6814297        0.262405609         68.7111779        0.962855148        -21.1173517
               595       0.963874121        -21.1325345        0.263425598         68.6538099        0.262819736         68.6770593        0.962765058        -21.1457839
               596       0.963738985        -21.1703087        0.263844781         68.6184728         0.26322542         68.6368481        0.962585188        -21.1807149
               597       0.963558908        -21.2109261        0.264268067         68.5754184         0.26362266         68.5905443        0.962315539        -21.2221446
               598       0.963378832        -21.2515435        0.264691353         68.5323639        0.264019901         68.5442405         0.96204589        -21.2635743
               599       0.963198755        -21.2921608        0.265114638         68.4893095        0.264417142         68.4979366        0.961776241        -21.3050041
               600       0.963018678        -21.3327782        0.265537924         68.4462551        0.264814382         68.4516328        0.961506592        -21.3464338
               601       0.962838601        -21.3733956        0.265961209         68.4032006        0.265211623          68.405329        0.961236942        -21.3878635
               602       0.962658525         -21.414013        0.266384495         68.3601462        0.265608864         68.3590252        0.960967293        -21.4292933
               603       0.962478448        -21.4546304        0.266807781         68.3170918        0.266006105         68.3127214        0.960697644         -21.470723
               604       0.962298371        -21.4952478        0.267231066         68.2740374        0.266403345         68.2664175        0.960427995        -21.5121527
               605       0.962118294        -21.5358652        0.267654352         68.2309829        0.266800586         68.2201137        0.960158346        -21.5535825
               606       0.961938217        -21.5764825        0.268077637         68.1879285        0.267197827         68.1738099        0.959888697        -21.5950122
               607       0.961758141        -21.6170999        0.268500923         68.1448741        0.267595067         68.1275061        0.959619047        -21.6364419
               608        0.96157817        -21.6557062        0.268920867         68.1032143        0.267998497         68.0842938        0.959383607        -21.6772484
               609       0.961398653        -21.6857386        0.269326563            68.0675        0.268428311         68.0542614        0.959294003        -21.7153977
               610       0.961219137        -21.7157711        0.269732259         68.0317857        0.268858126         68.0242289          0.9592044        -21.7535471
               611        0.96103962        -21.7458036        0.270137956         67.9960714         0.26928794         67.9941964        0.959114796        -21.7916964
               612       0.960860103         -21.775836        0.270543652         67.9603571        0.269717754          67.964164        0.959025193        -21.8298458
