!{501R14S7R5}
!Johanson Technology Inc.
!www.johansontechnology.com
!Test Board Conditions:
!Substrate Type  RO4350B
!Substrate Thickness        20 mil
!Substrate Dk      3.66
!TL Type: GCPW 
!TL Trace Width  36 mil
!TL Gap  12 mil
!Electrode orientation      Horizontal
!DUT TOPOLOGY	SERIES
!Mounting Pad LxW         26x36 mil
! Created Wed Mar 11 16:02:08 2020
# mhz S ma R 50
! 2 Port Network Data from SP1.SP block
! freq  magS11  angS11  magS21  angS21  magS12  angS12  magS22  angS22  
!     
               500       0.393731354            -70.399        0.914744907             19.023        0.915587806             18.977        0.393958069            -70.675
               501       0.392916259            -70.478        0.915693223             18.929         0.91632598             18.903        0.393278315             -70.78
               502       0.391922322            -70.598        0.915798652             18.842        0.916642522             18.852        0.392147996            -70.827
               503       0.391516437            -70.575        0.915693223             18.821        0.916431482             18.792        0.391381236            -70.893
               504       0.390615974            -70.663        0.915904093             18.738        0.917275935             18.743        0.390571006            -70.955
               505       0.389807329            -70.709        0.917064749             18.719        0.917064749             18.672        0.390031784            -71.022
               506       0.389000357            -70.767        0.916642522             18.673         0.91801547             18.597        0.388866024            -71.083
               507       0.388239751            -70.876        0.917909786             18.549         0.91801547             18.564        0.388284452            -71.169
               508       0.387614487            -70.882        0.917064749             18.485        0.918861383             18.549        0.387614487            -71.164
               509       0.387257645            -70.945        0.917698454             18.465        0.919813967             18.487        0.386856591            -71.234
               510       0.385744729            -70.992        0.919178802             18.407        0.918755602             18.415        0.386411462             -71.29
               511       0.384768934            -71.036        0.918332596              18.34        0.919178802             18.361        0.385256522            -71.335
               512       0.384237723            -71.151        0.918755602             18.289        0.919813967             18.283        0.384591782            -71.388
               513       0.383574741            -71.219        0.919708076             18.206        0.920343607              18.18        0.383839796            -71.498
               514       0.382824743             -71.18        0.919919871             18.169        0.920237655             18.196        0.383089281            -71.536
               515       0.382164199            -71.284        0.919390475             18.103        0.921191665             18.139        0.382164199            -71.577
               516       0.381504794            -71.326        0.921085615             18.097        0.921509889             18.081        0.382032227            -71.658
               517       0.380758844            -71.402        0.921085615             18.004        0.921828222             18.023        0.380671181            -71.697
               518       0.380145628            -71.433        0.921191665             17.962        0.921828222              17.94        0.380058106            -71.712
               519       0.379446018            -71.509        0.920767539             17.887        0.922465218             17.893        0.379053054            -71.774
               520       0.378529734            -71.502        0.921403802             17.821        0.922252837             17.857        0.378791304             -71.85
               521       0.377354905            -71.566        0.921615988             17.754        0.922465218             17.807        0.377311463            -71.942
               522       0.377094328            -71.626        0.921934357              17.75        0.923208937             17.744         0.37692071            -72.008
               523       0.375448177            -71.722        0.922146665             17.653        0.922677648             17.646        0.376010524            -72.078
               524       0.375534637            -71.736        0.923315232             17.648        0.923421538             17.653        0.375837404            -72.069
               525       0.374498429            -71.784        0.922890127             17.582        0.923953255             17.536         0.37471407            -72.167
               526       0.373938344            -71.776        0.922996385             17.523        0.924485279             17.541        0.373680125            -72.248
               527       0.373207188            -71.821        0.923208937             17.502         0.92437885              17.49         0.37303536            -72.216
               528       0.372563238            -71.993        0.924485279             17.426        0.925550245             17.398         0.37273485            -72.294
               529       0.371963221            -71.993        0.924166028             17.352        0.925230626             17.371        0.371834772             -72.34
               530       0.370936867            -72.075         0.92480464             17.296        0.925230626             17.293        0.371022289            -72.444
               531       0.370467402            -72.128        0.925124111             17.241        0.925976575              17.25        0.370254205            -72.495
               532       0.369615351            -72.208        0.925124111             17.176        0.926616437             17.184        0.369657907            -72.561
               533       0.368722806            -72.196        0.924698174             17.125        0.925656809             17.132        0.368213748             -72.56
               534       0.368340947            -72.316        0.925976575             17.074        0.926296451             17.061        0.367705393            -72.638
               535       0.367451479            -72.334        0.926083188             17.046        0.927043258              17.01        0.367536098            -72.684
               536       0.366648574            -72.389        0.926829823             16.952        0.926723124             17.003        0.366690788            -72.722
               537       0.365594792            -72.405        0.926189813             16.895        0.926509763             16.964        0.365931672            -72.728
               538       0.364963977            -72.543        0.926936535              16.87        0.927577061             16.825        0.365132087            -72.822
               539       0.364711955            -72.553         0.92789749             16.847        0.927790668             16.798        0.364711955            -72.901
               540        0.36370561            -72.598        0.927683858             16.758         0.92853868             16.774         0.36370561            -72.977
               541       0.363119858             -72.64        0.928004324             16.747         0.92821803             16.722        0.363287119            -72.983
               542       0.362618536            -72.764         0.92853868             16.653        0.929287296             16.635         0.36257679            -73.022
               543       0.361742887            -72.751         0.92821803             16.566        0.928859442             16.619        0.361368256            -73.115
               544       0.360578643            -72.893         0.92789749             16.517        0.930464911             16.523        0.360827808            -73.147
               545       0.360246691            -72.927        0.928752509             16.468        0.929715347             16.495        0.360246691            -73.221
               546       0.359169955            -72.934        0.928859442             16.416         0.92939429             16.447        0.359335397            -73.187
               547       0.358715382            -72.949        0.928859442             16.397        0.930572041             16.418        0.359211308            -73.312
               548       0.358385145            -73.014        0.929180314             16.367        0.930036515             16.351        0.358137667            -73.307
               549       0.357560882            -73.109        0.929929447             16.305        0.930679183             16.304         0.35747856            -73.367
               550       0.356779588            -73.074        0.929822391             16.186        0.931000684             16.257        0.356410098            -73.481
               551       0.355836095            -73.128        0.930143595             16.212        0.931000684             16.197        0.356081983            -73.498
               552       0.355508509            -73.238        0.930572041             16.147        0.932073155             16.159        0.355344829             -73.51
               553       0.354935959            -73.236        0.930893505             16.139        0.931215079             16.102        0.354486744            -73.556
               554       0.353875096            -73.302        0.931107875             16.053        0.932287798             16.077        0.354038099            -73.654
               555       0.353712168            -73.318        0.931215079             16.011        0.933039436              16.04        0.353590021            -73.675
               556       0.352492597            -73.353        0.931644019             15.955        0.932717231             15.966        0.352654963            -73.706
               557       0.352087008            -73.484         0.93218047             15.894         0.93282462             15.897        0.351803374             -73.82
               558        0.35123679            -73.476        0.932073155             15.901        0.932287798             15.811        0.350994248            -73.822
               559       0.350550023            -73.596        0.932073155             15.748        0.934006718             15.817        0.350630749            -73.884
               560       0.349421803            -73.578         0.93282462             15.724        0.933576691             15.699        0.350388626            -74.001
               561       0.349301138            -73.659        0.932609854             15.704         0.93379168             15.722        0.349180514            -73.931
               562       0.348257117            -73.663        0.932395138             15.675        0.933469215             15.632        0.348217024            -74.066
               563       0.347936508            -73.794        0.933469215             15.529        0.934759742             15.612        0.348016632            -74.128
               564       0.347296175            -73.845        0.933576691             15.551        0.934975003             15.516        0.346976451            -74.118
               565       0.346497416            -73.861        0.933684179             15.509        0.934759742             15.469        0.345899552            -74.153
               566       0.345939378            -73.893        0.933899193              15.43        0.935405674             15.432        0.345819915            -74.265
               567       0.344984831            -73.957        0.934221806             15.418         0.93454453             15.401        0.345342477            -74.251
               568       0.344786299            -74.024        0.935621084             15.373        0.936159826             15.372        0.344905405            -74.317
               569       0.344032919            -74.081        0.935190314              15.29        0.936159826             15.248        0.343874522            -74.443
               570        0.34316264            -74.055        0.935297988             15.217        0.935836544             15.257         0.34320215            -74.431
               571       0.342373388            -74.104        0.935190314             15.255        0.936159826             15.194        0.342767787            -74.429
               572       0.341861347            -74.216        0.935836544             15.167         0.93648322             15.173        0.341664613            -74.585
               573       0.340761091            -74.257        0.935836544             15.131         0.93648322             15.103        0.341075088            -74.601
               574       0.340486581            -74.258        0.936267611             15.067        0.936698878             15.049        0.340604201            -74.688
               575       0.339742595            -74.376        0.936591043             14.983        0.937022458             14.994        0.339664376            -74.661
               576       0.339078302            -74.412        0.936914586             14.974        0.936698878             14.964        0.339468905            -74.764
               577       0.338727144            -74.418        0.937130343             14.893        0.937669954             14.943        0.338883169            -74.819
               578       0.337792498            -74.469        0.937454072             14.851        0.938209876             14.887         0.33810376            -74.849
               579       0.337326143            -74.545        0.937669954             14.832        0.938317897             14.845        0.337209654            -74.907
               580       0.336744104            -74.622        0.938642037             14.693        0.938101866             14.765        0.336279196            -75.023
               581       0.335892263            -74.642        0.938101866             14.698        0.938533978             14.694        0.335930936             -75.02
               582       0.334965439             -74.68        0.936698878             14.676        0.938642037             14.644        0.334695598            -75.028
               583         0.3345415            -74.715         0.93799387             14.603        0.938750108             14.636          0.3345415            -75.108
               584       0.333695231            -74.771        0.937669954              14.58        0.938858192             14.577        0.333887377             -75.12
               585       0.333541594            -74.772        0.938317897             14.599        0.939074397             14.518        0.333234532            -75.179
               586       0.333042762            -74.838        0.938858192             14.538        0.940264415             14.485        0.333157811            -75.235
               587       0.332391569            -74.885        0.939398798             14.465        0.939831506             14.454        0.332353304             -75.32
               588       0.331550739             -74.96        0.939939715              14.42        0.940589226             14.395        0.331703459            -75.376
               589       0.330750112            -74.938        0.939182518             14.344        0.939506956             14.338        0.330788193            -75.376
               590       0.330407578            -75.034        0.939615127             14.311        0.940697522             14.279         0.33017942            -75.437
               591       0.329533825            -75.068        0.940480943              14.24        0.940047936             14.283        0.329495889            -75.502
               592       0.328813773            -75.149        0.940156169             14.188        0.941022484             14.169        0.329040988            -75.592
               593        0.32843543            -75.207        0.941022484             14.131        0.941672743             14.175        0.328473244            -75.631
               594       0.327906481            -75.248        0.941130829             14.118        0.941347557             14.119        0.327868731            -75.636
               595       0.327114654            -75.288        0.940589226             14.069        0.941889597             14.052        0.326926406            -75.661
               596       0.326851137            -75.286         0.94080583             14.044        0.942431948             14.011        0.326512641            -75.721
               597       0.326024322            -75.332         0.94145594             13.983        0.942323453             14.029        0.326174496            -75.742
               598       0.325386852            -75.392        0.941889597             13.918        0.942540456             13.919        0.325274487            -75.869
               599       0.324489016            -75.479          0.9421065             13.865        0.942540456             13.851         0.32467586            -75.856
               600       0.324190288            -75.465        0.942323453             13.856        0.942866054             13.838        0.324003723             -75.88
               601       0.323444671            -75.549        0.942974611             13.787        0.943191764             13.786        0.323668176            -75.985
               602       0.322998124            -75.511        0.943083182             13.761         0.94330036             13.764        0.323146904            -75.968
               603       0.322403687            -75.545        0.943083182             13.687        0.943191764             13.738        0.322069797            -76.063
               604       0.321773297             -75.63        0.943083182             13.711        0.943734866             13.616        0.321588122            -76.071
               605       0.321144139            -75.692        0.943408967             13.612        0.944604478             13.598        0.321181114            -76.173
               606       0.320516211            -75.665        0.944169572             13.607           0.944387             13.573        0.320626932            -76.244
               607       0.319815862            -75.762        0.943843523              13.55        0.944278279             13.513        0.319815862            -76.256
               608       0.319190532            -75.846        0.944495733             13.481        0.944604478             13.449        0.319521436            -76.332
               609       0.318713163            -75.857        0.944060876             13.413        0.945257213             13.473        0.318529749            -76.345
               610       0.317906934            -75.921        0.945039584             13.366        0.944713236             13.365        0.318053369            -76.444
               611       0.317358402             -75.93        0.944713236             13.277         0.94558375             13.367        0.317468032            -76.457
               612       0.316701412            -76.037        0.944822006             13.317        0.945257213             13.273        0.316592046            -76.535
