!{501R14S3R9}
!Johanson Technology Inc.
!www.johansontechnology.com
!Test Board Conditions:
!Substrate Type  RO4350B
!Substrate Thickness        20 mil
!Substrate Dk      3.66
!TL Type: GCPW 
!TL Trace Width  36 mil
!TL Gap  12 mil
!Electrode orientation      Horizontal
!DUT TOPOLOGY	SERIES
!Mounting Pad LxW         26x36 mil
! Created Wed Mar 11 15:59:53 2020
# mhz S ma R 50
! 2 Port Network Data from SP1.SP block
! freq  magS11  angS11  magS21  angS21  magS12  angS12  magS22  angS22  
!     
               500       0.649456399            -54.326        0.754136568             35.292        0.754744575             35.318        0.648783804             -54.21
               501       0.648709115            -54.435         0.75448394             35.274        0.755353072             35.227        0.647738931            -54.277
               502       0.648410442            -54.461        0.755179166             35.151        0.756832895             35.179        0.647291643            -54.324
               503       0.647291643            -54.534        0.756136147              35.12        0.757094341             35.119        0.646919139            -54.406
               504       0.645951632            -54.634        0.756571539             35.012        0.757268688             35.003        0.645059833            -54.507
               505       0.645654229            -54.638        0.757355877             34.965         0.75796648             35.023         0.64491132            -54.556
               506       0.644837076            -54.737        0.757443076             34.841        0.758926993             34.934        0.643576237            -54.644
               507       0.644169266            -54.796        0.758315617             34.847        0.759626313             34.813        0.643205871             -54.69
               508       0.643205871            -54.911        0.758839624             34.704        0.760413818             34.815        0.642317863            -54.749
               509       0.642243918            -54.946        0.759713773             34.647        0.760238746             34.668        0.641209577            -54.847
               510       0.641800424            -54.995        0.760151225             34.674        0.761640448             34.603        0.640766798            -54.899
               511       0.641135759            -55.079        0.761465094              34.54        0.761552766             34.588        0.640471782            -54.939
               512       0.640840573            -55.158        0.762517824             34.476        0.763308327             34.487        0.639734835            -55.069
               513       0.639145889            -55.245        0.762342268             34.346        0.762956891             34.456        0.638631006            -55.109
               514       0.638778073            -55.306        0.763484105             34.311        0.764011684              34.39        0.637969623             -55.17
               515       0.638190008            -55.345        0.763923728             34.241        0.764979857             34.318        0.636722211            -55.241
               516       0.637162195            -55.466        0.763923728             34.199        0.765420342             34.239        0.636209281            -55.295
               517       0.636575618            -55.469        0.765156021             34.134        0.766390301             34.227        0.635769955            -55.379
               518       0.635257791            -55.572        0.765332225             34.013        0.766743318             34.083        0.634380756            -55.463
               519       0.634380756            -55.613        0.765949258              33.99        0.767008188             34.044        0.633723774             -55.52
               520       0.634015682            -55.683        0.766743318             33.948        0.768157013             33.985        0.633359078            -55.588
               521       0.632557486            -55.795        0.767361489             33.838        0.768245456              33.89        0.632484665              -55.7
               522       0.631393345            -55.843        0.767891747             33.769        0.768333908             33.797        0.631975148            -55.721
               523       0.631902393            -55.905        0.768864838             33.771         0.76930756              33.78        0.630666845             -55.78
               524       0.630812078            -55.941        0.769041896             33.656        0.770371132             33.721        0.629941181            -55.843
               525       0.630086247            -56.026        0.770548537             33.597        0.770903469             33.646        0.629578662            -55.925
               526        0.62936125             -56.09        0.770282445             33.516        0.770903469             33.554        0.628492356            -55.997
               527       0.628999065            -56.172        0.771080997             33.459        0.772502689             33.502        0.628058359            -56.068
               528       0.628347657            -56.223        0.772058129             33.396        0.773214518             33.453        0.627335696            -56.146
               529       0.627480162            -56.263          0.7730365              33.34        0.773748821             33.425        0.626830327            -56.204
               530       0.626325365            -56.396        0.773303543             33.271         0.77437264             33.289        0.625748763            -56.239
               531       0.625460662            -56.441        0.772858522             33.198        0.774640145             33.215        0.624309581            -56.325
               532       0.625100721            -56.522        0.774640145             33.152        0.776157753             33.202        0.625100721            -56.399
               533       0.623950303            -56.573        0.775264683             33.093        0.775621787             33.127        0.623519442            -56.436
               534       0.623519442            -56.669        0.776247117             32.981        0.776336491             33.063        0.622945424            -56.533
               535       0.622300285            -56.683          0.7760684             32.977         0.77740978             32.983        0.622873709            -56.568
               536       0.621942163            -56.762        0.776604674             32.906        0.777499288             32.956        0.621441139            -56.649
               537       0.621942163            -56.831        0.777767873             32.807        0.779022498               32.9        0.620511736            -56.719
               538       0.620440301            -56.931        0.778932815             32.741        0.778932815             32.818        0.619869118             -56.78
               539        0.62008325            -56.979        0.778305322             32.637        0.780009694             32.742        0.618728328            -56.872
               540        0.61929846            -57.066        0.780099501             32.617        0.780368984             32.666        0.618372261            -56.941
               541       0.617945252            -57.082        0.780099501             32.527        0.780458833             32.618        0.617447448            -57.028
               542       0.617447448            -57.159        0.780638561             32.501        0.781267935             32.532        0.616665994             -57.07
               543       0.616808003            -57.274        0.781177993             32.415        0.781897816             32.462         0.61595644            -57.152
               544       0.615814627            -57.327        0.781357887             32.364         0.78270841             32.442        0.615106052            -57.183
               545       0.615106052             -57.33         0.78198784              32.32        0.782978794             32.361         0.61475207            -57.213
               546       0.614610535            -57.394        0.783429643             32.257        0.783610055             32.305        0.613974028            -57.334
               547       0.613691347            -57.505        0.782888656             32.165        0.784422424             32.211        0.613267571             -57.41
               548       0.612914647            -57.537        0.784422424             32.098        0.785054848             32.166        0.612914647            -57.465
               549       0.612279896            -57.601        0.784151541              32.07        0.785054848             32.105        0.611575389            -57.502
               550       0.612279896            -57.678        0.785506892              31.97        0.786140191             32.025        0.610731049            -57.593
               551       0.611153073              -57.7        0.785778244             31.942         0.78659286             31.968        0.610309317            -57.647
               552       0.610168804            -57.803        0.786230704             31.844        0.787317673             31.882        0.608975751             -57.72
               553       0.610028324            -57.893        0.787408321              31.78        0.788043153             31.837        0.608555231            -57.772
               554       0.608695372            -57.921        0.787317673             31.754        0.788406144             31.787        0.608205019            -57.834
               555       0.607924995            -57.995        0.788043153             31.643        0.789223485             31.707          0.6075052            -57.913
               556       0.607785031            -58.075        0.788224628             31.629        0.790132635             31.636        0.606666481            -57.991
               557       0.606456982            -58.169        0.789132627             31.497        0.790132635             31.593        0.605689437            -58.034
               558       0.605898671            -58.201        0.789587019             31.491        0.790314591             31.538        0.604713968            -58.067
               559       0.605271186            -58.239        0.790496588             31.426        0.791316097             31.491        0.604574743            -58.169
               560       0.604365966            -58.334        0.790678628             31.352        0.791589455             31.375          0.6034621            -58.225
               561       0.603879101            -58.418        0.791680595             31.288        0.792045261             31.354        0.602767739            -58.268
               562       0.603045387            -58.411        0.791771746             31.227        0.792775098             31.259        0.602143496            -58.361
               563       0.602212825            -58.506        0.792775098              31.14        0.793505607             31.251        0.601866263            -58.408
               564       0.601866263            -58.561         0.79304896             31.134        0.793779722              31.17        0.600482009            -58.449
               565        0.60089695            -58.653         0.79368834             31.033        0.794511157             31.077        0.600067354            -58.512
               566       0.600620291            -58.657        0.794145355             30.998        0.795426398             31.031        0.599307896            -58.639
               567       0.599583952            -58.736        0.794694121             30.893         0.79579279             30.974        0.598480494            -58.657
               568         0.5985494            -58.784         0.79579279             30.855         0.79579279             30.919        0.598067221            -58.728
               569        0.59799837            -58.888        0.796067694             30.775        0.796892978             30.866         0.59758543            -58.794
               570       0.597035287            -58.893         0.79615935             30.723        0.797351839             30.804        0.596691704            -58.845
               571        0.59634832            -58.962        0.796892978             30.681        0.797994687             30.711        0.596279667            -58.918
               572       0.596073755            -59.006        0.797994687              30.64        0.797810963             30.691        0.595662144            -58.956
               573       0.595319352            -59.111        0.798086565             30.503        0.798730006             30.616        0.594565903            -59.046
               574       0.594497455            -59.157        0.798362262             30.456        0.800018445             30.495         0.59354001            -59.145
               575        0.59401854            -59.232        0.799189924             30.403        0.799834255              30.47        0.592788814            -59.178
               576       0.593130149            -59.295        0.799650108             30.322        0.800110556             30.392        0.592311275            -59.275
               577       0.592515888            -59.344        0.800386952             30.269        0.801401221             30.347        0.591765988            -59.322
               578       0.591834121            -59.388        0.800940031              30.24        0.801216713             30.268        0.591153139            -59.403
               579       0.590948997            -59.443        0.800663443             30.194        0.801678063             30.259        0.590133135            -59.394
               580       0.590540925            -59.467        0.802232034             30.132        0.802693969             30.176        0.589657735            -59.463
               581       0.589250555             -59.58          0.8023244             30.008        0.802878818             30.077        0.588775866            -59.579
               582       0.588911452            -59.619        0.802693969             29.992        0.803341125             30.015        0.588098403            -59.617
               583        0.58830156            -59.653        0.802878818             29.943        0.803988802             29.974        0.587218866            -59.635
               584       0.587489353            -59.737        0.803341125             29.853        0.804359138             29.936        0.586610726            -59.697
               585       0.586340644            -59.803        0.804359138             29.801        0.804822298             29.891         0.58647567            -59.772
               586       0.585531144            -59.846        0.804173949             29.776        0.805100321             29.809        0.585194182            -59.792
               587       0.585059452            -59.902        0.805100321             29.684        0.805563908             29.733        0.584655447              -59.9
               588       0.584318989            -59.943        0.806027761             29.589        0.805656657             29.699        0.583781059            -59.943
               589       0.584318989            -60.084        0.806399036             29.537         0.80686337             29.603        0.582907979            -60.037
               590       0.583042214            -60.078        0.806677605             29.496        0.807142099             29.584        0.582639602            -60.065
               591       0.582304304            -60.161        0.806677605             29.448        0.807327972             29.493        0.581500376            -60.097
               592       0.582170239            -60.209        0.807420924             29.368        0.807978864              29.44        0.581031931            -60.167
               593       0.581366496            -60.293        0.808444108             29.299        0.809002754             29.368        0.580630707            -60.258
               594       0.580697558            -60.328         0.80863028             29.265        0.809282222             29.343        0.579695595              -60.3
               595       0.579695595            -60.353        0.809095899             29.178        0.809748216              29.22        0.578828625            -60.411
               596       0.578761988            -60.455        0.809561786             29.133        0.809561786             29.205        0.578162607            -60.415
               597       0.578029495            -60.489        0.809654996             29.046         0.81068101              29.11        0.577630345            -60.511
               598       0.577364397            -60.562         0.81068101             29.004        0.810961058             29.072        0.577032135            -60.566
               599       0.576899284             -60.63         0.81114781             28.941        0.811801781             28.996        0.576368185             -60.65
               600       0.576301832            -60.683        0.811708325             28.918        0.811988727             28.936        0.575506191            -60.675
               601       0.575241222            -60.728        0.812082216             28.831        0.812643377             28.942        0.575174998            -60.693
               602       0.574645487            -60.744        0.812736941             28.788        0.812643377             28.844        0.574116462            -60.778
               603       0.574513185            -60.805        0.813392194             28.787        0.813579506             28.819        0.573720014            -60.794
               604       0.573653965            -60.899        0.813766861             28.692        0.813673178             28.717        0.572927937            -60.891
               605       0.572927937            -60.959        0.813954259             28.587        0.814235437             28.674         0.57200523            -60.945
               606       0.571873537            -60.999        0.814329185             28.564        0.814610493             28.619        0.571676052            -61.032
               607       0.571215522             -61.01        0.814047974             28.505        0.815267256             28.606        0.570821076            -61.007
               608       0.570755362            -61.084           0.815455              28.47        0.815924549             28.503        0.570361234            -61.119
               609       0.570426903            -61.169        0.816112444             28.368        0.816112444              28.46        0.569704959            -61.151
               610       0.569573795            -61.221        0.815830617             28.282        0.816582371             28.368        0.568198392            -61.248
               611       0.569180483            -61.284        0.816676389             28.317        0.817240724             28.328        0.568002177            -61.265
               612        0.56760995            -61.393        0.816958508              28.22        0.817334818             28.208        0.567348616            -61.385
