!{501R14S1R3}
!Johanson Technology Inc.
!www.johansontechnology.com
!Test Board Conditions:
!Substrate Type  RO4350B
!Substrate Thickness        20 mil
!Substrate Dk      3.66
!TL Type: GCPW 
!TL Trace Width  36 mil
!TL Gap  12 mil
!Electrode orientation      Horizontal
!DUT TOPOLOGY	SERIES
!Mounting Pad LxW         26x36 mil
! Created Wed Mar 11 15:54:28 2020
# mhz S ma R 50
! 2 Port Network Data from SP1.SP block
! freq  magS11  angS11  magS21  angS21  magS12  angS12  magS22  angS22  
!     
               500       0.931116583            -25.459        0.359628467             64.157        0.360789642             64.274        0.930259387             -25.46
               501       0.930464911            -25.536        0.360205218             64.095        0.361409863             64.225        0.930250688            -25.508
               502       0.930644411            -25.561        0.360897417             64.078        0.361937659             64.175         0.92968061            -25.517
               503       0.930266782            -25.614        0.361582592             64.015        0.362750077             64.048        0.929410369            -25.646
               504       0.930435259            -25.663        0.362356586             63.942        0.363150093             64.057        0.928829841            -25.694
               505       0.929751608            -25.742        0.362925044             63.878         0.36392923             64.025        0.929002619            -25.679
               506       0.929808886            -25.757        0.363784083             63.869        0.364454815             64.002        0.928632101            -25.741
               507       0.929231157            -25.829         0.36431224             63.812        0.365194109             63.883        0.928482587            -25.797
               508       0.929498884            -25.839        0.364836997             63.793        0.365678033              63.87         0.92768145            -25.854
               509       0.928872229            -25.864         0.36572612             63.742        0.366231739             63.858        0.928337681            -25.916
               510       0.928500954            -25.953        0.366338324             63.683        0.366929268             63.778        0.928180317            -25.963
               511       0.928077072            -26.007        0.366930695             63.573        0.367607229             63.701        0.927649775            -26.029
               512       0.928390913            -26.061        0.367435303             63.538        0.368239931             63.661        0.926789022            -26.089
               513       0.927524523            -26.137        0.368192893             63.454          0.3689567             63.586        0.927204223            -26.142
               514       0.927265598            -26.196        0.368896171             63.443        0.369491241              63.56        0.927158849            -26.144
               515        0.92701052            -26.201        0.369432129             63.418        0.370411672             63.511        0.926797093            -26.222
               516       0.926826195            -26.259        0.370039683             63.353        0.370978123             63.436        0.926399474            -26.288
               517       0.926604079            -26.322        0.370462461             63.345        0.371658618             63.383        0.925964225            -26.268
               518       0.926404284            -26.336        0.371450164             63.263        0.372349311             63.374        0.925871156            -26.392
               519       0.926496003            -26.434        0.372086189             63.189        0.372986875             63.336        0.925110372            -26.417
               520       0.926094893            -26.451        0.372997129             63.174          0.3735128             63.256        0.924816329            -26.459
               521       0.925278754            -26.475         0.37344151              63.16        0.374000851              63.22        0.925491832            -26.491
               522         0.9252386            -26.557        0.373941566             63.068         0.37467416             63.149         0.92481261            -26.542
               523       0.924805787            -26.607        0.374800825              63.06        0.375535103             63.129        0.925018756            -26.592
               524       0.925071572            -26.651        0.375297209             62.983        0.375945885             63.102        0.924219942            -26.639
               525        0.92454708            -26.722        0.375689477              62.93        0.377032711             63.047        0.924121408            -26.692
               526       0.924363632            -26.743        0.376307479             62.927        0.377348693             62.948        0.923618983            -26.717
               527       0.924295854            -26.808        0.376930261             62.854        0.378016716             62.922        0.923019774            -26.753
               528       0.924087246            -26.852        0.377974914             62.726        0.378192556             62.879        0.922705218             -26.86
               529       0.923604933            -26.916        0.378430598             62.704         0.37930297             62.814        0.922754653            -26.908
               530       0.923101954            -26.945         0.37935837             62.641        0.379707933             62.789        0.922889427            -26.969
               531       0.923309648            -26.988        0.379356364              62.66        0.380625056             62.705        0.922034929            -27.012
               532        0.92283819            -27.113        0.380430702             62.551        0.381263788             62.637         0.92209477            -27.071
               533       0.922442133            -27.051        0.381187922             62.534        0.381539171             62.666        0.922017431            -27.095
               534       0.922508658            -27.103        0.381786397             62.554        0.382270206             62.585        0.921447191            -27.134
               535       0.921882542            -27.158        0.382362762             62.418        0.382891381             62.558        0.921458097            -27.206
               536       0.921826425            -27.244        0.382956243             62.399        0.383662324             62.479         0.92108382            -27.252
               537       0.921479783            -27.284        0.383473901             62.299        0.384402153             62.479        0.920737457            -27.294
               538       0.921143764            -27.353        0.384040845             62.297         0.38492615             62.366        0.920613664            -27.333
               539       0.920861011            -27.377        0.384763694             62.242        0.385961589             62.348        0.920225123            -27.409
               540       0.920713582            -27.411        0.385588923             62.186        0.385988663             62.312        0.919865963            -27.425
               541        0.92070435            -27.465        0.386118131             62.178        0.386919123             62.257        0.919539088            -27.501
               542       0.919777298            -27.504        0.386707581             62.111        0.387509796             62.192        0.919777298            -27.537
               543       0.920089285            -27.579        0.387507376             61.978        0.388043107             62.143        0.918607471            -27.635
               544       0.919981413            -27.615        0.388042285             61.961        0.388534021             62.124        0.918394032            -27.659
               545       0.919556453             -27.67        0.388533434             61.926        0.389563623             62.061        0.918286916            -27.719
               546       0.919142327            -27.741        0.389433014             61.865        0.390106122             62.031        0.918190439            -27.729
               547       0.919072428            -27.761        0.390031549             61.822         0.39057077             61.965          0.9176979            -27.818
               548       0.918088446            -27.843        0.390512124               61.8        0.391412348             61.919        0.918299868            -27.806
               549       0.918317433            -27.877        0.391329717             61.707        0.391735409             61.853        0.917366399            -27.903
               550        0.91788532            -27.943         0.39159616             61.718        0.392770105             61.819        0.917251487            -27.876
               551       0.917894458            -27.946        0.392593177             61.676        0.393226473             61.802        0.917049435            -27.985
               552       0.916765976            -28.018        0.393059672             61.588         0.39382972             61.713         0.91718826            -28.004
               553       0.917461045            -28.064         0.39358418             61.547         0.39440066             61.655        0.916088926            -28.102
               554       0.917146087            -28.111        0.394219876             61.516        0.395265143             61.623        0.915774439             -28.13
               555       0.916801389            -28.149         0.39479829             61.477        0.395526205             61.537        0.915219495            -28.134
               556       0.916597206            -28.192        0.395665815             61.411        0.396440969              61.57        0.915331754            -28.215
               557       0.916295788            -28.228        0.396219358             61.396        0.396995597             61.509        0.915346848            -28.271
               558       0.915760823            -28.255        0.396992279             61.311        0.397449596             61.468        0.915023104            -28.307
               559       0.915805973            -28.324        0.397377682             61.313         0.39815619             61.375        0.914331058            -28.342
               560       0.915264433             -28.38        0.398149877             61.213        0.398792136             61.334        0.914211302            -28.397
               561       0.914662305            -28.461         0.39889701             61.128        0.399448488             61.269        0.914346447            -28.468
               562       0.914742809            -28.459         0.39925375             61.119        0.399943833             61.251        0.913900688            -28.513
               563       0.914476523            -28.539        0.399873442             61.075        0.400749105             61.195        0.913634647            -28.553
               564       0.914449755            -28.558         0.40055287              61.08        0.401291396             61.189        0.913187269            -28.558
               565       0.914282136            -28.648        0.401171649             61.021         0.40195759             61.084        0.912599516            -28.629
               566       0.913423022            -28.674        0.401949926             60.965        0.402691028             61.052        0.913002472            -28.671
               567       0.913430928            -28.734        0.402694513             60.896        0.403204817             61.003        0.912169848            -28.711
               568       0.913360657            -28.787        0.403080975             60.866        0.403638237             60.918        0.911679734            -28.767
               569       0.912865305            -28.849        0.404070087             60.772        0.404349305             60.919        0.912024912            -28.845
               570       0.912689883            -28.849        0.404504387             60.756        0.404783906             60.841          0.9113249            -28.889
               571       0.911894248            -28.924        0.405456695              60.69        0.405643458             60.782        0.911789268            -28.974
               572       0.911732353            -28.944        0.405571441             60.674         0.40631922              60.76        0.911417506            -28.978
               573       0.911715196            -29.018        0.406545533             60.617        0.406685973             60.673        0.910770999            -29.044
               574       0.911381062            -29.088        0.406911534             60.591        0.407614852              60.66        0.910646872             -29.04
               575       0.911171233            -29.098        0.407567927             60.534         0.40789652             60.637          0.9103324            -29.089
               576       0.911235431            -29.181         0.40825414             60.461        0.408583287             60.565        0.909453708            -29.164
               577         0.9103324              -29.2        0.408789752             60.407         0.40930778             60.514        0.909808521            -29.244
               578       0.910368993            -29.216        0.409371361             60.388        0.410126146             60.512        0.909530898            -29.279
               579       0.910080273            -29.284        0.410043282             60.324         0.41042112             60.484        0.909242444            -29.275
               580        0.90989794            -29.332         0.41057517             60.272        0.411048135             60.391        0.909060279            -29.397
               581       0.909442372            -29.382        0.410984256             60.255          0.4119791             60.354        0.908605131            -29.372
               582       0.908970942            -29.428        0.411907785             60.201         0.41233481             60.268        0.908657049            -29.489
               583       0.909007283            -29.496        0.412493741              60.16        0.413064016             60.258        0.908065891            -29.471
               584       0.908383106            -29.518        0.413113178             60.099        0.413636685             60.201        0.908069416            -29.541
               585        0.90782053            -29.539        0.413809065             60.065        0.413952014             60.165         0.90782053            -29.586
               586       0.907805911            -29.613        0.414326781             60.008        0.414995136             60.094        0.907387947            -29.638
               587       0.907378642            -29.638        0.415229837             59.958        0.415229837             60.087        0.907587598            -29.701
               588       0.907193647            -29.687        0.415719121             59.978        0.415958497             60.047        0.907089208              -29.7
               589       0.907144675             -29.75        0.416463127             59.922        0.416750909             59.951        0.906727015             -29.79
               590       0.906567196            -29.779        0.416821392             59.843        0.416965382             59.897        0.905941178            -29.817
               591       0.906786627            -29.806        0.417402559             59.782        0.417594824             59.888        0.905847535            -29.892
               592       0.906597918            -29.897        0.418229553             59.746        0.418518555             59.835         0.90555476            -29.942
               593       0.905941178            -29.915        0.418793565              59.72        0.418841783             59.795        0.904898774            -29.969
               594       0.906075047            -29.979         0.41943452             59.633        0.419482812             59.738        0.904824123            -30.043
               595       0.905526519            -30.032        0.420001821             59.601        0.420292048             59.675        0.904797045            -30.077
               596       0.905211369            -30.073        0.420726628             59.563        0.420678193             59.628        0.904273908            -30.106
               597       0.904677164            -30.136        0.420914249             59.517        0.421738868             59.557        0.904573016            -30.181
               598       0.904726533              -30.2        0.421859008             59.468        0.422004738             59.527        0.903893632            -30.188
               599       0.903902405             -30.23        0.422640919              59.42        0.422640919             59.504        0.904318764            -30.256
               600       0.904234479            -30.253        0.423039639             59.373        0.423331965             59.426        0.903194039            -30.338
               601       0.903806385            -30.274        0.423716528             59.355        0.424009322             59.426        0.903286262            -30.362
               602        0.90302547            -30.376        0.424130984              59.26        0.424619564             59.313        0.902921512            -30.419
               603       0.903041598            -30.403        0.424920571             59.203        0.425263155             59.309        0.902729753            -30.478
               604       0.902609707            -30.461        0.425402463             59.181        0.425696422             59.268        0.901882583            -30.511
               605       0.902779104            -30.498         0.42626679             59.142        0.426364953             59.228         0.90174034            -30.529
               606       0.902515396            -30.533        0.426534946             59.101        0.426878831             59.151        0.901373154            -30.582
               607       0.901874121            -30.596        0.427017747             59.042        0.427854324             59.079        0.901251344            -30.635
               608       0.902001772            -30.664        0.428013425             58.981        0.428210577             59.068        0.900963902            -30.707
               609       0.901216836            -30.698         0.42882421             58.931        0.428528091             59.051        0.901216836            -30.722
               610        0.90084485            -30.729        0.429091587             58.919        0.429190401             58.998        0.900430091            -30.755
               611       0.900777589            -30.777        0.429850635             58.862        0.429850635             58.956        0.900466525            -30.799
               612         0.9001849            -30.863        0.430458932             58.811        0.430756385              58.87        0.900392199            -30.859
