!{501R14S180}
!Johanson Technology Inc.
!www.johansontechnology.com
!Test Board Conditions:
!Substrate Type  RO4350B
!Substrate Thickness        20 mil
!Substrate Dk      3.66
!TL Type: GCPW 
!TL Trace Width  36 mil
!TL Gap  12 mil
!Electrode orientation      Horizontal
!DUT TOPOLOGY	SERIES
!Mounting Pad LxW         26x36 mil
! Created Wed Mar 11 16:04:23 2020
# mhz S ma R 50
! 2 Port Network Data from SP1.SP block
! freq  magS11  angS11  magS21  angS21  magS12  angS12  magS22  angS22  
!     
               500       0.155524925            -84.142        0.985144643              4.786        0.984917831              4.738        0.156098957            -84.912
               501       0.155113644            -84.158        0.984917831              4.722        0.985484958              4.696        0.155363859            -84.973
               502       0.154436518             -84.32        0.985258068              4.618        0.985144643              4.667        0.154935165            -85.068
               503       0.154329873            -84.265        0.984691071               4.64         0.98503123               4.59        0.154383186            -85.019
               504       0.153726946            -84.291        0.984577711              4.585        0.985598423               4.58        0.153868599            -85.089
               505       0.153355727            -84.375        0.985371507              4.597        0.985371507              4.517        0.153532386            -85.175
               506       0.152950183            -84.394        0.985371507              4.574        0.985598423              4.483        0.152985405            -85.245
               507        0.15238773            -84.487        0.986052413              4.483        0.985711901              4.456        0.152598407            -85.295
               508        0.15210728            -84.418        0.984804445              4.404        0.985711901              4.452        0.152089769             -85.25
               509       0.151984745            -84.546        0.985598423              4.409        0.986620193              4.413        0.151827346            -85.316
               510       0.151199376            -84.464        0.986165943              4.375        0.985825392              4.407        0.151513036            -85.358
               511        0.15062602            -84.455        0.984917831              4.343        0.985711901              4.358        0.150868996            -85.321
               512       0.150383435             -84.57        0.986165943              4.336        0.985598423              4.301        0.150799534            -85.366
               513       0.149916695            -84.619        0.985938896              4.269        0.986506611              4.246        0.150193106            -85.438
               514        0.14953746            -84.523        0.986165943              4.248        0.985938896              4.285        0.149847672            -85.456
               515       0.149176358            -84.673        0.985598423               4.19        0.987188301              4.225        0.149159184            -85.529
               516       0.148679126             -84.69        0.986393042              4.212        0.986620193              4.217        0.149004711            -85.566
               517       0.148166492            -84.752        0.986506611              4.126        0.986961019              4.172        0.148456768            -85.663
               518       0.147893811            -84.818        0.986847397              4.122        0.986620193              4.093        0.147996008            -85.551
               519       0.147536678            -84.799        0.985711901              4.074        0.986847397              4.092         0.14750271            -85.608
               520       0.147282111            -84.788        0.986165943               4.04        0.987188301              4.066        0.147434798            -85.664
               521       0.146470445            -84.843        0.986506611              3.989        0.986506611               4.01        0.146571658            -85.749
               522       0.146352451            -84.879        0.986620193              4.002        0.986733789              4.002        0.146335602            -85.845
               523       0.145529152            -84.926        0.986052413               3.94        0.986393042              3.932        0.145831049            -85.861
               524       0.145478897            -84.915        0.987074653              3.945        0.986847397              3.958        0.145864632            -85.794
               525       0.144893866            -84.953        0.986506611              3.916        0.986620193              3.842        0.145060777            -85.871
               526       0.144510698            -84.944        0.986393042              3.884        0.987074653              3.862        0.144510698            -85.928
               527       0.144194933            -84.967        0.986393042              3.869        0.986847397               3.84        0.144145139            -85.869
               528       0.143565471            -85.065        0.986733789              3.792        0.987529323              3.794        0.143813614            -85.963
               529       0.143548943            -85.072        0.986847397              3.758        0.987643023              3.782        0.143582001            -85.928
               530       0.142988134            -85.058        0.987188301              3.729        0.987415636               3.74        0.143119892            -86.093
               531       0.142692123            -85.167        0.987529323              3.711        0.987529323              3.709        0.142724983            -86.066
               532       0.142003811            -85.208        0.987643023              3.672        0.987529323              3.648        0.142445915            -86.191
               533       0.141693523            -85.228        0.986506611               3.65        0.986847397              3.629        0.141514193            -86.086
               534       0.141497902             -85.29        0.987188301              3.588        0.987188301               3.59        0.141221233            -86.172
               535       0.140961334            -85.254        0.987188301              3.566        0.987643023               3.55        0.141156214            -86.232
               536       0.140572381            -85.326        0.987870462              3.524        0.986733789              3.558        0.140572381            -86.198
               537        0.13994262            -85.263        0.987529323              3.513        0.986733789              3.547        0.140394469            -86.165
               538       0.139588616             -85.44        0.987188301              3.485        0.987643023              3.454        0.139701156            -86.276
               539       0.139556478            -85.447        0.987870462              3.468        0.987643023              3.421        0.139572546            -86.388
               540        0.13877141            -85.421        0.987643023              3.396        0.987756736              3.396        0.138819348            -86.429
               541       0.138516019            -85.521        0.988325498              3.415        0.987643023              3.375        0.138915274            -86.333
               542       0.138165623            -85.532        0.987984202              3.357         0.98843929              3.341        0.138404433            -86.379
               543       0.137879595            -85.453        0.987870462              3.297        0.987756736              3.346         0.13789547            -86.441
               544       0.136977741            -85.621        0.987074653              3.249         0.98843929              3.247        0.137340935            -86.514
               545       0.136961972            -85.666        0.987643023              3.228        0.987870462              3.265         0.13710396            -86.553
               546       0.136505453            -85.578        0.987984202              3.204        0.987870462              3.194        0.136662701            -86.434
               547        0.13606612            -85.624        0.987074653              3.184         0.98843929              3.191        0.136505453            -86.614
               548       0.135987816            -85.623        0.987415636              3.171        0.987756736              3.177        0.136019132            -86.587
               549        0.13550334            -85.789        0.988211719              3.139        0.987870462              3.146        0.135440953            -86.587
               550       0.134989504            -85.632        0.988097954              3.067        0.988211719               3.11        0.134880759            -86.678
               551       0.134617029            -85.666        0.987870462              3.075        0.988325498              3.068        0.134772101            -86.702
               552       0.134338347            -85.749        0.988097954              3.028        0.989236199              3.051        0.134230127            -86.736
               553       0.134121994            -85.793        0.988211719              3.024        0.987984202              2.985        0.133936825            -86.689
               554       0.133644164            -85.782        0.988211719                  3        0.988894588               3.02        0.133721118            -86.864
               555       0.133290746            -85.826        0.988211719              2.949        0.989464005               2.97        0.133459656            -86.799
               556       0.132693607            -85.809        0.988325498              2.915        0.988553095              2.935        0.132907656            -86.771
               557       0.132403663            -85.999        0.988894588              2.885        0.988780744              2.864        0.132327467            -86.942
               558       0.132190425            -85.864        0.988553095              2.914        0.987984202              2.835        0.132099143            -86.852
               559       0.131628521            -86.051        0.988211719              2.799        0.989577928              2.829         0.13176498            -86.905
               560       0.130918192            -85.893        0.989008445              2.779        0.988894588              2.741        0.131613367            -87.048
               561       0.130993577            -86.058        0.988097954              2.774        0.988666913              2.797        0.130978496            -86.864
               562       0.130271676            -85.961        0.987756736              2.776        0.988325498              2.743        0.130617089            -87.018
               563       0.130286675            -86.062         0.98843929              2.657        0.989691864              2.738        0.130181718            -87.107
               564        0.12979262            -86.097        0.988780744              2.689        0.989464005              2.674        0.129837457            -86.981
               565       0.129509015            -86.155        0.988553095              2.667        0.989122315              2.615        0.129181404            -87.059
               566       0.129092199            -86.134        0.988097954              2.604        0.989236199              2.603        0.129181404            -87.146
               567       0.128810125            -86.233        0.988666913              2.599        0.989122315              2.591        0.128928818            -87.137
               568       0.128543464            -86.284        0.989919775              2.609        0.989805813              2.562        0.128661912             -87.14
               569       0.127879226            -86.287        0.989691864              2.524        0.989577928              2.466        0.128233058            -87.225
               570       0.127555738             -86.19        0.989464005              2.466        0.989350095              2.517        0.127805634            -87.164
               571        0.12708667            -86.238        0.988666913              2.526        0.989236199              2.464        0.127541054            -87.165
               572       0.126984291            -86.347        0.989577928              2.447        0.988894588              2.463        0.127072039            -87.473
               573       0.126168227            -86.385        0.989122315              2.423        0.989122315              2.397        0.126531891            -87.358
               574       0.126197282            -86.349        0.989122315              2.391        0.989350095              2.358        0.126313567            -87.422
               575       0.125559622            -86.397        0.989008445              2.323        0.989350095              2.338        0.125602996             -87.34
               576       0.125501813            -86.462        0.989350095              2.319        0.989008445              2.321        0.125704261            -87.425
               577       0.125184339            -86.475        0.989691864              2.282        0.989691864              2.307        0.125458474            -87.491
               578        0.12458048            -86.461        0.989577928              2.219         0.99026174              2.278        0.124867668            -87.571
               579       0.124494453            -86.554        0.989577928              2.246         0.99003375              2.252        0.124394162              -87.6
               580       0.124036642            -86.535        0.990489783              2.125        0.989577928              2.216        0.123765614            -87.629
               581       0.123594743            -86.528        0.989691864              2.136        0.989919775              2.155        0.123737119            -87.663
               582        0.12311189             -86.58        0.988666913              2.157        0.989577928              2.125         0.12318278            -87.618
               583       0.122970234            -86.596        0.989008445              2.094        0.989691864              2.142        0.122927769            -87.643
               584       0.122574463            -86.566        0.988325498              2.084        0.989805813              2.089        0.122659164            -87.655
               585       0.122433425             -86.58        0.989350095              2.107        0.989805813              2.049        0.122405237            -87.755
               586       0.122208102            -86.702        0.989919775              2.093        0.990603824              2.034         0.12229255            -87.772
               587       0.121716653            -86.668        0.989691864              2.023        0.989805813              1.991        0.121730667            -87.817
               588       0.121380801             -86.75         0.99003375              1.989        0.991060119              1.977        0.121394777            -87.873
               589       0.120864845            -86.589        0.989122315              1.931        0.989122315               1.96        0.120990146              -87.8
               590       0.120767479            -86.719        0.989577928               1.92         0.99003375              1.885        0.120725774            -87.878
               591       0.120364939            -86.684         0.99026174              1.865        0.989122315              1.936        0.120240286            -87.919
               592       0.119936121             -86.83        0.989691864              1.846         0.99026174              1.835        0.120060459            -87.957
               593       0.119742963            -86.882        0.989919775              1.801        0.990946025              1.858        0.119591414            -88.072
               594       0.119316361            -86.868         0.99026174              1.792         0.99003375              1.796        0.119412558            -88.016
               595       0.118850223             -86.87        0.989919775              1.775        0.990603824              1.757        0.118918658            -87.973
               596       0.118754479            -86.904        0.989919775              1.789        0.990717878              1.731        0.118768152            -88.002
               597       0.118290536            -86.986        0.990489783              1.716        0.990489783              1.767        0.118631494            -87.993
               598       0.117991304            -86.927        0.990147739              1.681        0.990831945              1.699        0.117991304            -88.103
               599       0.117381593            -87.012        0.990489783              1.661        0.990375755              1.634        0.117516812            -88.087
               600       0.117354568            -86.943         0.99003375               1.66        0.990717878              1.633         0.11726003            -88.055
               601       0.116855727             -87.08        0.990946025              1.615        0.991174225              1.596        0.117219537            -88.202
               602       0.116613814            -86.939        0.990717878              1.597        0.990603824              1.583        0.116828823            -88.148
               603       0.116385801            -86.921        0.990717878              1.543        0.990489783              1.607        0.116385801             -88.17
               604       0.115851057            -86.991         0.99026174              1.562        0.990603824               1.48        0.115931112            -88.155
               605       0.115651162            -87.018        0.990375755              1.512        0.991174225              1.491        0.115744403            -88.274
               606       0.115491494            -87.043        0.990831945              1.527        0.991516624               1.48         0.11551809            -88.316
               607       0.114855025             -87.01        0.990603824              1.461        0.990831945               1.43        0.115000572            -88.298
               608       0.114617254            -87.255        0.991060119              1.419        0.991288345              1.387        0.114881474            -88.381
               609       0.114340477            -87.166        0.990375755               1.36        0.991288345              1.429        0.114419488            -88.427
               610        0.11397248            -87.192        0.991060119               1.35        0.990489783              1.337        0.114103772            -88.516
               611       0.113788926             -87.12        0.990375755               1.28        0.991060119              1.333        0.113710351            -88.515
               612       0.113448824            -87.274        0.990717878              1.336        0.991516624              1.291        0.113279155             -88.68
