!{501R14S0R7}
!Johanson Technology Inc.
!www.johansontechnology.com
!Test Board Conditions:
!Substrate Type  RO4350B
!Substrate Thickness        20 mil
!Substrate Dk      3.66
!TL Type: GCPW 
!TL Trace Width  36 mil
!TL Gap  12 mil
!Electrode orientation      Horizontal
!DUT TOPOLOGY	SERIES
!Mounting Pad LxW         26x36 mil
! Created Mon Mar 16 16:44:52 2020
# mhz S ma R 50
! 2 Port Network Data from SP1.SP block
! freq  magS11  angS11  magS21  angS21  magS12  angS12  magS22  angS22  
!     
               500       0.978362955        -16.6304224        0.201874929         73.1471405        0.201642645         73.0493258        0.978088609        -16.6728595
               501       0.978362955        -16.6572299        0.202273869         73.1195207        0.202041126         73.0257677         0.97799716        -16.7004793
               502       0.978362955        -16.6840374        0.202672809         73.0919009        0.202439607         73.0022096        0.977905711        -16.7280991
               503       0.978362955        -16.7108448        0.203071749         73.0642811        0.202838088         72.9786515        0.977814262        -16.7557189
               504       0.978362955        -16.7376523        0.203470689         73.0366613        0.203236569         72.9550934        0.977722814        -16.7833387
               505       0.978362955        -16.7644598        0.203869628         73.0090414         0.20363505         72.9315353        0.977631365        -16.8109586
               506       0.978362955        -16.7912673        0.204268568         72.9814216        0.204033531         72.9079773        0.977539916        -16.8385784
               507       0.978334625        -16.8180747        0.204661582         72.9538018        0.204426092         72.8844192        0.977420164        -16.8661982
               508       0.978279736        -16.8448822        0.205049005          72.926182         0.20481307         72.8608611        0.977273885         -16.893818
               509       0.978223007        -16.8716897        0.205435998         72.8985621        0.205199617          72.837303         0.97712578        -16.9214379
               510       0.978134316        -16.9029627        0.205822419          72.864237        0.205585593         72.8087175        0.977071811        -16.9540828
               511       0.978030357        -16.9362419        0.206208396         72.8268994        0.205971127         72.7778734        0.977059223        -16.9889854
               512       0.977924613        -16.9695211        0.206593986         72.7895617        0.206356273         72.7470292         0.97704485         -17.023888
               513       0.977816974        -17.0028003        0.206979163          72.752224        0.206741007         72.7161851         0.97702858        -17.0587906
               514       0.977707331        -17.0360795        0.207363901         72.7148864        0.207125302         72.6853409        0.977010305        -17.0936932
               515       0.977595579        -17.0693588        0.207748176         72.6775487        0.207509135         72.6544968        0.976989919        -17.1285958
               516       0.977481617         -17.102638        0.208131964          72.640211        0.207892481         72.6236526        0.976967321        -17.1634984
               517       0.977365354        -17.1359172        0.208515241         72.6028734        0.208275317         72.5928084        0.976942418         -17.198401
               518       0.977246711        -17.1691964        0.208897989         72.5655357        0.208657625         72.5619643        0.976915131        -17.2333036
               519       0.977125621        -17.2024756         0.20928019         72.5281981        0.209039386         72.5311201        0.976885393        -17.2682062
               520       0.977002037        -17.2357549        0.209661831         72.4908604        0.209420588          72.500276        0.976853155        -17.3031088
               521       0.976875929        -17.2690341        0.210042902         72.4535227         0.20980122         72.4694318        0.976818387        -17.3380114
               522       0.976779059        -17.3020227        0.210433709          72.418879         0.21019902          72.438879        0.976745315        -17.3705199
               523       0.976733659        -17.3345167        0.210841522         72.3888221        0.210626478         72.4088221        0.976608711        -17.3989521
               524       0.976685594        -17.3670106        0.211248798         72.3587652        0.211053403         72.3787652        0.976469433        -17.4273842
               525       0.976634895        -17.3995045         0.21165554         72.3287084        0.211479795         72.3487084        0.976327514        -17.4558164
               526       0.976581611        -17.4319984        0.212061756         72.2986515        0.211905663         72.3186515        0.976183004        -17.4842486
               527       0.976525813        -17.4644923        0.212467457         72.2685946        0.212331018         72.2885946        0.976035974        -17.5126807
               528       0.976467585        -17.4969862        0.212872659         72.2385378        0.212755876         72.2585378        0.975886508        -17.5411129
               529       0.976407023        -17.5294801         0.21327738         72.2084809        0.213180254         72.2284809        0.975734704        -17.5695451
               530       0.976344236         -17.561974        0.213681639          72.178424        0.213604172          72.198424        0.975580671        -17.5979773
               531       0.976279336        -17.5944679         0.21408546         72.1483672        0.214027653         72.1683672        0.975424522        -17.6264094
               532        0.97621244        -17.6269618        0.214488865         72.1183103        0.214450719         72.1383103        0.975266373        -17.6548416
               533       0.976143664        -17.6594557        0.214891877         72.0882535        0.214873394         72.1082535        0.975106341        -17.6832738
               534        0.97607189        -17.6917547        0.215293567         72.0578554        0.215292333         72.0779529        0.974948793        -17.7121446
               535       0.975979844        -17.7209992        0.215680132         72.0221121        0.215658332         72.0438343        0.974856853        -17.7478879
               536       0.975887497        -17.7502437         0.21606663         71.9863688        0.216024263         72.0097157        0.974764612        -17.7836312
               537       0.975794853        -17.7794882        0.216453061         71.9506255        0.216390128         71.9755971        0.974672074        -17.8193745
               538       0.975701914        -17.8087327        0.216839426         71.9148822        0.216755926         71.9414785        0.974579242        -17.8551178
               539       0.975608684        -17.8379773        0.217225724         71.8791389        0.217121658         71.9073599         0.97448612        -17.8908611
               540       0.975515166        -17.8672218        0.217611956         71.8433956        0.217487324         71.8732413        0.974392709        -17.9266044
               541       0.975421362        -17.8964663        0.217998123         71.8076523        0.217852924         71.8391227        0.974299013        -17.9623477
               542       0.975327276        -17.9257108        0.218384224          71.771909         0.21821846         71.8050041        0.974205036         -17.998091
               543       0.975232911        -17.9549553         0.21877026         71.7361657         0.21858393         71.7708855        0.974110779        -18.0338343
               544       0.975138269        -17.9841998        0.219156231         71.7004224        0.218949336         71.7367669        0.974016246        -18.0695776
               545       0.975043353        -18.0134444        0.219542138         71.6646791        0.219314678         71.7026483        0.973921439        -18.1053209
               546       0.974948167        -18.0426889        0.219927981         71.6289358        0.219679955         71.6685297        0.973826362        -18.1410642
               547       0.974844767        -18.0761982        0.220318361         71.5962388        0.220064856         71.6356296        0.973791347        -18.1749797
               548       0.974737498        -18.1111292        0.220709987         71.5645573        0.220456031         71.6031357         0.97377522        -18.2082859
               549       0.974628789        -18.1460601        0.221101272         71.5328757        0.220846866         71.5706418        0.973757652        -18.2415922
               550       0.974518547        -18.1809911        0.221492194         71.5011942        0.221237338         71.5381478        0.973738549        -18.2748985
               551       0.974406677         -18.215922        0.221882728         71.4695126        0.221627424         71.5056539        0.973717815        -18.3082047
               552       0.974293081         -18.250853        0.222272852          71.437831        0.222017098           71.47316        0.973695352         -18.341511
               553       0.974177661        -18.2857839        0.222662539         71.4061495        0.222406337         71.4406661        0.973671061        -18.3748172
               554       0.974060319        -18.3207149        0.223051765         71.3744679        0.222795115         71.4081722        0.973644846        -18.4081235
               555       0.973940962        -18.3556458        0.223440507         71.3427864        0.223183409         71.3756783        0.973616611        -18.4414297
               556       0.973819501        -18.3905768        0.223828741         71.3111048        0.223571197         71.3431844        0.973586267         -18.474736
               557       0.973695854        -18.4255077        0.224216445         71.2794232        0.223958455         71.3106905        0.973553732        -18.5080422
               558        0.97356995        -18.4604387        0.224603601         71.2477417        0.224345166         71.2781966        0.973518933        -18.5413485
               559        0.97345859        -18.4946429        0.224997565         71.2146429        0.224729254         71.2471429         0.97345859        -18.5742857
               560       0.973367819        -18.5279221        0.225400758         71.1797403        0.225110568         71.2179221        0.973367819        -18.6067532
               561       0.973276752        -18.5612013        0.225803963         71.1448377        0.225491889         71.1887013        0.973276752        -18.6392208
               562       0.973185388        -18.5944805        0.226207178         71.1099351        0.225873215         71.1594805        0.973185388        -18.6716883
               563       0.973060573        -18.6277597        0.226602681         71.0750325        0.226246839         71.1302597        0.973060573        -18.7041558
               564       0.972878768         -18.661039        0.226984938         71.0401299        0.226607236          71.101039        0.972878768        -18.7366234
               565       0.972696963        -18.6943182        0.227367195         71.0052273        0.226967633         71.0718182        0.972696963        -18.7690909
               566       0.972515158        -18.7275974        0.227749451         70.9703247        0.227328029         71.0425974        0.972515158        -18.8015584
               567       0.972333354        -18.7608766        0.228131708         70.9354221        0.227688426         71.0133766        0.972333354         -18.834026
               568       0.972151549        -18.7941558        0.228513965         70.9005195        0.228048823         70.9841558        0.972151549        -18.8664935
               569       0.971969744        -18.8274351        0.228896222         70.8656169        0.228409219         70.9549351        0.971969744         -18.898961
               570        0.97178794        -18.8607143        0.229278479         70.8307143        0.228769616         70.9257143         0.97178794        -18.9314286
               571       0.971617053        -18.8934119        0.229661734         70.7961007        0.229133527         70.8962957        0.971617053        -18.9640942
               572       0.971526234         -18.921844        0.230052312         70.7636068        0.229523207         70.8654265        0.971526234        -18.9982128
               573       0.971435415        -18.9502762         0.23044289         70.7311129        0.229912886         70.8345573        0.971435415        -19.0323314
               574       0.971344596        -18.9787084        0.230833469          70.698619        0.230302566         70.8036881        0.971344596          -19.06645
               575       0.971253776        -19.0071405        0.231224047         70.6661251        0.230692246         70.7728188        0.971253776        -19.1005686
               576       0.971162957        -19.0355727        0.231614625         70.6336312        0.231081926         70.7419496        0.971162957        -19.1346872
               577       0.971072138        -19.0640049        0.232005203         70.6011373        0.231471606         70.7110804        0.971072138        -19.1688058
               578       0.970981319         -19.092437        0.232395781         70.5686434        0.231861286         70.6802112        0.970981319        -19.2029245
               579         0.9708905        -19.1208692        0.232786359         70.5361495        0.232250965          70.649342          0.9708905        -19.2370431
               580        0.97079968        -19.1493014        0.233176937         70.5036556        0.232640645         70.6184728         0.97079968        -19.2711617
               581       0.970708861        -19.1777335        0.233567515         70.4711617        0.233030325         70.5876036        0.970708861        -19.3052803
               582       0.970618042        -19.2061657        0.233958094         70.4386677        0.233420005         70.5567344        0.970618042        -19.3393989
               583       0.970527223        -19.2345979        0.234348672         70.4061738        0.233809685         70.5258652        0.970527223        -19.3735175
               584       0.970436488        -19.2669781        0.234727754         70.3776279        0.234187895         70.4923639        0.970363094        -19.4036881
               585       0.970345774        -19.3002843         0.23510414         70.3500081        0.234563416         70.4582453        0.970181769        -19.4329326
               586       0.970255059        -19.3335906        0.235480526         70.3223883        0.234938936         70.4241267        0.970000444        -19.4621771
               587       0.970164344        -19.3668968        0.235856912         70.2947685        0.235314456         70.3900081        0.969819119        -19.4914216
               588        0.97007363        -19.4002031        0.236233298         70.2671487        0.235689977         70.3558895        0.969637794        -19.5206661
               589       0.969982915        -19.4335093        0.236609684         70.2395288        0.236065497         70.3217709        0.969456469        -19.5499106
               590         0.9698922        -19.4668156         0.23698607          70.211909        0.236441018         70.2876523        0.969275144        -19.5791552
               591       0.969801485        -19.5001219        0.237362456         70.1842892        0.236816538         70.2535337        0.969093819        -19.6083997
               592       0.969710771        -19.5334281        0.237738842         70.1566694        0.237192058         70.2194151        0.968912494        -19.6376442
               593       0.969620056        -19.5667344        0.238115228         70.1290496        0.237567579         70.1852965        0.968731169        -19.6668887
               594       0.969529341        -19.6000406        0.238491614         70.1014297        0.237943099         70.1511779        0.968549844        -19.6961332
               595       0.969438627        -19.6333469        0.238868001         70.0738099        0.238318619         70.1170593        0.968368519        -19.7253777
               596       0.969347964         -19.668684        0.239259513         70.0421284        0.238697851         70.0792851        0.968187402        -19.7582778
               597       0.969257354         -19.706052         0.23966615         70.0063851        0.239080793         70.0378554        0.968006494        -19.7948335
               598       0.969166744          -19.74342        0.240072788         69.9706418        0.239463736         69.9964257        0.967825586        -19.8313891
               599       0.969076133         -19.780788        0.240479426         69.9348985        0.239846678         69.9549959        0.967644678        -19.8679448
               600       0.968985523         -19.818156        0.240886064         69.8991552         0.24022962         69.9135662         0.96746377        -19.9045004
               601       0.968894913         -19.855524        0.241292702         69.8634119        0.240612563         69.8721365        0.967282862        -19.9410561
               602       0.968804302         -19.892892         0.24169934         69.8276686        0.240995505         69.8307067        0.967101954        -19.9776117
               603       0.968713692          -19.93026        0.242105978         69.7919253        0.241378448          69.789277        0.966921046        -20.0141673
               604       0.968623082        -19.9676279        0.242512616          69.756182         0.24176139         69.7478473        0.966740138         -20.050723
               605       0.968532471        -20.0049959        0.242919254         69.7204387        0.242144333         69.7064175         0.96655923        -20.0872786
               606       0.968441861        -20.0423639        0.243325892         69.6846954        0.242527275         69.6649878        0.966378322        -20.1238343
               607       0.968351251        -20.0797319         0.24373253         69.6489521        0.242910218         69.6235581        0.966197414        -20.1603899
               608       0.968243512        -20.1157062        0.244131884         69.6133685        0.243294538         69.5841396        0.966033736        -20.1967857
               609       0.968062751        -20.1457386        0.244500183         69.5784659        0.243684732         69.5532955        0.965943512           -20.2325
               610       0.967881989        -20.1757711        0.244868483         69.5435633        0.244074926         69.5224513        0.965853287        -20.2682143
               611       0.967701228        -20.2058036        0.245236782         69.5086607         0.24446512         69.4916071        0.965763062        -20.3039286
               612       0.967520467         -20.235836        0.245605082         69.4737581        0.244855315          69.460763        0.965672838        -20.3396429
