!{501R14S2R7}
!Johanson Technology Inc.
!www.johansontechnology.com
!Test Board Conditions:
!Substrate Type  RO4350B
!Substrate Thickness        20 mil
!Substrate Dk      3.66
!TL Type: GCPW 
!TL Trace Width  36 mil
!TL Gap  12 mil
!Electrode orientation      Horizontal
!DUT TOPOLOGY	SERIES
!Mounting Pad LxW         26x36 mil
! Created Wed Mar 11 15:58:18 2020
# mhz S ma R 50
! 2 Port Network Data from SP1.SP block
! freq  magS11  angS11  magS21  angS21  magS12  angS12  magS22  angS22  
!     
               500       0.783790509             -43.01        0.615460237             46.532         0.61595644             46.559        0.782888656            -43.142
               501       0.783339452            -43.081        0.615531099             46.424        0.617163168             46.511        0.782348042            -43.232
               502       0.782962407            -43.127        0.616866109             46.393        0.618145782             46.458        0.781971474            -43.284
               503       0.781627805            -43.254        0.617092119             46.268        0.617660744             46.321        0.780009694            -43.396
               504       0.781357887            -43.283        0.618301073             46.226         0.61929846              46.31        0.780638561            -43.432
               505       0.780279146            -43.344        0.618870811             46.186        0.619797757             46.248        0.780189318            -43.488
               506       0.779740334            -43.355        0.619227165             46.113        0.620797558              46.22        0.778843142            -43.541
               507       0.779471068            -43.508        0.620368874             46.053        0.621942163             46.098        0.778574185            -43.613
               508       0.778574185            -43.524        0.621083512             45.982        0.622443592             46.062        0.777946981            -43.686
               509       0.778126131            -43.616        0.621512689              45.91        0.623232367             45.942        0.776783514            -43.782
               510       0.777678334            -43.632        0.622730303             45.871        0.624237709             45.941        0.777320283            -43.839
               511       0.776515269            -43.771        0.623663029             45.743        0.624309581             45.841        0.775264683            -43.907
               512       0.776604674            -43.764        0.624165845             45.736        0.626036998             45.791        0.775621787             -43.96
               513       0.775353943             -43.89        0.625172693             45.592        0.626181165             45.681        0.774729334             -44.07
               514       0.774461798            -43.958        0.625532675              45.54        0.626613865             45.633        0.773927003            -44.141
               515       0.774194354            -44.021         0.62668601             45.497        0.627841473             45.561        0.773214518            -44.186
               516       0.773927003            -44.046        0.627624661             45.446        0.628564718              45.57        0.772858522            -44.209
               517       0.772947506            -44.156        0.627552407             45.347        0.629506183              45.42        0.772147021            -44.349
               518       0.772324834            -44.229        0.629071486             45.283        0.630376479             45.325        0.771436174             -44.41
               519       0.771169776            -44.264        0.629143914             45.209        0.630666845             45.322        0.770903469            -44.449
               520       0.770903469            -44.362        0.630376479              45.18        0.631466041             45.225        0.770725982            -44.501
               521       0.770725982            -44.392        0.631175307             45.148        0.632630316             45.191        0.770282445            -44.566
               522       0.769927798            -44.479        0.631975148             45.035        0.632848857             45.106         0.76913044            -44.646
               523        0.76948472            -44.539        0.632848857             44.951        0.633577871             45.066        0.767980159             -44.69
               524        0.76913044            -44.593        0.633942692             44.877        0.634526844             45.025        0.767626572            -44.755
               525       0.768599327            -44.716        0.634380756             44.839        0.635550405             44.878        0.767361489            -44.824
               526        0.76835993            -44.769        0.635352449             44.834        0.636670472             44.833        0.766945862            -44.873
               527       0.767538201            -44.767        0.635843154             44.747        0.636868839             44.791        0.765596607            -44.942
               528       0.766390301            -44.845         0.63664891             44.612        0.637455687             44.738        0.765244118            -45.057
               529       0.764891791            -44.978          0.6370155              44.54        0.638483973             44.643        0.764627652            -45.104
               530       0.764539626            -45.006        0.638410469             44.469        0.638557485             44.562        0.764539626            -45.239
               531       0.764099649            -45.073        0.638704535             44.505        0.639661188             44.507         0.76357201            -45.203
               532        0.76357201            -45.112        0.639513917             44.389        0.640840573             44.476        0.762781234            -45.309
               533       0.763044735            -45.239        0.640693031              44.28         0.64106195             44.362        0.762254505            -45.428
               534       0.762956891            -45.278        0.641431081             44.247        0.642022133             44.301        0.761991277            -45.426
               535       0.761640448            -45.353        0.641652661             44.184        0.642909732             44.283        0.761026886            -45.526
               536       0.761465094            -45.437        0.642317863             44.117        0.643428065              44.18        0.759888724            -45.547
               537       0.760326277            -45.467        0.643353992             44.051        0.644169266              44.12        0.759189163            -45.658
               538       0.760326277            -45.509        0.643576237             43.977        0.645059833             44.065        0.758752264            -45.719
               539       0.759189163            -45.642        0.644391792             43.932        0.645802914             43.983        0.758228318            -45.778
               540       0.758490246            -45.717        0.645654229             43.808        0.646770198             43.895        0.757268688            -45.891
               541       0.758490246             -45.75        0.645951632             43.799        0.648111907              43.84        0.757443076            -45.921
               542       0.757879221            -45.824        0.647217125             43.687        0.648186527             43.759        0.756832895            -46.004
               543       0.757355877            -45.819        0.648111907             43.611        0.648559761             43.797        0.755701005            -46.075
               544       0.756223205            -45.923        0.648186527             43.609        0.649605959             43.693        0.755266114            -46.073
               545       0.755875032            -45.951        0.649755553             43.579         0.65012969             43.706        0.755353072            -46.125
               546       0.755179166            -46.061         0.64998001             43.515        0.650578939             43.523        0.753876143            -46.186
               547       0.754397082            -46.154        0.650578939             43.371        0.651778454             43.464        0.753355564            -46.328
               548       0.754136568             -46.17        0.651478368             43.345        0.652754689             43.403        0.753095409            -46.383
               549       0.753442302            -46.216        0.652303937             43.293        0.653130553             43.363        0.752315483            -46.454
               550       0.752748675            -46.311        0.652829844             43.172        0.653732385             43.261        0.751363337            -46.539
               551        0.75188254            -46.361        0.654108812             43.157        0.653958215             43.265        0.751276839            -46.545
               552       0.751276839             -46.43        0.654184124             43.083        0.655390286             43.192        0.750585206            -46.647
               553       0.751363337            -46.549        0.654937715             42.988        0.656447502             43.054         0.74980788              -46.7
               554       0.750153258            -46.573         0.65584317             42.968        0.656825492             43.015        0.749290109            -46.737
               555        0.74937638            -46.625        0.656220812             42.897        0.657128041             42.976        0.748255642            -46.823
               556       0.749203849            -46.747        0.657355044             42.787        0.658188061              42.85        0.747825035            -46.937
               557       0.747911137            -46.785        0.657506423              42.71        0.658870404             42.874        0.747480728            -46.951
               558       0.747911137            -46.829        0.658339631             42.688        0.659705341             42.787         0.74679259            -47.018
               559       0.747050568            -46.937         0.65924979             42.641        0.660313232              42.68        0.745933308             -47.07
               560       0.746878573            -46.961        0.660617387              42.56        0.660693448              42.67        0.745075015             -47.14
               561        0.74576157            -47.024        0.660845596             42.496         0.66206404             42.635        0.745332399            -47.226
               562       0.745675716            -47.079        0.661302249             42.449        0.662903024             42.533        0.744731974            -47.261
               563       0.744560513             -47.12        0.662216504             42.365        0.663132022             42.501        0.743532575            -47.322
               564        0.74396071            -47.231        0.662674105             42.317         0.66389592             42.409        0.743190244            -47.362
               565       0.743875063            -47.255        0.663819491             42.257        0.664584182             42.324        0.742078758            -47.458
               566       0.742591545            -47.335        0.663972359             42.166         0.66481376             42.271        0.741480954            -47.527
               567       0.741993328            -47.444        0.664584182             42.111        0.665502973             42.199        0.740798339            -47.584
               568       0.741310241            -47.488        0.665809519              42.09        0.666423035             42.087        0.740713057            -47.652
               569       0.740968934            -47.545        0.666346314             41.985        0.666883543             42.095        0.739775595            -47.707
               570        0.73969043            -47.601        0.666806769             41.902        0.667498048             42.016        0.738924387            -47.808
               571       0.739434994            -47.666        0.667959299             41.846        0.668343918             41.945        0.738754263            -47.868
               572       0.738924387            -47.753        0.668497827             41.775        0.669344964             41.845        0.737819281            -47.925
               573       0.738329124            -47.784        0.668651772             41.709        0.669807491             41.849        0.737140037            -47.956
               574        0.73739468            -47.858        0.669730381             41.701        0.670347509             41.744        0.736885482            -48.056
               575       0.737224908             -47.92        0.670038874             41.611        0.671428853             41.662         0.73586814            -48.103
               576       0.736461418             -47.97        0.671042459             41.547        0.672124923              41.62        0.735783425            -48.178
               577        0.73586814            -48.004        0.672124923             41.524        0.672589371             41.551        0.735106055            -48.231
               578       0.735106055             -48.11        0.672279704             41.403        0.673364164             41.481        0.734429309            -48.275
               579       0.734429309            -48.164        0.672589371             41.352        0.673829468             41.367        0.733922158            -48.386
               580       0.734006659            -48.194         0.67351923             41.287         0.67413985              41.38        0.732571468            -48.453
               581       0.733922158            -48.283        0.674217468             41.214        0.675616115             41.328        0.732149888            -48.501
               582       0.732318491            -48.319        0.675227311             41.181        0.675693903             41.251        0.731728549            -48.568
               583       0.731897056            -48.411        0.675616115              41.12        0.676472272             41.172        0.730886601            -48.603
               584       0.731475863            -48.464        0.676160817             40.993        0.676783871             41.126         0.73046599            -48.694
               585       0.730550092             -48.49        0.676472272             41.027        0.677407499             41.053        0.729709499            -48.736
               586       0.730634205            -48.602        0.677953645             40.942        0.678734617             40.984        0.729625493            -48.798
               587       0.729793515            -48.665         0.67889092             40.876        0.678812764             40.925        0.728785964            -48.866
               588        0.72912166             -48.69        0.679516489             40.796        0.679125441             40.893        0.727612246            -48.909
               589       0.728450423              -48.8        0.679986045             40.726        0.680142636             40.791        0.727612246             -49.01
               590       0.727612246            -48.819        0.680455925             40.667        0.681004529             40.795        0.726942399             -49.01
               591       0.726942399            -48.899         0.68084774             40.626        0.681475112             40.704        0.725855213            -49.109
               592       0.726691366            -48.933        0.681710526             40.582        0.681396659              40.64        0.725186983            -49.134
               593       0.725103498            -48.985        0.681867514             40.461        0.682652995             40.536        0.724686215            -49.251
               594       0.725688098            -49.006        0.683046075              40.45        0.683439381             40.536        0.724269172            -49.269
               595       0.724269172            -49.091        0.683911647             40.349        0.683832914             40.439        0.723685715            -49.369
               596       0.723852369            -49.106        0.684620659              40.35         0.68438424             40.454        0.723685715            -49.386
               597       0.723019483            -49.207        0.684778317             40.264        0.685014871             40.359        0.722104414            -49.455
               598       0.721938163             -49.27        0.685409311             40.231        0.685646084             40.281        0.721522702            -49.501
               599       0.721855052             -49.39        0.686277878             40.124        0.686910255             40.177        0.721439638            -49.583
               600       0.721356584            -49.446        0.686673045             40.076        0.687147546             40.166        0.720692496            -49.637
               601        0.72085846            -49.486        0.687147546             39.975        0.688493747             40.092        0.720277751            -49.741
               602       0.721024463            -49.526        0.688414485             39.937         0.68889019             40.035        0.719531812            -49.796
               603       0.719366153            -49.644        0.689128165             39.898        0.689366222             39.933        0.719200532            -49.872
               604       0.719531812            -49.677        0.689286861             39.843        0.690637252             39.898        0.718538429            -49.941
               605       0.718290297            -49.762        0.689842584             39.722        0.690080889             39.805        0.716968376            -49.998
               606       0.717794291            -49.756        0.690001445             39.725        0.690955376             39.751        0.716225864            -50.014
               607       0.717381215            -49.841        0.691432836             39.664        0.691671689             39.719        0.716555774            -50.066
               608       0.716308327            -49.906        0.692149644              39.62        0.692149644             39.673        0.716308327            -50.085
               609       0.716060966            -49.909        0.692229335             39.575        0.693186347              39.64        0.715401753            -50.168
               610       0.715319394            -50.031        0.693106545             39.482        0.693665348             39.537         0.71457859            -50.277
               611       0.714331826            -50.092        0.693585492             39.433        0.693984866             39.464        0.713920742            -50.317
               612        0.71424959            -50.149        0.694944305              39.35         0.69510434             39.427        0.713674205            -50.373
