!{501R14S3R0}
!Johanson Technology Inc.
!www.johansontechnology.com
!Test Board Conditions:
!Substrate Type  RO4350B
!Substrate Thickness        20 mil
!Substrate Dk      3.66
!TL Type: GCPW 
!TL Trace Width  36 mil
!TL Gap  12 mil
!Electrode orientation      Horizontal
!DUT TOPOLOGY	SERIES
!Mounting Pad LxW         26x36 mil
! Created Wed Mar 11 15:58:49 2020
# mhz S ma R 50
! 2 Port Network Data from SP1.SP block
! freq  magS11  angS11  magS21  angS21  magS12  angS12  magS22  angS22  
!     
               500       0.751103871            -45.805        0.652980181             43.689        0.653958215             43.724        0.749980549            -45.889
               501       0.750498796            -45.895        0.653807653              43.67        0.654711546              43.65        0.749290109            -45.955
               502       0.750153258            -45.934        0.654560811             43.536        0.655994201             43.584        0.748772697            -46.034
               503       0.749117599            -46.013        0.655465745             43.492        0.656598672             43.523        0.748600305            -46.122
               504       0.748083369            -46.102        0.656296367             43.405        0.656901116             43.418        0.746706617            -46.216
               505       0.747911137            -46.126        0.656901116              43.36        0.657885024             43.422        0.746620654            -46.246
               506       0.746878573            -46.236        0.657355044             43.223        0.658642878             43.325        0.745589872            -46.336
               507       0.746706617            -46.287         0.65841543             43.235        0.659553455             43.224        0.745332399             -46.38
               508       0.745675716            -46.405        0.658870404             43.073        0.660541335             43.203        0.744560513            -46.452
               509       0.744731974            -46.425        0.660085207             43.022        0.660541335             43.101        0.743618182            -46.548
               510       0.744474797            -46.485        0.660465292             43.032        0.661987822             43.008        0.743190244            -46.632
               511       0.744046366            -46.546        0.661911612             42.939        0.662140268             43.013        0.743275812            -46.646
               512       0.743446977             -46.64        0.662979348             42.859        0.663437476             42.887        0.742335107            -46.765
               513       0.742078758            -46.725        0.662979348             42.733        0.663590256             42.883        0.741310241            -46.801
               514       0.741822497            -46.756        0.664048806             42.673        0.664431173             42.809        0.740542521            -46.869
               515       0.741054246            -46.825        0.664584182             42.617        0.665502973             42.722        0.739434994            -46.937
               516        0.73986077            -46.949        0.665043419              42.58        0.665886178             42.636        0.739349869            -46.977
               517        0.73969043            -46.974        0.665962845             42.515        0.667267542             42.611        0.738669216            -47.081
               518       0.738754263            -47.061        0.666730005             42.393        0.667882401             42.497        0.737649411             -47.15
               519       0.738159137             -47.11        0.667267542              42.36        0.668574795             42.463        0.736970324            -47.224
               520       0.737309789            -47.178        0.668420868             42.328        0.669267907             42.378        0.736885482            -47.272
               521       0.736122343            -47.266        0.668805753              42.22        0.669730381             42.299        0.735614024            -47.388
               522       0.735275339            -47.337        0.669422029             42.152        0.670270337             42.191        0.735444662            -47.424
               523       0.735444662            -47.364         0.67050188             42.172        0.670733503             42.192         0.73434476            -47.449
               524       0.734513868            -47.434        0.671042459             42.043         0.67181547             42.135        0.733753186            -47.526
               525        0.73409117            -47.491        0.672047547             41.986         0.67266681             42.041        0.733246502            -47.608
               526       0.733584253            -47.564        0.672202309             41.912         0.67305414             41.967        0.732234184            -47.679
               527       0.732993292             -47.67        0.672899181             41.841        0.674450374             41.893        0.731644311            -47.748
               528       0.732402807            -47.711         0.67437273             41.754        0.674994136             41.861        0.731475863            -47.846
               529       0.731728549            -47.792        0.674994136             41.707        0.676160817             41.784        0.730550092            -47.903
               530       0.730802459            -47.893        0.675616115             41.641        0.676783871             41.685        0.729961576            -47.943
               531       0.729961576            -47.941        0.675693903             41.571        0.677095613             41.605        0.728618175            -48.028
               532       0.729625493            -48.014        0.677251538              41.52        0.678578351             41.609         0.72945751            -48.087
               533       0.728785964            -48.025        0.677485493             41.459        0.678578351             41.565        0.727444727            -48.126
               534       0.728115037            -48.176        0.678812764             41.361        0.678969085             41.447        0.727277246            -48.212
               535       0.727109803            -48.161        0.679047258             41.327        0.680377589             41.398        0.727444727            -48.282
               536       0.726356789            -48.222         0.67982949             41.283        0.680064336             41.381        0.726189558            -48.344
               537       0.726775034            -48.317        0.680769359             41.192        0.682024538             41.296        0.725103498            -48.409
               538       0.725521021            -48.395        0.681946021              41.12        0.682024538              41.23         0.72443596            -48.458
               539       0.724936556            -48.458        0.681946021             41.012        0.683046075              41.15        0.723602402            -48.556
               540       0.724686215            -48.539        0.683675473                 41        0.683832914             41.087        0.723519099            -48.619
               541       0.723185983            -48.582        0.683439381             40.914        0.684305452             41.019        0.722187555            -48.704
               542        0.72285302            -48.623        0.684620659              40.87        0.684936011             40.948        0.722021284            -48.757
               543       0.722270704            -48.758        0.685014871              40.79        0.685725027             40.854        0.720941457            -48.841
               544       0.721439638            -48.819        0.685330405             40.718        0.686831176             40.825        0.720360681            -48.887
               545        0.72085846             -48.85        0.686198872             40.651         0.68738492             40.745         0.72011192            -48.932
               546       0.720360681            -48.908        0.687305786              40.62         0.68793911             40.692        0.719034949            -49.016
               547       0.719117736            -48.988        0.687305786             40.547        0.688414485             40.609        0.718621158             -49.09
               548       0.718952172            -49.066        0.688652296              40.46         0.68968376             40.541        0.718042251             -49.16
               549       0.718207606            -49.104        0.688731585             40.438        0.689763168             40.476        0.717050924            -49.186
               550       0.718290297            -49.214         0.68992201             40.314        0.690796296             40.398         0.71614341            -49.316
               551        0.71721605            -49.228        0.690398756             40.306        0.691512444             40.319        0.715896106            -49.364
               552       0.715978531            -49.307        0.691353236             40.183        0.691830971             40.281        0.714660864            -49.448
               553       0.715731284             -49.41        0.692229335             40.158        0.692707676             40.217        0.714414071            -49.478
               554        0.71482544            -49.437        0.692229335             40.105        0.693345977             40.167        0.713920742            -49.545
               555        0.71400294            -49.495        0.693345977             39.995         0.69446442             40.104        0.713427753            -49.626
               556       0.714085147            -49.582        0.693745214             40.003        0.695264412             40.028        0.712688909            -49.685
               557       0.712935105            -49.658        0.694624345              39.86         0.69574485             39.987        0.711786915            -49.755
               558       0.712524825            -49.698        0.695264412             39.831        0.696065326             39.938        0.710804224            -49.784
               559       0.711950829            -49.772        0.696145468             39.749        0.697348707             39.862        0.710558763            -49.889
               560       0.710640574            -49.839        0.696786937             39.703        0.697268426             39.759        0.709904616            -49.944
               561       0.710313387            -49.925        0.697830585             39.633        0.697830585             39.739         0.70916942            -49.989
               562       0.709577768              -49.9        0.697991285             39.582        0.698714893              39.67        0.708679712            -50.067
               563        0.70884291            -50.016        0.699036737             39.482         0.69968087             39.642        0.708353428            -50.128
               564       0.708353428            -50.068        0.699600321             39.455        0.699922573             39.561        0.707131201            -50.189
               565       0.707375477            -50.177        0.700486871             39.347        0.700809532             39.478         0.70672426            -50.245
               566       0.707538375            -50.191        0.701051624             39.345         0.70210166              39.39        0.706073643            -50.352
               567        0.70672426            -50.265        0.701536061             39.251        0.702667715              39.34         0.70509884            -50.368
               568       0.705748559            -50.304        0.702505939              39.19        0.702667715             39.291        0.704774204            -50.463
               569       0.705180022            -50.404         0.70299138             39.113        0.704044321             39.245        0.704530826            -50.513
               570       0.704287532            -50.434        0.703558153             39.059        0.704449719             39.167        0.703882228            -50.573
               571       0.703558153            -50.534        0.704206452             39.018         0.70509884             39.063        0.703153269            -50.641
               572       0.703396171             -50.55        0.705180022             38.964        0.705423624              39.05        0.702344199            -50.703
               573        0.70291045             -50.67        0.705748559             38.831         0.70672426             38.974        0.701697614            -50.783
               574       0.702020832            -50.707        0.706154937             38.768        0.707782793             38.846        0.700809532            -50.896
               575       0.701374545            -50.786        0.707294042             38.737        0.707619838             38.809        0.700406229            -50.913
               576       0.700567522            -50.843        0.707782793             38.641        0.707945784             38.749        0.699841996            -51.025
               577       0.700083755            -50.887        0.708434985             38.574        0.709332731             38.703        0.699197714            -51.069
               578       0.699036737            -50.954        0.709087778             38.552        0.709251071             38.601        0.698393197            -51.143
               579       0.698232404            -51.001        0.708924524             38.519        0.709741173             38.599        0.697348707            -51.123
               580       0.697991285            -51.054        0.710722394             38.422        0.710967912               38.5        0.697268426            -51.236
               581       0.696867162            -51.136        0.710558763             38.339        0.711377295             38.434        0.695985193            -51.321
               582       0.696626514            -51.178          0.7112954             38.289        0.711868867             38.351        0.695664754             -51.38
               583       0.696065326            -51.243        0.711786915             38.247        0.712770965             38.307        0.695024318            -51.395
               584       0.695024318            -51.308        0.711950829             38.168         0.71301719             38.281        0.693904973            -51.455
               585       0.694224602            -51.385        0.713099283             38.087        0.713838554             38.229        0.693984866            -51.536
               586       0.693425806            -51.428        0.713345622             38.074         0.71424959             38.126        0.693026753            -51.576
               587       0.693026753            -51.475        0.714331826             37.989        0.715237045             38.073        0.692548192            -51.666
               588       0.692229335            -51.505        0.715154705             37.908        0.714990053             38.051        0.691512444            -51.701
               589       0.692229335            -51.644         0.71581369             37.809         0.71614341             37.941        0.690796296            -51.812
               590       0.691034929             -51.67         0.71614341             37.768        0.716638275             37.899        0.690239804            -51.861
               591       0.690398756            -51.756          0.7163908             37.728        0.717133483             37.803        0.689128165            -51.886
               592       0.689763168            -51.773         0.71721605             37.649        0.717463811             37.785         0.68889019            -51.952
               593       0.689763168            -51.885        0.718455709             37.579        0.719448978             37.665        0.688810883            -52.056
               594        0.68889019            -51.954        0.719034949             37.535        0.719614656             37.631        0.687780724            -52.085
               595       0.687859912            -51.949        0.719448978             37.479        0.720029019             37.536        0.687147546            -52.176
               596       0.686910255            -52.048        0.720194831              37.42        0.719863245             37.522        0.686593994            -52.203
               597       0.685961909            -52.105        0.720029019             37.328        0.720941457             37.411        0.685567151            -52.286
               598       0.685725027             -52.18        0.721190505              37.29        0.721688857             37.358         0.68517262            -52.338
               599       0.685330405            -52.228        0.721938163             37.205        0.722437032             37.309        0.684699483            -52.443
               600       0.684463037            -52.286        0.722769804             37.168        0.722769804             37.237         0.68399039            -52.479
               601       0.683754189            -52.328        0.722936247             37.098        0.723852369             37.237        0.683518069            -52.483
               602       0.683046075            -52.373        0.723769037             37.047        0.723769037             37.116        0.682417256            -52.554
               603       0.682888816            -52.426        0.724352561             37.052        0.724602787             37.084        0.682024538            -52.588
               604       0.682260142             -52.51        0.725020022             36.933        0.725353983             37.021        0.681318215             -52.69
               605       0.681553575            -52.587        0.725521021             36.826         0.72577165             36.969        0.680455925            -52.771
               606        0.68053427             -52.59        0.726022366             36.825        0.726356789              36.92        0.680299262            -52.824
               607       0.679672972            -52.653        0.725855213             36.731        0.727026096             36.881        0.679281833            -52.846
               608       0.679125441            -52.724        0.727109803             36.683        0.727612246             36.785        0.678969085            -52.961
               609        0.67889092            -52.815        0.727863598             36.576        0.727947401             36.725        0.678109767            -53.006
               610       0.678109767            -52.882        0.727947401             36.535        0.728618175              36.62        0.677329514            -53.067
               611       0.677719528            -52.914        0.728702065             36.572        0.729373533             36.578        0.676394395            -53.063
               612       0.676316527            -53.048         0.72912166             36.458        0.729877541              36.46        0.675849505            -53.188
