!{501R14S1R6}
!Johanson Technology Inc.
!www.johansontechnology.com
!Test Board Conditions:
!Substrate Type  RO4350B
!Substrate Thickness        20 mil
!Substrate Dk      3.66
!TL Type: GCPW 
!TL Trace Width  36 mil
!TL Gap  12 mil
!Electrode orientation      Horizontal
!DUT TOPOLOGY	SERIES
!Mounting Pad LxW         26x36 mil
! Created Wed Mar 11 15:55:52 2020
# mhz S ma R 50
! 2 Port Network Data from SP1.SP block
! freq  magS11  angS11  magS21  angS21  magS12  angS12  magS22  angS22  
!     
               500        0.90489338            -29.195        0.419563221             60.335         0.42072412             60.483        0.904997565            -29.324
               501       0.904714863            -29.258        0.420495861             60.361        0.421610798             60.369         0.90440244             -29.36
               502       0.904493067            -29.308        0.421022438             60.254        0.422041582             60.306        0.903764425            -29.426
               503       0.904111407            -29.358        0.421426604             60.163        0.422884677             60.257        0.903487085            -29.521
               504       0.904208804            -29.379        0.422589528              60.13        0.423319945             60.235        0.902440819            -29.545
               505       0.903924023            -29.497        0.423284074             60.134        0.424113336             60.138        0.902779999            -29.602
               506       0.902987097            -29.548        0.424112961             60.053        0.424943847             60.103        0.902987097            -29.652
               507       0.903171657            -29.602        0.424590527             59.975        0.425912416             60.059        0.901820909            -29.728
               508       0.902307469            -29.615         0.42530898             59.948        0.426682226             60.042        0.902307469            -29.777
               509       0.902364186            -29.746        0.426070877             59.879        0.427495798             59.897         0.90153346             -29.88
               510       0.901893751            -29.722        0.426830434             59.847        0.428011441              59.95        0.901582302            -29.887
               511       0.901576712            -29.826        0.427663992             59.795         0.42855117             59.872        0.901265372            -29.905
               512       0.901324924            -29.846        0.428283537             59.712        0.429221414             59.836        0.900806229            -29.996
               513       0.900972446            -29.868        0.429152364               59.7        0.429894124               59.8        0.900453954            -30.021
               514       0.900677593            -29.962        0.429605031             59.612        0.430843315             59.703        0.899744827            -30.094
               515       0.900557524            -30.031        0.429993073             59.572        0.431530463             59.636        0.899107166            -30.133
               516       0.900014675            -30.067         0.43127034             59.502        0.431966026             59.591        0.899082596            -30.196
               517       0.899910751            -30.089        0.431916147             59.476        0.432812146             59.577        0.898564879             -30.25
               518       0.899285479            -30.203        0.432561219             59.377        0.433458557             59.468        0.898664489            -30.333
               519       0.898882163            -30.211        0.433114539             59.356        0.434462966             59.436        0.898261451            -30.389
               520       0.898472167            -30.325        0.434264799             59.297        0.435215774             59.371         0.89826531            -30.448
               521        0.89830604             -30.32        0.434634623             59.192        0.435536262             59.298        0.897169125            -30.524
               522       0.897991171             -30.38        0.435433729             59.193        0.436286793             59.263        0.896957916            -30.525
               523       0.897594882            -30.426        0.435943662              59.14        0.437200216              59.24         0.89697506            -30.602
               524       0.897315924            -30.492         0.43691341             59.129        0.437819776             59.178        0.896386639            -30.592
               525       0.896616933            -30.545        0.437579469             58.983        0.438386263             59.087        0.896513713            -30.763
               526        0.89582093            -30.589        0.438400666             58.996        0.438956218              59.04        0.896439955            -30.729
               527       0.896102738             -30.68        0.439043755             58.938        0.440005195             58.976        0.895587048            -30.804
               528       0.895753606            -30.718        0.439935051             58.911        0.440441837             58.925        0.895341191            -30.839
               529        0.89557642            -30.774        0.440354714             58.817        0.441471478             58.853        0.894648937            -30.958
               530       0.894845074            -30.857        0.441314149             58.699        0.442026037              58.81        0.894536058            -30.998
               531       0.895157533            -30.875        0.441925916             58.713        0.442485935             58.767         0.89351011            -31.025
               532        0.89473678            -30.928        0.442125222             58.656        0.443552765             58.697        0.892884513             -31.08
               533       0.893892902             -30.96        0.443236471             58.591        0.444104822             58.675        0.893481344            -31.142
               534       0.893336488             -31.04        0.444083946             58.511        0.444646699             58.619        0.893439343            -31.201
               535         0.8930948            -31.095        0.444475227             58.485        0.445705056             58.563        0.892786389            -31.227
               536       0.892969445            -31.134        0.445334764             58.399        0.446104494             58.506        0.892147368            -31.308
               537          0.892913            -31.169        0.445922253             58.393        0.446898756             58.464        0.891680247            -31.364
               538       0.891952444            -31.212        0.446520806              58.32        0.447653207             58.401         0.89184976            -31.423
               539       0.891684119            -31.293        0.447209512             58.293        0.448137237             58.351        0.891684119            -31.433
               540       0.891675311            -31.315         0.44808122             58.242        0.448804024             58.319        0.890751868            -31.481
               541        0.89135958            -31.389        0.448955128             58.177        0.449265362               58.2        0.890231457             -31.57
               542       0.891125622            -31.448         0.44935433             58.086        0.450182834             58.165        0.889588031            -31.635
               543       0.890442704            -31.473        0.449786048             58.046        0.450874818             58.126        0.889520538             -31.65
               544       0.890446775             -31.56        0.450721178             57.994        0.451760198             58.083        0.888910354            -31.723
               545       0.889476311            -31.631        0.451215891             57.904        0.452464371             58.013        0.889271525            -31.784
               546       0.889427633            -31.654        0.452127182             57.866        0.452856513             57.991        0.888915784            -31.843
               547       0.889233917            -31.729         0.45281001             57.819        0.453592661             57.871        0.887801796            -31.887
               548       0.888690421            -31.763        0.453419819             57.744         0.45430812               57.9        0.887872284            -31.909
               549       0.888141935              -31.8        0.454341468             57.727        0.455231574             57.794        0.887630827             -32.01
               550       0.887951746            -31.874         0.45466274             57.671         0.45586827             57.757        0.887236429            -32.031
               551       0.887310852            -31.944        0.455644144             57.586        0.456536803             57.665        0.887106565            -32.132
               552       0.886981235            -31.975        0.456104579             57.533        0.457208644             57.657        0.886777024            -32.159
               553       0.886823739             -32.01        0.457285373             57.502        0.457443341             57.597        0.886211355            -32.204
               554        0.88672321            -32.099        0.457865664              57.45        0.458234809             57.505        0.885600956            -32.274
               555       0.886180644            -32.182        0.458112624              57.36        0.459168683             57.407        0.885059076            -32.332
               556       0.885996915            -32.158        0.458545262             57.354         0.46023772             57.476        0.884671853            -32.354
               557       0.885118816            -32.202         0.45951699             57.275        0.460735391             57.384        0.884609448            -32.417
               558       0.885455415            -32.304        0.459903483             57.264        0.461388428             57.309        0.883520637            -32.432
               559       0.884823719            -32.334        0.460846991              57.22        0.462015724             57.279        0.883907372              -32.5
               560       0.883998364            -32.406        0.461744213             57.091        0.462595561             57.241        0.883998364            -32.579
               561       0.884034799            -32.422        0.462614628             57.084        0.463147539             57.202        0.883119269            -32.603
               562       0.883706515            -32.464        0.462975551             57.029        0.463722381             57.109        0.882689696            -32.682
               563        0.88338663            -32.532        0.463394444             56.945        0.464516155             57.089        0.882065472            -32.698
               564       0.882935772            -32.586        0.464225628             56.913        0.464974475             56.961         0.88202138            -32.807
               565       0.882922522            -32.603        0.464967497             56.918        0.465878421             56.966        0.881500565            -32.844
               566       0.882666014            -32.704        0.465528641             56.794        0.466655518              56.91        0.880838736            -32.921
               567       0.881902153            -32.749        0.466573859             56.757        0.466950025             56.832         0.88088741            -32.943
               568       0.881583117            -32.824        0.467265014              56.66        0.467857143             56.758        0.880163318            -33.031
               569       0.881031254            -32.839        0.467671942             56.656        0.468588164              56.73        0.880220168            -33.051
               570       0.881055031            -32.896        0.468438989              56.61        0.469194633              56.67        0.879332319            -33.111
               571       0.880761179            -32.957        0.468984149             56.572        0.470065269             56.631        0.879039041            -33.158
               572       0.879648362            -33.005        0.469579467             56.524        0.470824548              56.57        0.879344595            -33.175
               573       0.879554186            -33.062         0.47050322             56.435        0.471262193              56.53        0.878946821            -33.268
               574       0.879554585            -33.108        0.471153907              56.42         0.47191393             56.488        0.878441403            -33.316
               575       0.878820138            -33.155        0.471845698             56.367        0.472389244             56.435        0.878011087            -33.338
               576       0.878657257            -33.225        0.472791326             56.332        0.473009105             56.342        0.877848356            -33.416
               577       0.878011087            -33.245        0.473096789             56.265        0.473805393             56.333        0.877606841            -33.466
               578       0.878059491            -33.301         0.47394063             56.254        0.474431965             56.291        0.877352144            -33.507
               579       0.876900871            -33.358        0.474788839              56.19        0.474843504             56.218        0.877607854            -33.557
               580       0.877064568            -33.416        0.475260332             56.144        0.475753034             56.152        0.876559835            -33.595
               581       0.877101795            -33.422        0.475663689             56.094        0.476485841             56.146        0.875286036            -33.657
               582         0.8760862            -33.483        0.476866527             56.017        0.476976343             56.129        0.876388841            -33.721
               583       0.876092576            -33.599        0.477144586              55.95        0.477859253             55.988        0.875185271            -33.771
               584       0.875786383            -33.621        0.477802248             55.937        0.478462812             55.975        0.875080867            -33.795
               585        0.87573093            -33.685        0.478432517             55.862        0.479314634             55.924        0.874320556            -33.883
               586       0.875460641            -33.715        0.479221866              55.86        0.479829147             55.852        0.873849467            -33.927
               587       0.874580923            -33.794        0.479954425              55.73        0.480507311              55.78        0.873675184            -34.012
               588       0.874681619            -33.859         0.48028608             55.719        0.481393254             55.693        0.872971368            -34.077
               589       0.874120504            -33.835        0.481250626             55.737        0.482026936             55.748         0.87331578            -34.067
               590       0.873407335            -33.905        0.481800044             55.612        0.482632802             55.642        0.872804215            -34.154
               591       0.872886571            -33.973        0.482733915             55.577        0.483011879             55.608        0.872987071            -34.189
               592        0.87287087            -34.019        0.483503921             55.504        0.483503921             55.607        0.872067296            -34.235
               593       0.872888324            -34.058        0.484070575             55.474        0.484349309             55.541        0.871683217            -34.318
               594       0.872067296            -34.124        0.484674309             55.445        0.484841739             55.415        0.870662822            -34.344
               595        0.87197059              -34.2        0.485290553             55.375        0.485737728             55.369        0.870666505            -34.394
               596       0.871436667            -34.229        0.486055464             55.343        0.486615378             55.388        0.870734655            -34.418
               597       0.871289547            -34.289        0.486701297             55.267         0.48709369             55.285        0.870387216            -34.556
               598       0.870763066            -34.311        0.487135747             55.226        0.487640761             55.258        0.869961433            -34.571
               599       0.870362157            -34.338        0.487865379             55.159        0.488371149             55.239        0.869360693            -34.627
               600       0.870239524            -34.436        0.488583509             55.119        0.489146335              55.16        0.868837993            -34.655
               601        0.86976114            -34.483        0.489327924             55.065        0.489666057             55.121        0.868860392            -34.725
               602       0.869340207            -34.494        0.490105714             55.035        0.490387923             55.106        0.868539884            -34.757
               603        0.86902642            -34.584        0.491114752              54.98         0.49077562             54.999        0.868126433             -34.84
               604       0.868522528            -34.646        0.491508562               54.9        0.491565153             54.972        0.867722958            -34.853
               605       0.868344527            -34.695        0.491917272             54.865         0.49214386             54.878        0.867145693            -34.922
               606       0.867560959            -34.771        0.492889992             54.833        0.492776513              54.81        0.867061694            -34.991
               607       0.867061694            -34.804        0.493400971             54.754        0.493571415             54.827        0.867061694            -35.051
               608       0.867063627            -34.864        0.494141089             54.713        0.494141089             54.732        0.866664421            -35.109
               609       0.866639137            -34.929        0.494695885             54.633        0.494923753             54.692        0.866140403            -35.145
               610       0.866294219             -34.91        0.495581877             54.638        0.495638936             54.703        0.865995063            -35.195
               611       0.866130995                -35         0.49577381             54.555        0.496173517             54.585        0.865234007             -35.26
               612       0.865795806            -35.069        0.496495684             54.518        0.497124855             54.551        0.864700037            -35.283
