!{501R14S470}
!Johanson Technology Inc.
!www.johansontechnology.com
!Test Board Conditions:
!Substrate Type  RO4350B
!Substrate Thickness        20 mil
!Substrate Dk      3.66
!TL Type: GCPW 
!TL Trace Width  36 mil
!TL Gap  12 mil
!Electrode orientation      Horizontal
!DUT TOPOLOGY	SERIES
!Mounting Pad LxW         26x36 mil
! Created Wed Mar 11 16:08:07 2020
# mhz S ma R 50
! 2 Port Network Data from SP1.SP block
! freq  magS11  angS11  magS21  angS21  magS12  angS12  magS22  angS22  
!     
               500      0.0445656248            -90.127        0.998389489             -2.012        0.997240712             -2.052        0.044724964            -92.241
               501      0.0444119661            -90.106        0.996896336             -2.044        0.997929819             -2.039         0.04429452             -92.13
               502      0.0443251282            -89.883        0.996896336             -2.041        0.997240712             -2.055       0.0440402728             -92.22
               503      0.0439339246            -89.942        0.996781571             -2.057         0.99735553             -2.104        0.043721998            -92.441
               504      0.0436515832             -89.99        0.998159627             -2.157        0.997240712             -2.085       0.0436415332            -92.181
               505       0.043566232            -90.199        0.997929819             -2.154        0.997585206             -2.136       0.0435010761            -92.441
               506      0.0432613432            -90.233        0.997700064             -2.147        0.997585206             -2.193       0.0432016168            -92.225
               507      0.0431966433            -90.008        0.998389489             -2.156         0.99655208             -2.179       0.0429783759            -92.631
               508      0.0429585882            -90.089        0.998159627             -2.213        0.997240712             -2.211       0.0429932227            -92.517
               509      0.0428252592            -89.948        0.997585206             -2.244        0.998274551             -2.197       0.0426137742            -92.424
               510      0.0426874291            -90.156        0.997470361             -2.237        0.997585206             -2.264       0.0423886905            -92.544
               511      0.0424619564            -89.862        0.996896336             -2.249        0.997470361             -2.231       0.0422036488            -92.488
               512      0.0422863305            -89.957        0.997240712             -2.273         0.99735553             -2.263       0.0417301552            -92.585
               513      0.0422376746            -89.557        0.997700064             -2.245        0.997585206             -2.293       0.0419758984            -92.532
               514      0.0417253511            -89.828        0.997814935             -2.332        0.998274551             -2.333        0.041691738            -92.884
               515      0.0414715245            -90.248        0.997814935             -2.354        0.997470361             -2.331       0.0413666165            -92.408
               516      0.0413666165            -90.164        0.997700064             -2.336        0.997700064              -2.37       0.0412192419            -92.478
               517      0.0411149721            -90.245        0.998274551             -2.354        0.997700064             -2.396        0.040897805            -92.486
               518       0.040827238            -89.731        0.997929819             -2.396        0.997585206             -2.421       0.0409354906            -92.732
               519      0.0406536927            -90.137        0.997929819             -2.414        0.997814935             -2.425       0.0405742032            -92.577
               520      0.0405181866            -89.597        0.997700064             -2.479        0.997470361             -2.421       0.0401744556            -92.436
               521      0.0403227367              -89.6        0.997585206             -2.445        0.997470361             -2.461       0.0401467136            -92.835
               522      0.0401744556             -90.12        0.997585206             -2.487        0.997240712             -2.473       0.0400912872            -92.491
               523      0.0398382268            -90.319        0.996896336             -2.479        0.998274551             -2.557        0.039723728            -92.952
               524      0.0395867638            -90.114        0.997470361             -2.515        0.997814935              -2.53       0.0395822065            -92.545
               525      0.0396414927            -90.125         0.99735553             -2.521        0.998389489             -2.535       0.0393142505             -92.71
               526      0.0393051991            -90.044        0.997125907              -2.59        0.997470361             -2.568       0.0391246081            -92.795
               527      0.0391741877            -89.885        0.997011115             -2.577        0.998044717             -2.564       0.0390256369            -92.568
               528      0.0389493308            -90.082        0.997700064             -2.598        0.998619403             -2.618       0.0386055727            -92.677
               529      0.0387168486             -90.08        0.997470361             -2.627        0.998274551             -2.643       0.0383133388            -92.861
               530      0.0386589452            -89.802         0.99735553             -2.621        0.997585206             -2.652       0.0384547507            -92.825
               531      0.0380495916            -90.012        0.998159627             -2.678        0.997700064             -2.691        0.038286882            -92.883
               532        0.03822082            -90.087        0.998504439             -2.671        0.997585206             -2.671       0.0380846527            -93.068
               533       0.037796362            -89.812        0.997125907             -2.705        0.997585206             -2.731       0.0376053816             -92.86
               534      0.0378965784            -90.278        0.998389489             -2.719        0.998044717             -2.717       0.0375794137            -93.099
               535      0.0376573713            -90.027        0.997240712             -2.736         0.99735553             -2.738       0.0372477462            -92.922
               536       0.037458467            -89.307        0.997011115             -2.758        0.997470361             -2.795       0.0369360118            -92.821
               537        0.03707234            -90.158        0.997585206             -2.807        0.997125907             -2.795       0.0370808772            -92.597
               538      0.0371235928            -90.066        0.997240712             -2.731        0.997929819             -2.804       0.0369360118            -92.543
               539      0.0368383356            -90.119         0.99735553             -2.832        0.997929819             -2.819       0.0365847423            -92.995
               540      0.0365342335            -89.912         0.99735553             -2.883        0.997700064             -2.873       0.0361826191            -92.697
               541      0.0365048022            -89.917        0.997929819             -2.838        0.997814935             -2.926       0.0359666509            -93.148
               542      0.0364250369            -89.967        0.997011115             -2.897        0.997929819             -2.913       0.0361576336            -93.098
               543      0.0361368256            -90.081        0.998389489             -2.917        0.998159627              -2.94       0.0355467582            -92.897
               544      0.0358963259            -90.021        0.997814935             -2.952        0.997814935             -2.964       0.0355344829             -93.19
               545      0.0357272838            -89.982        0.997240712             -2.911        0.997700064             -2.962       0.0353590021            -93.206
               546      0.0355263017            -89.862         0.99735553             -2.904        0.997700064             -2.942       0.0351439037             -92.83
               547       0.035314251            -90.167        0.997585206             -3.016        0.998159627             -3.004       0.0348698436            -92.909
               548       0.035103466            -90.507        0.997700064             -2.991        0.997929819             -3.026       0.0348257117            -93.108
               549      0.0348778736            -90.063        0.998619403             -3.016        0.998044717             -3.027       0.0346417641             -93.29
               550       0.034685663            -90.066        0.997585206             -3.062        0.997240712             -2.987       0.0346058882            -93.041
               551      0.0346936506            -89.923         0.99655208             -3.041        0.997585206             -3.082       0.0342925673            -93.028
               552      0.0345620903            -89.905        0.997814935             -3.072        0.997700064             -3.085       0.0340839563            -92.834
               553      0.0344706918             -89.83        0.997240712             -3.094         0.99735553             -3.122       0.0339977362            -93.585
               554      0.0341467991            -89.987        0.998274551             -3.071        0.998044717             -3.107       0.0339938223            -93.327
               555       0.033950799            -89.769        0.998044717             -3.106        0.998044717             -3.148       0.0335351304            -93.386
               556      0.0336124369            -89.619        0.997929819             -3.129        0.997814935              -3.15       0.0334079633            -92.798
               557      0.0334464478            -90.078        0.997470361              -3.18        0.998044717             -3.202       0.0330788193            -93.328
               558      0.0334387474            -90.055        0.998619403             -3.216        0.997814935             -3.222       0.0329533825            -93.554
               559      0.0331398089            -90.076        0.997470361             -3.215        0.998159627             -3.266       0.0327944234            -93.498
               560      0.0330344122            -89.844        0.998427612             -3.248        0.998542566             -3.268         0.03275794            -93.322
               561      0.0327303011            -89.698        0.997700064             -3.259        0.997585206             -3.317       0.0325911736             -93.76
               562      0.0324190288            -89.762        0.997929819               -3.3        0.997929819             -3.276       0.0320073707            -93.794
               563      0.0323481911            -89.776        0.997929819             -3.327        0.997929819             -3.311       0.0319705421            -93.926
               564      0.0323295753            -89.688        0.997585206             -3.291        0.998159627             -3.348       0.0319300795            -93.388
               565      0.0323481911            -90.264        0.997814935             -3.297        0.998389489             -3.387       0.0318970119            -93.608
               566      0.0321070201            -89.637        0.997700064              -3.35        0.997814935             -3.342       0.0315464141            -93.809
               567      0.0320885431            -89.877        0.997700064             -3.355        0.997700064               -3.4       0.0314811073            -93.674
               568      0.0315645789            -89.955        0.997929819             -3.415         0.99873438             -3.402       0.0314231704            -93.721
               569      0.0313581187            -89.983        0.998389489              -3.37        0.998274551             -3.421       0.0312356106            -93.703
               570      0.0312571948            -90.006        0.998389489             -3.388         0.99735553             -3.453       0.0309991653            -94.216
               571      0.0312032622            -89.871        0.997814935             -3.431        0.998044717             -3.442       0.0307397266            -93.633
               572      0.0309599321            -89.817        0.998274551             -3.453        0.997929819             -3.501       0.0307397266            -93.801
               573      0.0306584363             -89.63        0.997470361             -3.492        0.997470361             -3.496       0.0304719327            -93.908
               574      0.0304719327            -90.024        0.998044717             -3.508        0.998159627             -3.495       0.0301612961            -94.044
               575      0.0304543967            -89.643        0.998044717             -3.474         0.99735553             -3.543       0.0298916577            -93.657
               576      0.0302134278            -90.483        0.997814935             -3.544        0.998619403             -3.563       0.0296619706            -94.332
               577      0.0299019837            -90.393        0.998159627             -3.564        0.998044717             -3.603       0.0297885936            -94.197
               578      0.0296176093            -89.935        0.997700064              -3.53         0.99873438             -3.583       0.0292617301            -93.743
               579        0.02959375            -90.195        0.998044717               -3.6        0.998389489              -3.61       0.0292920657             -94.07
               580      0.0295665057            -89.843        0.997929819             -3.596        0.998159627             -3.639       0.0291574809            -94.319
               581      0.0293291853            -89.988        0.997929819             -3.619        0.997585206             -3.628       0.0291172262            -94.569
               582      0.0292718385            -90.014        0.998159627              -3.63        0.999159679             -3.627       0.0288303557            -94.884
               583      0.0289467626            -90.046        0.998159627             -3.684        0.999033497              -3.67       0.0286978922            -94.847
               584      0.0286187065            -89.399        0.998159627             -3.695        0.997700064             -3.731       0.0284216967            -94.566
               585      0.0286121175            -90.215        0.997700064              -3.69         0.99735553             -3.735       0.0281740966            -94.622
               586      0.0283922624            -89.975        0.998619403              -3.71        0.998044717             -3.747       0.0281514002            -94.645
               587      0.0282000579            -89.956        0.998159627             -3.727         0.99735553             -3.805       0.0280317364            -94.793
               588      0.0281319606            -90.004        0.998389489             -3.708        0.998044717             -3.796       0.0279576073            -94.662
               589      0.0279350852            -90.357        0.997700064             -3.762         0.99873438              -3.79       0.0276949127            -94.287
               590      0.0277939326            -90.257        0.998504439             -3.781        0.998274551             -3.842       0.0272834948            -94.999
               591      0.0276582235              -90.3         0.99879022             -3.821        0.999035524             -3.825       0.0272379414            -94.563
               592      0.0274504836            -90.394        0.998389489             -3.839        0.998949537             -3.899       0.0269773943            -95.489
               593      0.0273558365            -90.124        0.997700064             -3.824        0.998274551             -3.873       0.0268256343            -94.605
               594      0.0271331365            -90.341        0.998971044             -3.852         0.99888824             -3.893       0.0270333583            -95.067
               595      0.0269494558            -90.047        0.998389489             -3.917        0.998274551             -3.918       0.0267054561            -95.158
               596      0.0264697598            -90.021        0.998159627             -3.897        0.998159627             -4.018       0.0265307789             -95.64
               597      0.0264789037             -90.13        0.998274551             -3.958         0.99873438             -3.968       0.0263845687            -95.289
               598      0.0265552259            -90.428        0.998619403             -3.935        0.997585206             -3.977       0.0261848446            -95.286
               599      0.0262693907            -89.999        0.999207074             -3.989        0.998389489             -3.996        0.026112593             -95.04
               600      0.0261818301             -90.19        0.998619403             -3.986        0.998389489             -3.992       0.0257187585            -95.327
               601      0.0261607385            -90.499        0.998389489             -3.971         0.99873438             -4.049       0.0256802945            -95.484
               602        0.02569804            -89.684        0.997814935             -4.031        0.998274551             -4.065       0.0252900682            -94.979
               603      0.0255829134            -90.573        0.997585206             -4.023         0.99884937             -4.057       0.0255387714            -95.767
               604      0.0253834121            -89.673        0.998389489             -4.034        0.998619403             -4.073       0.0251912664            -95.716
               605      0.0252289979            -89.823        0.998921016              -4.11        0.997814935             -4.075       0.0249660594             -95.55
               606      0.0250784101            -89.896        0.998504439             -4.089         0.99884937             -4.087       0.0247913399            -95.256
               607      0.0250495541            -90.156         0.99873438              -4.08        0.997929819             -4.139       0.0247457146            -95.731
               608      0.0246405274            -89.681        0.998274551             -4.163        0.997585206             -4.143       0.0246462018            -95.338
               609       0.024797049            -90.078         0.99889859             -4.161         0.99890526             -4.184         0.02442868            -96.087
               610      0.0244765385            -89.797        0.999205463             -4.136        0.998274551             -4.206        0.024336045             -95.36
               611      0.0243696897            -89.872        0.998504439             -4.203        0.997700064             -4.235       0.0240630127            -95.915
               612      0.0241073792            -89.812        0.999023605             -4.203        0.998504439             -4.198       0.0240131979            -95.826
