!{501R14S2R2}
!Johanson Technology Inc.
!www.johansontechnology.com
!Test Board Conditions:
!Substrate Type  RO4350B
!Substrate Thickness        20 mil
!Substrate Dk      3.66
!TL Type: GCPW 
!TL Trace Width  36 mil
!TL Gap  12 mil
!Electrode orientation      Horizontal
!DUT TOPOLOGY	SERIES
!Mounting Pad LxW         26x36 mil
! Created Wed Mar 11 15:57:25 2020
# mhz S ma R 50
! 2 Port Network Data from SP1.SP block
! freq  magS11  angS11  magS21  angS21  magS12  angS12  magS22  angS22  
!     
               500       0.849082715            -36.027        0.522997966             53.551        0.523479887             53.574        0.848496392            -36.145
               501       0.848651238            -36.114        0.523515144             53.431        0.524661563             53.536         0.84826051            -36.234
               502        0.84829943            -36.158         0.52426296             53.396        0.525471511             53.469        0.847323351            -36.267
               503       0.847617667             -36.25        0.524747043             53.281        0.525714554             53.368        0.845765567            -36.378
               504       0.847221457            -36.301        0.525953012              53.25        0.526983414             53.322        0.846538953            -36.422
               505       0.846447448            -36.348        0.526562589             53.197        0.527533447             53.261        0.846350003            -36.468
               506       0.846057734            -36.347        0.527290564             53.136        0.528566945             53.278        0.845278845             -36.53
               507       0.845578676            -36.477        0.528267657             53.097        0.529546403              53.18        0.845383997            -36.572
               508       0.845084235            -36.514        0.528932192             53.023        0.530212546              53.13        0.844500673            -36.644
               509       0.844403452            -36.607        0.529419581             52.953        0.530762218             52.983        0.843626086            -36.742
               510       0.844193135            -36.604        0.530385712             52.922        0.531669584             53.005        0.844095949            -36.795
               511       0.843431856            -36.725        0.531312459             52.794        0.532108259             52.927        0.842364391            -36.848
               512       0.843345514            -36.749        0.531563973             52.835        0.533587367             52.866        0.842472123            -36.856
               513       0.842364391            -36.854        0.533027972             52.677        0.533887804              52.76        0.841976558            -36.995
               514       0.842461378            -36.878        0.533212105             52.627        0.534810592             52.765        0.841588902            -37.049
               515       0.841941502            -36.983        0.534542103             52.569         0.53571267             52.642         0.84077912            -37.105
               516       0.841656445            -36.975        0.535284728             52.536        0.536209931             52.689        0.840494456            -37.118
               517        0.84071733            -37.113        0.535549971              52.46        0.537341026             52.507        0.840233514            -37.245
               518       0.839917575            -37.168        0.537138978             52.374        0.538005442             52.429        0.839917575            -37.333
               519        0.83907349            -37.213        0.537341026             52.317        0.538517722             52.412        0.839363346            -37.342
               520       0.839157533            -37.288        0.538261723             52.287        0.539440436             52.346        0.839060927            -37.394
               521       0.838515136              -37.3         0.53902748             52.247        0.540207869             52.323        0.838804799            -37.456
               522       0.838204523            -37.415        0.540069933             52.166        0.540816583             52.235        0.838011542            -37.512
               523       0.838113743             -37.49        0.540820272             52.082        0.541505612             52.159        0.836860293            -37.564
               524        0.83771977            -37.514         0.54143804             52.005        0.542373878             52.134        0.835889298            -37.622
               525        0.83709191              -37.6        0.542154597             51.941        0.543091674             52.032        0.835936223            -37.719
               526       0.836683224            -37.668        0.542889024             51.941        0.544203163             51.964        0.835335736            -37.756
               527       0.836448493            -37.688        0.543424486               51.9        0.544677209             51.921        0.834332581            -37.783
               528       0.835603447            -37.751         0.54437757             51.746        0.545444068             51.868        0.834257698            -37.916
               529       0.834564436            -37.879         0.54501678             51.665        0.546713595             51.786        0.834180193            -37.967
               530       0.834112168            -37.897        0.546165743             51.632        0.546857858             51.703        0.834016143            -38.062
               531       0.833698352             -37.94        0.546838323             51.629        0.547972726             51.682        0.833410452             -38.07
               532       0.833203168             -37.98        0.547647252             51.529        0.548656985             51.651        0.832819552            -38.148
               533       0.832874244            -38.099        0.548693016             51.419        0.549388333              51.53        0.832203297            -38.282
               534       0.832155144            -38.145        0.549230064             51.388        0.549799451             51.474        0.831867777            -38.272
               535        0.83147654            -38.207        0.549794005             51.322        0.550934539             51.462        0.831380818             -38.36
               536        0.83147654            -38.289        0.550490717             51.278        0.551442202             51.367        0.830328606            -38.375
               537         0.8310878            -38.297         0.55169228              51.22        0.552518605             51.342        0.829844857            -38.479
               538       0.830434258            -38.358        0.551766408             51.155        0.553165718             51.256        0.829478736            -38.518
               539       0.829755233            -38.482        0.552586156             51.095        0.553859998              51.15        0.829086799            -38.595
               540       0.829373204             -38.55         0.55341382             51.028        0.554881186             51.088        0.827942164            -38.644
               541       0.828667697            -38.555        0.554090124             50.987        0.555751201             51.063        0.828000139            -38.691
               542       0.828204597            -38.646        0.555184889             50.878        0.555952435             50.965        0.827537412            -38.778
               543       0.828083871            -38.651        0.556063419             50.801        0.556575809             50.993        0.826750233            -38.844
               544       0.827446608            -38.741        0.556339608             50.795        0.557814732             50.909        0.826589682            -38.878
               545       0.826494559             -38.77        0.557814756              50.79        0.558007452             50.893         0.82678007            -38.877
               546       0.826208314             -38.85        0.558585375               50.7        0.558585375             50.769        0.825732847            -38.969
               547        0.82546754            -38.954        0.559113528             50.573        0.559886505             50.679        0.825277491            -39.096
               548        0.82537552            -38.962        0.559373108             50.546        0.560598051             50.641        0.824425818            -39.138
               549       0.824897524            -39.006        0.560402417             50.493        0.561112573             50.604        0.824138115            -39.209
               550       0.824327902            -39.092        0.561047976             50.421        0.561823628             50.505        0.823189837            -39.253
               551       0.823840223            -39.149         0.56200864             50.393        0.562526507             50.498        0.823176553            -39.264
               552       0.823284616            -39.205        0.562406071             50.308        0.563507888             50.425        0.822526692            -39.374
               553       0.822899616            -39.315        0.562855429             50.211        0.564217899             50.302        0.821763523            -39.438
               554       0.822145235            -39.337         0.56389539             50.169        0.565000125             50.269        0.821293799            -39.482
               555       0.821391114            -39.394        0.564416888              50.13        0.565262272             50.221        0.820162673            -39.531
               556       0.821345267            -39.513        0.565621304             50.033        0.566272875               50.1        0.820400203            -39.644
               557       0.820068254            -39.544        0.565978586             49.969        0.566956841              50.13        0.820351544            -39.653
               558       0.820465683            -39.594        0.566644165             49.947        0.568015806             50.049        0.819332951            -39.717
               559       0.819501966            -39.678         0.56760995             49.897        0.568525567             49.956        0.819030359            -39.777
               560       0.819407623            -39.701        0.568787443             49.836        0.568918426             49.938        0.818087958            -39.832
               561       0.818554059            -39.786        0.569177032             49.744        0.570292114              49.89        0.818459825            -39.925
               562        0.81825868            -39.814        0.569561495             49.716         0.57087447             49.819        0.817505383            -39.948
               563       0.817778322            -39.846        0.570670725             49.627         0.57145968             49.796        0.816743325            -40.016
               564       0.817153613            -39.963        0.571154635             49.609        0.572339481             49.685        0.816401333             -40.03
               565       0.817019019             -39.96        0.572047598             49.564        0.572904412              49.64        0.815327642            -40.121
               566       0.816112444            -40.055        0.572400494             49.455        0.573521892             49.565        0.814798086              -40.2
               567          0.815455            -40.134        0.573059874             49.414        0.574050368             49.536        0.814422944            -40.246
               568       0.814610493            -40.183        0.574513185             49.374        0.574777819             49.399        0.814798086            -40.327
               569       0.814985722            -40.255        0.574777819             49.294        0.575771283             49.399        0.813673178            -40.362
               570       0.813485844            -40.304        0.575439937              49.22        0.576102819             49.334        0.813017699            -40.453
               571       0.813204925            -40.371        0.576500914              49.16         0.57683287             49.256        0.812830516            -40.509
               572       0.812830516            -40.446        0.577032135             49.104        0.577896415             49.176        0.811988727            -40.548
               573       0.812175716            -40.488         0.57729793             49.032        0.578362332             49.162        0.811428019            -40.587
               574       0.811614879            -40.543         0.57849552             49.032         0.57896192             49.077        0.811428019            -40.676
               575       0.811428019            -40.618        0.579028579             48.976         0.58002939             48.978        0.810494365            -40.715
               576       0.810961058            -40.659         0.57956213             48.886        0.580831284             48.942        0.810307764            -40.802
               577       0.810628375            -40.687         0.58072671             48.843        0.581529568             48.893        0.809602427            -40.864
               578       0.809748216            -40.791        0.581232647             48.762        0.582103218              48.83        0.809375399            -40.885
               579       0.809002754            -40.844        0.581567328             48.715        0.582572527             48.711        0.808816496             -40.99
               580       0.808723383            -40.878          0.5824384             48.663        0.582975092             48.723        0.807420924            -41.052
               581       0.808723383            -40.952        0.583243624             48.581        0.584453549             48.669        0.807420924            -41.102
               582       0.807513888            -40.991        0.584386265             48.559        0.584790084             48.616        0.807420924            -41.151
               583       0.807049179            -41.068        0.584655447              48.48        0.585463736             48.545        0.806306201            -41.216
               584        0.80686337            -41.103        0.585396336             48.376          0.5858683              48.51        0.806027761            -41.286
               585       0.805749417            -41.134        0.585935755             48.408        0.586273143             48.429        0.805378441            -41.318
               586       0.806027761            -41.247        0.586948504             48.303        0.587759964             48.365        0.805285724            -41.388
               587       0.805285724             -41.29        0.588098403             48.279        0.587895316              48.32        0.804637002            -41.429
               588       0.805007636            -41.348        0.588640311             48.182        0.588504787             48.266        0.803618637            -41.504
               589       0.804359138            -41.423        0.588979257             48.133         0.58945411             48.199        0.803711162             -41.58
               590       0.803803698            -41.448         0.58945411              48.07        0.590336995             48.196        0.802601561            -41.574
               591        0.80315617            -41.545        0.590336995             48.032        0.590880966             48.093          0.8023244            -41.677
               592       0.802786388             -41.54        0.590948997             47.993        0.590880966             48.066        0.801401221              -41.7
               593       0.801585772              -41.6        0.591561634             47.911        0.592174906             47.959        0.801493491            -41.795
               594       0.801770365            -41.642        0.592652335             47.853        0.592584108             47.942        0.801124475            -41.849
               595       0.800755629            -41.716        0.593335044             47.799        0.593403359             47.851        0.800479105            -41.901
               596       0.800294809            -41.735        0.594155334              47.78        0.593745047             47.859        0.800479105            -41.947
               597       0.799742176            -41.839        0.594634359             47.695        0.594839774             47.773         0.79928194            -42.011
               598       0.799189924            -41.873        0.595456445             47.644        0.595387894             47.723        0.798821969            -42.074
               599       0.798730006            -42.014        0.595730726             47.588        0.596416981             47.592        0.798454182            -42.112
               600       0.798362262            -42.041         0.59648565             47.539        0.596829114             47.606        0.798086565            -42.166
               601       0.797810963              -42.1         0.59689783             47.451         0.59799837             47.527        0.797627282            -42.267
               602       0.798307827            -42.123        0.598095297             47.375        0.598577499             47.488        0.796746909            -42.328
               603       0.797260045             -42.22        0.599031969             47.336        0.599376898             47.406        0.796984729            -42.429
               604       0.796984729            -42.271        0.599169917             47.299        0.600274646             47.341         0.79615935             -42.47
               605       0.796067694            -42.339        0.600274646             47.179        0.600067354              47.27        0.795060175            -42.529
               606        0.79551798            -42.363        0.600274646              47.17        0.601104529             47.221         0.79423679            -42.563
               607       0.794968646            -42.464        0.601589157             47.133        0.601519901             47.157        0.794785618            -42.608
               608        0.79441969            -42.481        0.602212825             47.082        0.602420858             47.145        0.794328235            -42.631
               609       0.793962517            -42.508        0.602837139             47.046         0.60318426             47.083        0.794145355            -42.688
               610       0.793414257            -42.618        0.603740069             46.922        0.603670565             47.003        0.793140269            -42.816
               611       0.792410096            -42.659        0.604018166             46.923        0.604157262             46.944        0.792318871            -42.832
               612       0.792775098            -42.709        0.605271186             46.853        0.605410571             46.933        0.792410096            -42.869
