!{501R14S1R8}
!Johanson Technology Inc.
!www.johansontechnology.com
!Test Board Conditions:
!Substrate Type  RO4350B
!Substrate Thickness        20 mil
!Substrate Dk      3.66
!TL Type: GCPW 
!TL Trace Width  36 mil
!TL Gap  12 mil
!Electrode orientation      Horizontal
!DUT TOPOLOGY	SERIES
!Mounting Pad LxW         26x36 mil
! Created Wed Mar 11 15:56:41 2020
# mhz S ma R 50
! 2 Port Network Data from SP1.SP block
! freq  magS11  angS11  magS21  angS21  magS12  angS12  magS22  angS22  
!     
               500        0.88297319              -31.7         0.46328423             57.809         0.46461959             57.931        0.883074852            -31.884
               501       0.882993503            -31.807        0.464149095             57.837        0.465647749             57.784        0.881977504            -31.908
               502       0.882266928            -31.819        0.464943307             57.722         0.46590782             57.768        0.881962257            -31.979
               503       0.882025783            -31.882        0.465244535             57.632        0.466961721             57.705        0.881416712            -32.085
               504       0.881937762            -31.921        0.466538983             57.569        0.467345364             57.654        0.880314668            -32.121
               505       0.881571347             -32.04        0.467366378             57.564        0.468282002             57.567        0.880658369             -32.19
               506       0.880748217            -32.077        0.468114154             57.501        0.469193269             57.543        0.880545441            -32.227
               507       0.880583736            -32.126        0.468889665             57.427        0.469970567             57.488        0.879773062            -32.303
               508       0.879868502             -32.14         0.46964291             57.375        0.470779746             57.487        0.879868502            -32.362
               509       0.879723108             -32.28        0.470431073             57.336        0.471732719             57.321        0.879216845            -32.455
               510       0.879247337            -32.287        0.471152025              57.28        0.472183777             57.341        0.879044907            -32.469
               511        0.87876754            -32.383        0.472143491             57.222        0.473014013             57.289         0.87876754            -32.506
               512       0.878400953              -32.4        0.472762258             57.133        0.473524875             57.226        0.878198717            -32.599
               513       0.878145666            -32.418         0.47344176             57.147        0.474260071             57.213        0.877741358             -32.59
               514        0.87790691            -32.507        0.473749176             57.023        0.475388277             57.125        0.876593947            -32.688
               515       0.877381227            -32.572         0.47455695             57.003        0.476144024             57.057        0.876573501            -32.733
               516       0.876915702            -32.651        0.475946181             56.878        0.476549312             56.989        0.876108404            -32.822
               517       0.876978334            -32.663        0.476363924             56.902        0.477626994             56.967         0.87516283            -32.857
               518       0.876153598            -32.778         0.47717782             56.784        0.478167713             56.863        0.875447786            -32.939
               519       0.875837042            -32.803        0.477609887             56.761        0.479207171              56.81        0.874829277            -33.005
               520       0.875121841            -32.897        0.478981261             56.655        0.479809147             56.756        0.875021095            -33.098
               521        0.87490325            -32.891        0.479413247             56.599         0.48046309             56.685        0.873695361            -33.141
               522       0.874721716             -32.99        0.480308097             56.575        0.481193673             56.632        0.873413516            -33.173
               523       0.873945481            -33.033        0.480877371             56.519        0.482152409             56.607        0.873643683            -33.237
               524       0.873701679            -33.069          0.4816296             56.466        0.482739871             56.552        0.872696372            -33.261
               525       0.873103589            -33.136        0.482464956             56.378        0.483354508             56.451        0.872701603            -33.391
               526       0.872132096            -33.189        0.483484182             56.389         0.48398541             56.408        0.872734752            -33.363
               527       0.872317201            -33.256         0.48397668             56.285        0.484980678             56.368        0.871815199            -33.461
               528       0.872097394            -33.315        0.484746842             56.274        0.485696516             56.297        0.871093932             -33.48
               529       0.871520222            -33.382        0.485542744             56.179        0.486437971             56.215        0.871118965            -33.614
               530       0.870893993            -33.486        0.486368338             56.075        0.487040745             56.144        0.870593249            -33.637
               531       0.871007445            -33.503        0.487328564             56.053         0.48749691             56.102        0.869804935            -33.712
               532       0.870443161            -33.541        0.487630001             56.011        0.488810378             56.078        0.869341511            -33.742
               533       0.869765726            -33.594        0.488542432              55.93        0.489386844             56.017        0.869365276            -33.829
               534       0.869319636            -33.706        0.489192161             55.839        0.490150545             55.923        0.869019435            -33.905
               535       0.868873403            -33.726        0.489786153             55.823        0.491084812             55.898        0.868373383            -33.912
               536       0.868340845            -33.767        0.490670818             55.743        0.491518909              55.84        0.867841132            -33.958
               537       0.868528467            -33.814        0.491229067             55.714        0.492418156             55.783        0.867029865            -34.059
               538       0.867621086            -33.871        0.491677232             55.652         0.49326477               55.7        0.867121787            -34.125
               539       0.867044474            -33.907         0.49259656             55.605        0.493732112             55.681        0.866745059            -34.117
               540       0.867038215             -33.97         0.49350123             55.568        0.494354213             55.611        0.865841184            -34.167
               541       0.866642073            -34.045        0.494412872             55.486        0.495039404             55.502        0.865345957            -34.285
               542       0.866009537            -34.112        0.495247937               55.4         0.49576136             55.471        0.865311897            -34.345
               543       0.865600993            -34.119        0.495413396             55.363        0.496612614             55.465        0.864903682            -34.369
               544       0.865297593            -34.218        0.496667218             55.327        0.497239356             55.373        0.864401468            -34.421
               545       0.864380648            -34.299        0.497055673             55.234        0.498258866             55.309        0.864281138            -34.475
               546       0.864382658             -34.34        0.497744013             55.172        0.498776571             55.274         0.86378577            -34.555
               547       0.864154869            -34.411        0.498587724             55.109        0.499507003             55.158        0.862465202            -34.616
               548       0.863426079            -34.447         0.49937312             55.029        0.500121082              55.17          0.8626312            -34.647
               549       0.862863583            -34.485        0.500140634             55.002        0.501120466             55.062        0.862069222            -34.738
               550       0.862713264            -34.553        0.500399049             54.953        0.501956954             55.056          0.8617206            -34.765
               551       0.861962856            -34.634        0.501462604             54.876        0.502560732             54.949        0.861665196            -34.861
               552       0.861400268             -34.67        0.502059284             54.814        0.503216651             54.923        0.861201946             -34.88
               553       0.861477597            -34.682        0.502972207             54.781        0.503493639             54.881        0.860189204            -34.922
               554       0.861101663            -34.796        0.503679677             54.737        0.504550253              54.77        0.859813833            -35.003
               555       0.860200722            -34.861        0.504196472             54.595        0.505242415             54.686        0.859408812            -35.086
               556       0.860226554            -34.871        0.504618124              54.63        0.506422327             54.719        0.858841149            -35.098
               557       0.859287356            -34.933        0.505636506             54.541        0.506802118              54.63         0.85889173            -35.162
               558       0.859210669            -35.014        0.506290363             54.521         0.50734065             54.549        0.858123234            -35.175
               559       0.858853885            -35.047        0.507013221             54.473        0.508299034             54.542        0.857964433            -35.256
               560       0.857853837            -35.126        0.507941033             54.349        0.508760398             54.471        0.857952607            -35.329
               561        0.85779661            -35.139        0.508785031             54.323        0.509371129              54.44        0.857006913            -35.361
               562       0.857461109            -35.201        0.509230528             54.287        0.510110698             54.335        0.856573099             -35.44
               563       0.857174011            -35.253        0.509587768             54.189        0.510997758             54.322        0.855497993            -35.463
               564       0.856741333            -35.319        0.510387136             54.156          0.5115637             54.196        0.855361541            -35.569
               565       0.856708193            -35.336        0.511072979             54.187        0.512487079             54.192        0.854737819            -35.593
               566       0.856051864            -35.422         0.51215342              54.04        0.512920524             54.151        0.854771586            -35.685
               567       0.855231958            -35.491        0.512960496              53.99         0.51337406             54.045        0.854444623            -35.711
               568       0.854896983            -35.565        0.513941614             53.913        0.514355969             53.969        0.853716714            -35.813
               569       0.854361006            -35.578        0.514151869             53.884        0.515218464             53.952        0.853574473            -35.845
               570       0.854228293            -35.644        0.515138432             53.849        0.515791228              53.88        0.852754366            -35.895
               571       0.853969907            -35.701        0.515457148             53.804        0.516764375              53.85        0.852300153            -35.944
               572       0.852716446            -35.754        0.516362434             53.755        0.517552772              53.79        0.852618279            -35.975
               573       0.852894512             -35.81         0.51670816             53.641        0.518078202             53.734        0.851520916            -36.071
               574       0.852733275            -35.878        0.517682173             53.648        0.518756092             53.693        0.851359938            -36.109
               575       0.851846364            -35.921        0.518514939             53.588        0.519172014               53.6        0.850964169            -36.138
               576       0.851432062            -35.969        0.519517283             53.556         0.51963692             53.558        0.850746165            -36.212
               577       0.851098798            -35.993        0.519553144              53.48        0.520870759             53.537        0.850119498            -36.264
               578       0.850823582            -36.058        0.520642383             53.454        0.521362174             53.484        0.849844599            -36.312
               579       0.849734983            -36.136        0.521595094              53.42        0.521835353             53.388         0.85012639            -36.357
               580       0.849718489            -36.192        0.522005487             53.332        0.522727163              53.33        0.848936229            -36.413
               581       0.849571627            -36.201        0.522636817              53.29        0.523359365             53.322        0.847910474             -36.49
               582        0.84869531            -36.289        0.523662895             53.226        0.524085087             53.287         0.84869531            -36.521
               583       0.848301041            -36.341        0.524022579             53.134         0.52480746             53.207        0.847617667            -36.601
               584       0.848008099            -36.398        0.524626229             53.128        0.525412015             53.154         0.84732496            -36.619
               585       0.847853186            -36.481        0.525739559             53.039        0.526224006              53.08        0.846780126            -36.723
               586       0.847715258             -36.51        0.526198978             53.038        0.526926451             53.023        0.846057734            -36.767
               587       0.846544905             -36.58        0.526987119             52.934        0.527594185             52.939        0.845765567            -36.843
               588       0.846642372            -36.649        0.527229861             52.893        0.528384416             52.852        0.844889669            -36.911
               589       0.846306558            -36.627        0.528114031             52.903         0.52933146             52.915        0.844943572            -36.908
               590       0.845181534            -36.717         0.52911491             52.791        0.529846415              52.81        0.844986947            -36.998
               591       0.844695149            -36.794        0.529724427             52.739        0.530212546             52.747        0.844597905            -37.037
               592       0.844597905            -36.815        0.530762218             52.693        0.530640019             52.782        0.843723217            -37.068
               593       0.844629632            -36.861        0.531454775             52.656        0.531638365             52.696        0.843463539            -37.161
               594       0.843431856            -36.956        0.532108259             52.586        0.532047002             52.551        0.842461378            -37.214
               595       0.843812449             -37.02        0.532532268             52.548        0.533207106             52.519        0.842065604            -37.253
               596       0.842987403            -37.039        0.533545038             52.496        0.533975197             52.538        0.842211341            -37.284
               597       0.842804977            -37.122        0.534290056             52.448        0.534536162             52.417        0.841932145            -37.411
               598       0.841879627            -37.119        0.534441286              52.41        0.534933751             52.401        0.841104584            -37.421
               599       0.841104584             -37.19        0.535303398             52.332        0.535488317             52.342        0.840427007            -37.476
               600       0.841512333            -37.242        0.536179845             52.267        0.536797501             52.321          0.8402538            -37.548
               601        0.84071733             -37.33        0.536784541             52.208        0.537155467             52.239        0.839943358              -37.6
               602       0.840658746            -37.349        0.537551076             52.183        0.537922532             52.215        0.839594791            -37.632
               603       0.840040065            -37.414        0.538517722             52.145        0.538207815             52.127        0.839266716            -37.684
               604       0.839734669            -37.468        0.539066177             52.047        0.539190316             52.112        0.838478795            -37.729
               605       0.839170097            -37.527        0.539448513             52.003        0.539759134             52.027        0.837818604            -37.794
               606       0.838494079            -37.612        0.540380912             51.979        0.540256499             51.948        0.837432864             -37.86
               607       0.837818604            -37.672        0.541065696             51.882        0.541377248             51.921        0.838011542            -37.945
               608       0.837818604            -37.714        0.541688979             51.849        0.541813722             51.854        0.837143674            -37.994
               609       0.837467886            -37.768         0.54252301              51.79        0.542835401             51.838        0.836985939            -38.035
               610       0.836898472            -37.778         0.54340393              51.76        0.543278821             51.776        0.836609467            -38.105
               611       0.836745766            -37.871        0.543617618             51.685        0.543993265             51.685        0.835879209            -38.159
               612       0.836276706            -37.921        0.544189302              51.61        0.544816184             51.651        0.835026003            -38.201
