!{501R14S3R3}
!Johanson Technology Inc.
!www.johansontechnology.com
!Test Board Conditions:
!Substrate Type  RO4350B
!Substrate Thickness        20 mil
!Substrate Dk      3.66
!TL Type: GCPW 
!TL Trace Width  36 mil
!TL Gap  12 mil
!Electrode orientation      Horizontal
!DUT TOPOLOGY	SERIES
!Mounting Pad LxW         26x36 mil
! Created Wed Mar 11 15:59:12 2020
# mhz S ma R 50
! 2 Port Network Data from SP1.SP block
! freq  magS11  angS11  magS21  angS21  magS12  angS12  magS22  angS22  
!     
               500       0.714414071            -48.367        0.693425806             41.156        0.694544378             41.203         0.71301719            -48.486
               501       0.713427753            -48.449        0.694064769             41.148         0.69510434             41.119         0.71227877            -48.524
               502       0.713345622             -48.51        0.694784306             41.035        0.696626514             41.033        0.711786915            -48.591
               503       0.712360779            -48.564         0.69574485             40.983        0.697107893                 41        0.711541115            -48.693
               504        0.71104977            -48.643        0.696867162             40.881        0.697509296             40.897        0.710149851            -48.774
               505       0.710722394            -48.683        0.697669922             40.827        0.698473607               40.9        0.709986351            -48.832
               506       0.709741173             -48.81        0.697589604             40.693        0.698956262             40.789        0.708434985            -48.925
               507        0.70916942            -48.851        0.699036737              40.69        0.699841996             40.688        0.708353428             -48.99
               508       0.708434985            -48.957         0.69943925             40.565        0.700970918             40.668        0.707375477            -49.043
               509       0.707538375            -48.988        0.700244973             40.512        0.701132341             40.559        0.706073643            -49.117
               510       0.707049794            -49.064        0.701213066             40.552        0.702505939             40.457        0.706073643            -49.172
               511       0.706480209            -49.124        0.702263344             40.377        0.702667715              40.45        0.705586073            -49.248
               512       0.705911082            -49.215        0.703396171             40.346        0.704044321             40.356        0.704936503            -49.352
               513       0.704530826            -49.277        0.703477157               40.2        0.704044321             40.358        0.703639158            -49.405
               514        0.70396327            -49.369        0.704368621             40.146         0.70509884             40.236         0.70291045            -49.476
               515       0.703234227            -49.413        0.704774204             40.081        0.705992358             40.164        0.701616833            -49.542
               516       0.702425064            -49.539        0.705261213             40.037          0.7066429             40.078        0.701455298            -49.586
               517       0.701859205            -49.551        0.706480209              39.98        0.707701311             40.057        0.701132341            -49.671
               518       0.700728853            -49.629         0.70672426             39.873        0.708271881             39.948        0.699600321            -49.742
               519       0.700083755            -49.673        0.707701311             39.836        0.709006146             39.913        0.699278217            -49.811
               520       0.699197714            -49.729        0.708598127             39.766        0.709659466             39.862        0.698714893            -49.909
               521       0.698393197            -49.873         0.70916942             39.678        0.710558763             39.732        0.697991285            -50.003
               522       0.697107893            -49.913        0.709332731             39.643        0.710558763             39.643        0.697188155            -49.987
               523       0.697428997            -49.956        0.710886063              39.61        0.711541115             39.643        0.696145468            -50.084
               524       0.696466128            -50.041        0.711541115              39.51        0.712606862             39.548        0.695824955            -50.131
               525       0.695985193            -50.103        0.712524825             39.442        0.713345622             39.481        0.695024318             -50.21
               526       0.695264412            -50.137        0.712606862             39.393        0.713674205             39.418        0.693984866            -50.274
               527       0.694224602            -50.223        0.713181387               39.3        0.714496326             39.353        0.693345977            -50.361
               528       0.694144681            -50.303         0.71424959             39.224        0.715731284               39.3        0.692787431            -50.441
               529       0.693026753            -50.361        0.714990053              39.16        0.716225864              39.24        0.691751326            -50.491
               530       0.692229335            -50.447        0.715648887             39.083        0.716968376             39.136        0.691273646            -50.561
               531       0.690955376            -50.538        0.715648887             39.008         0.71721605             39.035         0.68992201            -50.632
               532       0.690716769            -50.578        0.717546417             38.949        0.718703897             39.066        0.690796296            -50.721
               533       0.689842584            -50.617        0.718042251             38.912        0.718455709             38.996        0.689048831            -50.754
               534       0.689207508            -50.749        0.718869404             38.816        0.719117736             38.898        0.688414485            -50.825
               535       0.688335233            -50.792        0.719283338             38.786        0.720775473             38.801        0.688652296            -50.886
               536       0.687543214            -50.842        0.719863245             38.715        0.720360681             38.789         0.68706844            -50.953
               537       0.687701545            -50.913        0.721024463             38.638        0.722270704             38.734        0.686198872            -51.026
               538       0.686277878            -50.987        0.722104414             38.574        0.722270704             38.659        0.685646084            -51.061
               539       0.686119875            -51.066        0.721688857             38.482        0.723519099             38.581        0.684305452            -51.161
               540       0.685330405            -51.133        0.723602402             38.446        0.724102422              38.51        0.684226673            -51.233
               541       0.684069142            -51.189        0.723685715             38.352        0.724519369             38.439        0.683124718            -51.319
               542       0.683282031            -51.245        0.724269172             38.311        0.724936556             38.359        0.682417256            -51.373
               543       0.682731593            -51.326        0.724602787             38.228         0.72577165             38.311        0.681475112            -51.462
               544       0.681710526            -51.424        0.725270478             38.171        0.726775034             38.246        0.680612624            -51.506
               545       0.680769359             -51.43        0.726105957             38.107        0.727109803             38.192        0.680455925            -51.533
               546        0.68053427            -51.495        0.727277246             38.062        0.727863598             38.117        0.679594726            -51.642
               547       0.679516489              -51.6         0.72719352             37.972        0.728450423             38.028        0.679047258            -51.713
               548       0.679125441            -51.642        0.728618175             37.897        0.729625493              37.97        0.678578351            -51.777
               549       0.678265926            -51.735        0.728953793             37.871        0.729625493             37.884        0.677641508            -51.819
               550        0.67842212            -51.798         0.73004562             37.764        0.730802459             37.821        0.676472272            -51.933
               551       0.677329514            -51.824        0.730129675             37.727        0.731475863             37.768        0.676160817            -51.981
               552       0.676082975            -51.911        0.731139083             37.634        0.731981323             37.693        0.674916429            -52.066
               553       0.675849505            -51.985        0.731897056             37.574        0.732655813             37.659        0.674295094            -52.107
               554       0.674528028            -52.047        0.732065601             37.519        0.733162089             37.578         0.67390705            -52.186
               555       0.673829468            -52.109        0.732824533             37.422         0.73417569             37.506        0.673131633            -52.246
               556       0.673751895            -52.181          0.7334998             37.425        0.735106055             37.448         0.67266681            -52.314
               557       0.672589371            -52.248         0.73434476             37.291        0.735614024             37.416        0.671738129            -52.373
               558        0.67189282            -52.294         0.73493681             37.264        0.735614024             37.355        0.670810729            -52.402
               559       0.671506158            -52.371        0.735614024             37.196        0.737055175             37.286        0.670270337              -52.5
               560        0.67050188            -52.454        0.736461418             37.155        0.737055175             37.161        0.669807491            -52.555
               561       0.669730381            -52.538        0.737479581             37.081        0.737479581             37.153        0.668959769              -52.6
               562       0.669190859            -52.517        0.737479581             37.006         0.73849915              37.07        0.668190043            -52.698
               563       0.668190043            -52.624        0.738244126             36.926        0.739349869             37.047        0.667651763            -52.745
               564       0.667805513            -52.683        0.738924387             36.894        0.739945954             36.961        0.666346314            -52.795
               565       0.666960325            -52.795        0.739775595             36.787        0.740713057             36.868        0.665886178             -52.87
               566       0.666960325            -52.784        0.740201567             36.781        0.741907908             36.825        0.665196568            -52.968
               567       0.665809519            -52.886        0.740713057             36.653        0.742164198             36.742        0.664125262            -53.012
               568        0.66481376            -52.936        0.741822497             36.614        0.742335107             36.688         0.66389592            -53.096
               569       0.664125262            -53.038        0.742677044             36.559        0.743446977             36.633         0.66389592            -53.134
               570        0.66305568             -53.04        0.742848071              36.48        0.743789426             36.582        0.662826709            -53.197
               571       0.662292749            -53.148        0.743618182             36.445        0.744389091             36.465        0.662216504            -53.288
               572       0.662140268            -53.142        0.744646238             36.398        0.744646238              36.48        0.661759219            -53.329
               573       0.661683035            -53.263         0.74498924             36.267        0.745847434             36.396        0.660769518            -53.399
               574       0.660617387            -53.321        0.745418213             36.238        0.746878573             36.269        0.659629394             -53.48
               575       0.660085207            -53.385        0.746448758             36.154         0.74679259              36.24        0.659022132            -53.544
               576       0.659022132            -53.445        0.746878573             36.079        0.747050568             36.163         0.65841543            -53.633
               577       0.658491237            -53.487        0.747480728             36.024        0.748255642             36.122        0.657657837            -53.692
               578       0.657885024            -53.556        0.748083369             35.979        0.748514125             36.024        0.657052391             -53.77
               579       0.656825492            -53.616        0.747997248             35.963        0.749117599             36.005        0.655918681            -53.745
               580       0.656523083            -53.654         0.74980788             35.858        0.750153258             35.928        0.655692174            -53.842
               581       0.655390286            -53.762         0.74954895             35.785        0.750758054             35.833        0.654636174            -53.936
               582       0.654937715            -53.804        0.750239628             35.737        0.750930942             35.775        0.654108812            -53.996
               583       0.654485456            -53.846        0.750671625             35.679         0.75188254             35.713          0.6534314            -54.015
               584       0.653130553            -53.919        0.751017402             35.605        0.751969109             35.693        0.652228842            -54.069
               585       0.652303937            -53.989        0.752142276             35.534        0.752748675             35.637        0.652303937            -54.157
               586       0.651553377            -54.045        0.752402102             35.497        0.753008711             35.549        0.651178421            -54.215
               587        0.65095355            -54.097        0.753182117             35.442        0.753876143             35.477        0.650653844            -54.275
               588       0.650279405            -54.155        0.753962941             35.324        0.753962941             35.428        0.649531174            -54.327
               589       0.650279405            -54.245        0.754744575             35.243        0.755005299             35.383        0.648858503            -54.446
               590       0.649082649            -54.281        0.754744575              35.19        0.755527019             35.302         0.64796269            -54.493
               591       0.648410442            -54.366        0.755440041             35.161         0.75596206             35.224        0.647217125            -54.504
               592        0.64796269            -54.388        0.756223205             35.086        0.756484441             35.214        0.647068115            -54.584
               593       0.647515248            -54.508         0.75718151             35.017        0.758228318              35.09         0.64654685            -54.668
               594       0.646621291             -54.56        0.757617504             34.973        0.758402926             35.041        0.645505579            -54.703
               595       0.645728567            -54.562        0.758141028             34.923        0.758577575             34.951        0.644688614            -54.791
               596       0.644688614            -54.664        0.758664915             34.844        0.758752264             34.936        0.644020957            -54.831
               597       0.643946816            -54.701        0.758752264              34.78        0.759976214             34.851        0.643502147            -54.903
               598       0.643428065            -54.795        0.760238746             34.711        0.760413818             34.782        0.643057785            -54.983
               599       0.642761714            -54.837        0.760676501             34.649        0.761114507             34.728        0.642391817            -55.056
               600       0.642022133            -54.917        0.761289781             34.622         0.76172814             34.645        0.641283403            -55.088
               601       0.641283403            -54.968        0.761552766             34.532        0.762430041             34.643        0.640766798            -55.114
               602       0.640619273            -55.008        0.762517824             34.494        0.762605617             34.534        0.640029512            -55.178
               603       0.640471782            -55.068        0.763044735             34.477        0.763396211             34.494        0.639440295            -55.224
               604       0.639661188            -55.134        0.763923728             34.373        0.763835784             34.443        0.638851619            -55.318
               605       0.638998737            -55.194        0.764011684             34.271        0.764451611             34.382        0.637896178            -55.391
               606       0.637896178             -55.22        0.764803735             34.254        0.764891791             34.337        0.637675894            -55.436
               607       0.636722211            -55.273        0.764539626             34.194        0.765420342             34.289         0.63664891            -55.437
               608       0.636429057            -55.359        0.765772912             34.115        0.766213854             34.184        0.636136038            -55.584
               609       0.636062805            -55.455        0.766655049             34.013        0.766655049             34.134        0.635404081            -55.636
               610       0.635404081            -55.512        0.766655049             33.991        0.767096498             34.044        0.634526844            -55.677
               611        0.63474604            -55.548        0.767538201             33.988        0.767714954             34.001        0.633723774            -55.711
               612       0.633213259            -55.648        0.767714954             33.882        0.768157013             33.891        0.632994593            -55.833
