!{501R14S1R7}
!Johanson Technology Inc.
!www.johansontechnology.com
!Test Board Conditions:
!Substrate Type  RO4350B
!Substrate Thickness        20 mil
!Substrate Dk      3.66
!TL Type: GCPW 
!TL Trace Width  36 mil
!TL Gap  12 mil
!Electrode orientation      Horizontal
!DUT TOPOLOGY	SERIES
!Mounting Pad LxW         26x36 mil
! Created Wed Mar 11 15:56:19 2020
# mhz S ma R 50
! 2 Port Network Data from SP1.SP block
! freq  magS11  angS11  magS21  angS21  magS12  angS12  magS22  angS22  
!     
               500       0.890677943            -31.285        0.448302022             58.258        0.449801291             58.379        0.890780492            -31.402
               501       0.890584786            -31.371        0.449288468             58.272        0.450531615             58.271        0.890174751            -31.425
               502       0.890327935            -31.411        0.449779855             58.165        0.450972438             58.225        0.889610704            -31.504
               503       0.889841462            -31.469        0.450103757             58.057        0.451869094             58.156        0.889329376            -31.616
               504       0.889795515            -31.511        0.451585733             58.039        0.452210053             58.107         0.88836249            -31.617
               505        0.88959999            -31.611        0.452266864             58.035        0.453152906             58.038         0.88857639            -31.694
               506        0.88870297             -31.66        0.453008793             57.951        0.454000814             57.998        0.888396075            -31.723
               507       0.888592867            -31.695        0.453526661             57.881        0.454991017              57.96        0.887570425            -31.807
               508       0.887552125            -31.723        0.454458121              57.83        0.455610651             57.933        0.888063188            -31.866
               509       0.887707096            -31.858         0.45527069             57.767        0.456582952             57.779        0.887298386            -31.994
               510        0.88702378            -31.857        0.455968943             57.735        0.456914839             57.807          0.8873302            -31.969
               511       0.886921856            -31.959        0.456651993             57.679        0.457704684             57.744        0.886717659            -31.995
               512       0.886693926            -31.986        0.457376381             57.603        0.458272433             57.687        0.886183651            -32.088
               513         0.8862519             -32.01        0.458254965             57.593        0.459047027             57.673        0.886047857            -32.118
               514       0.886088916            -32.114        0.458645676             57.498        0.459967666             57.556        0.884967464             -32.19
               515       0.885616478            -32.139        0.459140591             57.465        0.460676107             57.521         0.88480117            -32.232
               516       0.885025479            -32.218         0.46058074             57.366        0.461005146             57.441        0.884516164              -32.3
               517       0.885099159            -32.224        0.461096609             57.353        0.462106341             57.436        0.883673697            -32.362
               518       0.884390701            -32.334        0.461789621              57.24        0.462747592             57.355        0.883881752            -32.443
               519       0.883984765            -32.362        0.462375464             57.219        0.463708205             57.283        0.883476049            -32.522
               520       0.883278742            -32.486        0.463658022             57.132        0.464245581             57.232        0.883787345            -32.585
               521       0.883201143             -32.46        0.464044492             57.081        0.464793047             57.156        0.882489653            -32.634
               522       0.882987692            -32.537        0.464680716             57.033        0.465698297             57.116        0.881870165            -32.661
               523       0.882467206            -32.599        0.465370206             56.985        0.466657849             57.082        0.881959363            -32.733
               524        0.88189081            -32.646        0.466245676             56.938        0.467105323              57.02        0.881586268            -32.747
               525       0.881247577            -32.702        0.466872115              56.83        0.467732918             56.929        0.881552001            -32.889
               526       0.880835867            -32.732        0.467729746             56.867        0.468430312             56.914        0.881241601            -32.848
               527       0.880901525             -32.84        0.468357373              56.77        0.469437049             56.828        0.880495948            -32.958
               528       0.880751273            -32.883        0.468978874             56.727        0.470005868             56.761        0.879535311            -32.983
               529       0.880074519            -32.953        0.469752875             56.667        0.470944194              56.68        0.879669323            -33.088
               530       0.879665062            -33.056         0.47061671             56.548        0.471592993             56.622        0.879057621            -33.132
               531       0.879711825            -33.054        0.471400924             56.548        0.471998295             56.603        0.878396162            -33.168
               532       0.878888344            -33.091        0.471936649             56.471         0.47297012             56.539        0.878180329            -33.236
               533       0.878402721            -33.133        0.472654365             56.411        0.473580348             56.511        0.878200485            -33.304
               534       0.878164425            -33.234        0.473451874             56.328        0.474270203             56.442        0.877760109             -33.37
               535        0.87743614            -33.275        0.473986004             56.324        0.475188058             56.376        0.877335127            -33.363
               536       0.877141306            -33.321        0.474755018             56.234        0.475685117             56.317        0.876737461            -33.435
               537       0.877334484            -33.364        0.475351862             56.219        0.476612249             56.272        0.875921527            -33.515
               538       0.876237785            -33.415        0.475961667             56.133        0.477388526             56.193         0.87613691            -33.591
               539       0.875981984            -33.496         0.47675491             56.086        0.477908961             56.153        0.875780305            -33.601
               540        0.87583014            -33.523         0.47755114             56.049        0.478376554             56.095        0.875023842            -33.642
               541       0.875741102            -33.596        0.478327922             55.951        0.479044362             56.008        0.874230055            -33.763
               542       0.875110249             -33.64        0.479085217             55.902        0.479802791             55.981        0.874002691            -33.778
               543       0.874646454            -33.663        0.479327714             55.862        0.480653977             55.948        0.873740647            -33.824
               544       0.874441255            -33.769        0.480375267             55.811        0.481427217             55.862        0.873234003            -33.892
               545       0.873711128            -33.849        0.480693076             55.741        0.482356202             55.807        0.873107798            -33.924
               546       0.873331458            -33.879         0.48192461             55.652        0.482590873             55.784        0.873130389            -34.026
               547       0.873111066            -33.934        0.482580193             55.604        0.483469958             55.689        0.872006039            -34.075
               548        0.87266042            -34.011        0.483164791             55.543        0.484055633             55.657         0.87185704             -34.09
               549       0.872015777            -34.024        0.484032299             55.495        0.484980573             55.582        0.871513948            -34.198
               550       0.871985937            -34.085        0.484182937             55.452        0.485858137              55.56        0.870782075             -34.22
               551       0.871086687            -34.181        0.485245343             55.361        0.486307958             55.436        0.870986405            -34.317
               552       0.870832563            -34.216         0.48577444             55.325        0.487118541             55.425        0.870431622            -34.333
               553       0.870742918            -34.226        0.486788098             55.264        0.487348856             55.387        0.869741015            -34.404
               554       0.870493468            -34.336        0.487321437             55.215        0.488332374             55.272        0.869191592            -34.483
               555       0.869809304            -34.406        0.487836228             55.148        0.489017103              55.19        0.868908506             -34.52
               556       0.869487947            -34.394        0.488273963             55.109        0.490076148             55.239        0.868387505            -34.551
               557        0.86858906            -34.457        0.489513141             55.043        0.490528624             55.145        0.868489066            -34.625
               558       0.868528954            -34.531        0.490043126              55.01        0.491059708             55.084        0.867829285            -34.637
               559       0.868167155            -34.583        0.490798641             54.989        0.491873416             55.038        0.867667541            -34.695
               560       0.867453443            -34.648        0.491582229             54.882        0.492431895             54.995        0.867553318            -34.764
               561        0.86741615            -34.675        0.492467419             54.844        0.493205037              54.95         0.86651783            -34.813
               562        0.86708123            -34.706        0.492787616             54.808        0.493696201             54.869        0.866183258            -34.878
               563       0.866837593            -34.771         0.49333024             54.724        0.494524414             54.862        0.865441541            -34.901
               564       0.866337088            -34.852        0.494068206             54.649        0.495150141             54.714        0.865240634            -35.041
               565       0.866086795            -34.857        0.494836147             54.683        0.495976863             54.706        0.864791509            -35.044
               566       0.865847874            -34.941        0.495440602             54.561        0.496468382             54.676        0.864453416            -35.119
               567       0.865074089             -35.01        0.496367461             54.496         0.49699647             54.579        0.864178195            -35.165
               568       0.864771147            -35.097        0.497280227             54.429        0.497853072             54.499        0.863577246            -35.246
               569       0.864221505            -35.102         0.49753664             54.399         0.49868358             54.475        0.863425894            -35.289
               570       0.863919472            -35.148        0.498681506             54.372        0.499141021              54.41        0.862726747            -35.323
               571       0.863803466            -35.231        0.499016542             54.326        0.500166894             54.373        0.862313018            -35.378
               572       0.862459113            -35.287        0.499791097             54.278        0.500827901             54.304        0.862757048            -35.402
               573       0.862509467            -35.331        0.500396048             54.188        0.501318661             54.255         0.86201311             -35.49
               574       0.862461777            -35.378        0.501290942             54.179        0.501983979              54.23        0.861667786            -35.538
               575       0.861808438            -35.432        0.501950327               54.1        0.502528552             54.149        0.861114182            -35.582
               576       0.861455806            -35.496        0.503017394             54.067        0.503075309             54.081        0.860860939            -35.653
               577       0.860696427            -35.522        0.503094999                 54        0.503906546             54.059        0.860399204            -35.698
               578       0.860839609            -35.561        0.503932353             53.986        0.504745251             54.028        0.859948101            -35.735
               579       0.860009899            -35.648        0.504723412             53.937        0.505130335             53.923        0.860108917            -35.789
               580        0.85997554            -35.697        0.505342819             53.877        0.506041459             53.875        0.859084927            -35.844
               581       0.859706084            -35.719         0.50576643             53.833        0.506523968             53.862         0.85782757            -35.904
               582        0.85869602            -35.807        0.506920028             53.756        0.507211918             53.798        0.858992655            -35.948
               583       0.858420341            -35.864        0.507457879             53.668        0.507983961             53.727        0.858025115            -36.022
               584        0.85821806            -35.889        0.507864258              53.65        0.508624937             53.702        0.857822926            -36.047
               585       0.858141345             -35.98        0.508813736             53.581        0.509341223             53.628        0.857153942            -36.134
               586        0.85799747            -36.028        0.509431748             53.559        0.510077313             53.552        0.856418435            -36.197
               587       0.857037845            -36.099        0.510093747              53.45        0.510798955             53.481        0.856248848            -36.263
               588       0.857136521            -36.154           0.510505             53.437         0.51156403             53.399        0.855460576            -36.327
               589       0.856539511            -36.141        0.511443191             53.452        0.512268205             53.442        0.855652455            -36.317
               590       0.855657576            -36.201        0.511976468             53.322        0.512802342             53.354        0.855263622            -36.405
               591       0.855263622            -36.282        0.512802342             53.286        0.513393068             53.317        0.855263622            -36.435
               592       0.854968275             -36.32        0.513747829             53.215        0.513688685              53.31         0.85427953            -36.504
               593       0.855193443            -36.351        0.514356654             53.205        0.514593578             53.248        0.854012765            -36.568
               594       0.854082847            -36.431        0.515050722             53.164        0.514813587             53.121        0.853100114            -36.599
               595       0.854287124             -36.52        0.515529902             53.059         0.51612377             53.067        0.852813096            -36.686
               596       0.853589404            -36.543        0.516534121             53.053        0.516950566             53.091        0.852999969            -36.688
               597       0.853172483             -36.61        0.517174186             52.993        0.517293284             52.961        0.852779673            -36.802
               598       0.852707337            -36.618        0.517189858             52.933        0.517904876             52.959        0.851824251            -36.835
               599       0.852020413            -36.692        0.518382104             52.846        0.518620883             52.898        0.851628134            -36.923
               600        0.85208475            -36.754        0.519137968              52.82        0.519317303             52.859        0.851398328            -36.934
               601       0.851621092            -36.808        0.519572802             52.746        0.520171327             52.796        0.850935043            -37.006
               602       0.851330764            -36.835        0.520413229             52.724        0.520652943             52.766         0.85054702            -37.044
               603       0.850648225            -36.922        0.521434785              52.66        0.520954747             52.682        0.850354472            -37.119
               604       0.850540434            -36.974        0.521849131             52.604        0.522029402             52.661        0.849659591            -37.138
               605       0.850103248            -37.015        0.522422262             52.568        0.522542568             52.567         0.84902734            -37.187
               606       0.849376029            -37.091        0.523118405             52.528        0.523058182               52.5        0.848789503            -37.283
               607       0.848789503            -37.154        0.523660722              52.46        0.523901932             52.486        0.848789503            -37.326
               608       0.848691788            -37.199        0.524203601             52.398        0.524565833             52.418        0.847910474            -37.392
               609       0.848549024            -37.248        0.525021318             52.322        0.525565608              52.39        0.847865449            -37.458
               610       0.847809846            -37.264        0.526197107             52.316        0.525894291             52.339         0.84790746            -37.516
               611       0.847616026            -37.353        0.526319134             52.233        0.526561569             52.239        0.847128239             -37.56
               612       0.847227414            -37.415        0.527047794             52.171        0.527290564             52.206        0.846350003            -37.603
