!{501R14S390}
!Johanson Technology Inc.
!www.johansontechnology.com
!Test Board Conditions:
!Substrate Type  RO4350B
!Substrate Thickness        20 mil
!Substrate Dk      3.66
!TL Type: GCPW 
!TL Trace Width  36 mil
!TL Gap  12 mil
!Electrode orientation      Horizontal
!DUT TOPOLOGY	SERIES
!Mounting Pad LxW         26x36 mil
! Created Wed Mar 11 16:07:30 2020
# mhz S ma R 50
! 2 Port Network Data from SP1.SP block
! freq  magS11  angS11  magS21  angS21  magS12  angS12  magS22  angS22  
!     
               500      0.0553286406            -89.406        0.996666819             -1.146        0.995978584              -1.14       0.0554051328            -90.364
               501      0.0552013883            -89.632        0.995978584             -1.183        0.997011115             -1.164       0.0552458933            -90.423
               502      0.0550110583            -89.777        0.996781571             -1.198         0.99735553             -1.203       0.0547898359            -90.557
               503      0.0546890022            -89.696        0.996437354             -1.214        0.997240712             -1.241       0.0547393959            -90.576
               504      0.0542687727            -89.762        0.996781571             -1.267        0.997125907             -1.221        0.054600925            -90.783
               505      0.0543187791            -89.686         0.99735553             -1.248        0.996781571             -1.247        0.054275021            -90.622
               506      0.0540816583            -89.842        0.995405417             -1.234        0.997240712             -1.272       0.0540816583            -90.461
               507      0.0535981747             -89.92        0.996207943             -1.321        0.996093257             -1.287       0.0535611632             -90.53
               508      0.0537155467            -89.799         0.99655208              -1.29        0.997125907              -1.32         0.05365374            -90.652
               509      0.0535180154            -89.543        0.995978584              -1.34        0.996322642             -1.365       0.0533764886            -90.434
               510      0.0531802041            -89.668        0.996666819             -1.369        0.996207943             -1.399       0.0528384416            -90.572
               511      0.0527229861            -89.921        0.996437354             -1.367        0.997011115             -1.386        0.052996843            -90.709
               512      0.0527776441            -89.902        0.995978584             -1.446        0.997011115             -1.423        0.052589616            -90.752
               513      0.0523962252            -89.863         0.99735553             -1.416        0.996781571             -1.407       0.0523479887            -90.748
               514      0.0522035455            -89.818        0.997011115             -1.414         0.99655208             -1.461       0.0523721014            -90.559
               515       0.051850148            -89.867        0.996781571               -1.5        0.997470361             -1.491       0.0516832719            -90.821
               516       0.051736852            -89.965        0.996896336             -1.509         0.99735553             -1.544       0.0515406629             -90.89
               517      0.0513925302            -89.957        0.997125907             -1.514        0.996666819             -1.557       0.0512684279            -90.817
               518      0.0512035415            -90.159        0.996896336             -1.539        0.996781571             -1.525       0.0510622562            -90.938
               519      0.0508334985            -90.004        0.997814935              -1.52        0.997011115             -1.554        0.051074015            -91.009
               520       0.050792548            -89.981        0.996437354             -1.631        0.997470361             -1.568       0.0506640612            -91.224
               521       0.050518448            -90.114        0.997470361             -1.638        0.997125907             -1.613       0.0504661298            -91.131
               522      0.0502805477            -89.889        0.996781571             -1.636        0.996666819             -1.636       0.0503616557            -91.131
               523      0.0498712209            -89.997        0.996781571             -1.671        0.997125907             -1.673       0.0499401681            -91.032
               524      0.0496078037            -90.154        0.997240712             -1.699        0.996666819             -1.715       0.0498884487            -91.284
               525      0.0496821063             -90.05        0.996093257             -1.724        0.996437354             -1.696       0.0495450191            -91.169
               526      0.0491529966            -90.219        0.997125907             -1.719        0.997470361             -1.707       0.0494994074            -91.232
               527      0.0491190547            -90.126        0.996666819             -1.745        0.997125907             -1.757        0.048792155            -91.043
               528       0.048983521            -90.091         0.99655208              -1.74        0.997011115             -1.753       0.0487865379            -91.079
               529      0.0484674309            -90.108         0.99735553             -1.813        0.996666819             -1.776       0.0487696906             -91.17
               530      0.0484730113            -90.289        0.996322642             -1.815        0.997585206             -1.809       0.0482225309            -91.578
               531      0.0483114419            -90.243        0.996781571             -1.843        0.997814935             -1.832       0.0481670446            -91.134
               532       0.047967822            -90.029        0.996437354             -1.903        0.996781571             -1.852        0.048028608            -91.154
               533      0.0476705321            -90.191        0.996322642             -1.902        0.995978584             -1.877       0.0478244517            -91.231
               534      0.0473532728            -90.125        0.997011115             -1.909        0.996781571             -1.884       0.0475882791            -91.417
               535      0.0475773228            -90.452        0.996896336             -1.935        0.997011115             -1.903       0.0471085785            -91.168
               536      0.0471682757            -90.016        0.996896336             -1.935        0.996896336             -1.917       0.0469191353            -91.562
               537      0.0468975333            -90.511        0.996437354             -1.986         0.99655208             -1.972       0.0466176095            -91.431
               538      0.0467519791            -90.736        0.996896336             -1.999        0.996781571             -1.951       0.0466283449            -91.373
               539      0.0462807086             -90.63        0.997011115              -1.99        0.996896336             -1.982       0.0464247956            -91.687
               540      0.0459515325            -90.433        0.997240712             -2.055        0.997240712             -2.043       0.0461636352            -91.541
               541      0.0460203588             -90.18        0.997011115             -2.068        0.997929819             -2.052       0.0460839822            -91.448
               542      0.0458564045            -90.377        0.998159627             -2.043        0.996781571              -2.06       0.0458775271            -91.489
               543      0.0456614817            -90.459        0.997011115             -2.058        0.997240712             -2.099       0.0453680382            -91.613
               544      0.0454150713            -90.563        0.997585206             -2.128        0.997814935              -2.08        0.045483094            -91.736
               545      0.0451751913            -90.484        0.996437354             -2.152        0.997700064             -2.134       0.0449210604            -91.637
               546      0.0448177449            -90.952        0.997814935             -2.182        0.997240712             -2.147       0.0449883432            -91.804
               547      0.0445964203            -90.428        0.997585206             -2.196        0.996896336             -2.149       0.0445656248            -91.647
               548      0.0445040977            -90.689        0.996896336             -2.193        0.997240712             -2.164        0.044611826            -91.656
               549      0.0443098214            -90.291        0.997011115             -2.207        0.996666819             -2.164       0.0444068533            -91.784
               550      0.0439693454            -90.609        0.997011115             -2.257         0.99735553             -2.239       0.0438076544            -91.887
               551      0.0438833729            -90.709        0.997240712              -2.26        0.997700064             -2.293       0.0438076544            -91.915
               552      0.0435812819            -90.559        0.996781571             -2.248        0.997240712             -2.253       0.0437421374            -91.716
               553      0.0434874982            -90.659        0.997962963             -2.279        0.998422648             -2.339       0.0433425465             -91.77
               554      0.0430675335            -90.619         0.99735553             -2.272        0.997585206             -2.329       0.0431171454             -91.78
               555      0.0428153994            -90.581        0.997585206             -2.362        0.998159627             -2.356       0.0428449855            -91.757
               556      0.0426677754            -90.856        0.997700064             -2.379        0.997814935             -2.355       0.0427759831            -92.251
               557      0.0424375204            -90.436        0.997929819             -2.421        0.997125907             -2.369       0.0424668453            -91.981
               558       0.042525556             -90.36         0.99735553             -2.379         0.99735553             -2.372       0.0423642966            -92.054
               559      0.0422085079             -90.64        0.997125907             -2.453        0.997470361             -2.401       0.0419420834            -92.127
               560      0.0418793565            -91.136        0.997470361             -2.458        0.997125907             -2.464       0.0418697145            -92.002
               561      0.0417253511            -90.565        0.997585206             -2.456        0.997240712             -2.455       0.0418697145            -92.037
               562      0.0415192978            -90.646        0.996896336             -2.437        0.997125907             -2.486       0.0414619764            -92.098
               563      0.0411055061            -90.738        0.997585206             -2.561        0.997240712             -2.492       0.0413142621            -92.308
               564      0.0411528578            -90.658        0.997240712             -2.519        0.997814935             -2.538       0.0411055061            -92.203
               565      0.0407567927            -90.432        0.997125907             -2.586        0.997470361             -2.561       0.0407333379             -92.18
               566      0.0406443329            -90.513         0.99655208             -2.558        0.997929819             -2.546       0.0406209429            -92.008
               567      0.0404948692            -90.372        0.997700064             -2.633        0.997814935             -2.571       0.0404995316            -92.208
               568      0.0402577965            -90.435        0.997470361             -2.613         0.99735553             -2.555       0.0404622473             -92.12
               569      0.0399530556            -90.568        0.997240712             -2.683        0.997929819             -2.636       0.0399300634            -92.252
               570      0.0399116792             -90.76        0.997814935             -2.658        0.997814935             -2.664       0.0398933034            -92.385
               571      0.0395275594            -90.856        0.998389489             -2.645        0.997585206             -2.665       0.0397786463            -92.543
               572      0.0394003428            -90.553        0.997240712             -2.746         0.99735553             -2.621       0.0394502718            -92.347
               573      0.0391336179            -90.512        0.996896336             -2.744        0.996666819             -2.758       0.0391471365            -92.284
               574       0.038985221            -90.509        0.997585206             -2.696        0.997470361             -2.753       0.0391471365            -92.107
               575      0.0388463304            -90.356        0.996666819             -2.768        0.997470361             -2.787       0.0389448468            -91.553
               576      0.0385966845            -90.304        0.997240712             -2.768        0.996781571             -2.785       0.0386500447            -92.156
               577      0.0384990488            -90.861        0.997929819             -2.829        0.998274551             -2.805        0.038543398            -92.414
               578      0.0380934231            -90.745        0.997011115              -2.82         0.99735553             -2.814       0.0382692543            -92.219
               579      0.0382912902            -90.495         0.99735553             -2.866        0.997470361              -2.81       0.0382604435            -92.015
               580        0.03796208            -90.253        0.998619403             -2.876        0.997240712             -2.855       0.0378922156            -92.468
               581      0.0377746109            -91.123         0.99735553             -2.884        0.998159627              -2.83       0.0376573713            -92.561
               582      0.0375232114            -90.447        0.997240712             -2.938         0.99873438             -2.892       0.0375404954            -92.473
               583      0.0372391706            -90.952        0.997700064             -2.966        0.998044717             -2.958       0.0374024456            -92.613
               584      0.0369232567            -90.592         0.99735553             -2.926        0.997011115             -2.912       0.0370339469            -92.349
               585      0.0369445176            -90.634        0.996896336             -2.953        0.997470361             -2.952       0.0367747729            -92.274
               586      0.0368044219            -90.608        0.997814935             -3.006        0.997011115             -2.969       0.0366184536            -92.547
               587      0.0366479765             -89.91        0.997585206             -3.028         0.99735553             -2.988       0.0365174127            -92.558
               588      0.0363747486            -90.744        0.997125907              -3.04         0.99735553             -2.993       0.0361326655            -92.395
               589      0.0361701242            -90.189         0.99655208             -3.079        0.997700064             -3.033        0.036032965            -92.647
               590      0.0361826191            -90.626        0.997240712             -3.029        0.997125907             -3.044       0.0358797989            -92.643
               591      0.0356410098            -90.696        0.997929819              -3.08        0.997700064             -3.093       0.0358220141             -92.46
               592      0.0355263017            -90.725        0.998044717             -3.078        0.998274551             -3.112       0.0355508509            -92.897
               593      0.0355549441            -90.517        0.997470361             -3.119        0.998274551             -3.141       0.0353427224            -92.781
               594      0.0352492597             -90.43        0.997814935             -3.119        0.997700064             -3.162       0.0350630749            -92.746
               595      0.0350751874            -90.695         0.99735553             -3.155        0.997929819             -3.144       0.0348056701            -92.741
               596      0.0348096775            -90.477        0.998159627             -3.183        0.998274551             -3.183       0.0350227303            -92.682
               597      0.0347136276             -91.11        0.997814935             -3.227        0.997929819              -3.23       0.0346497416            -92.866
               598      0.0344310288            -90.416        0.998274551             -3.287        0.997700064             -3.198        0.034316264              -92.9
               599      0.0343557948            -90.517        0.997125907             -3.278        0.997814935             -3.274       0.0340525783             -92.62
               600      0.0341389375             -90.36        0.997814935             -3.315        0.997585206             -3.239       0.0338922187            -92.816
               601       0.033923449            -90.681        0.997240712             -3.334        0.997240712             -3.307       0.0336085674            -92.869
               602      0.0337598105            -90.591        0.997125907             -3.284        0.996896336             -3.267       0.0335892263            -92.852
               603      0.0334695598            -90.383        0.998044717             -3.344         0.99735553             -3.351        0.033419504            -92.805
               604      0.0332391569            -90.575        0.997585206              -3.36         0.99735553              -3.29       0.0331665272            -92.625
               605      0.0331054885            -90.351        0.998274551             -3.345        0.997814935             -3.353       0.0332200284            -93.177
               606      0.0329230453            -89.931         0.99735553             -3.404         0.99735553             -3.342        0.032930627            -92.975
               607      0.0327604607            -90.369        0.997011115              -3.41        0.997585206             -3.425       0.0326738266            -93.025
               608      0.0323929127            -90.393        0.997585206             -3.439        0.997125907             -3.369       0.0323966422            -92.145
               609      0.0326024322             -90.58        0.997125907             -3.445        0.997240712             -3.428        0.032232946            -92.706
               610      0.0324152966             -90.77        0.997585206             -3.473        0.997929819             -3.428        0.032579919            -92.916
               611      0.0321884452             -90.66         0.99735553             -3.495        0.998159627             -3.515       0.0317394941            -93.311
               612      0.0319631814            -90.793        0.998044717             -3.506        0.998044717             -3.488       0.0320258009            -93.084
