!{501R14S220}
!Johanson Technology Inc.
!www.johansontechnology.com
!Test Board Conditions:
!Substrate Type  RO4350B
!Substrate Thickness        20 mil
!Substrate Dk      3.66
!TL Type: GCPW 
!TL Trace Width  36 mil
!TL Gap  12 mil
!Electrode orientation      Horizontal
!DUT TOPOLOGY	SERIES
!Mounting Pad LxW         26x36 mil
! Created Wed Mar 11 16:05:11 2020
# mhz S ma R 50
! 2 Port Network Data from SP1.SP block
! freq  magS11  angS11  magS21  angS21  magS12  angS12  magS22  angS22  
!     
               500       0.124093776            -86.298        0.989805813              2.781        0.989236199              2.791        0.124379842            -86.698
               501       0.123908186            -86.425        0.989577928              2.741        0.990375755              2.753        0.124165231            -86.818
               502       0.123694389            -86.528        0.990147739              2.729        0.990603824              2.715        0.123452532            -86.921
               503       0.123140241             -86.46        0.989577928              2.692        0.990489783              2.656        0.123296287            -86.916
               504       0.122659164            -86.496        0.990147739              2.613        0.990946025              2.668        0.122871172            -87.098
               505        0.12246162            -86.465        0.990603824              2.632         0.99026174              2.633        0.122546243            -87.002
               506       0.122250319            -86.566        0.989122315              2.637        0.990946025              2.595        0.122137774            -86.954
               507         0.1215906             -86.63        0.989577928              2.567        0.989805813              2.569        0.121380801            -86.994
               508       0.121478662            -86.614        0.989919775              2.568        0.990375755              2.529        0.121352856            -87.067
               509       0.121045877            -86.549        0.989691864               2.52        0.989919775              2.507        0.120948364            -86.993
               510       0.120642409            -86.662        0.990375755              2.473         0.99026174              2.448        0.120392657            -87.095
               511       0.120184926            -86.699        0.989805813              2.444        0.990603824              2.451        0.120337227            -87.153
               512       0.119922314            -86.704        0.989577928              2.406        0.990603824              2.419        0.119853301            -87.226
               513       0.119591414             -86.78        0.990717878              2.397        0.991060119              2.418        0.119577646            -87.213
               514       0.119151633            -86.778        0.990946025              2.396        0.990489783              2.358        0.119426306            -87.172
               515       0.118754479            -86.809        0.990603824              2.308        0.991288345               2.31        0.118467712            -87.297
               516       0.118440437             -86.85        0.991060119              2.282        0.991402478              2.275        0.118290536            -87.355
               517       0.117991304              -86.9        0.990603824              2.274        0.990603824              2.238        0.117774156            -87.348
               518       0.117638641            -86.913        0.990831945              2.246        0.990946025               2.26        0.117516812            -87.433
               519       0.117098141            -86.862        0.991859141              2.252        0.990946025              2.233        0.117503283            -87.391
               520       0.117030753            -86.994        0.990375755              2.164        0.991744955              2.203         0.11676159            -87.574
               521       0.116452817            -87.017        0.991288345              2.135        0.991288345              2.133        0.116439411            -87.614
               522       0.115997866             -86.94        0.990717878              2.132        0.990717878              2.112        0.116278655            -87.549
               523       0.115704433            -87.027        0.990603824              2.095        0.990946025              2.066          0.1155713             -87.52
               524       0.115358606            -87.096        0.990831945              2.019        0.990946025               2.03        0.115332047            -87.689
               525       0.115146303            -87.088        0.990489783              2.011        0.990831945              2.039        0.114974095            -87.616
               526       0.114511736            -87.182        0.991174225              1.987        0.991973339              2.009         0.11467005            -87.738
               527       0.114300992            -87.176        0.990603824              1.965        0.991288345               1.97        0.113920006            -87.652
               528        0.11394624             -87.14        0.990831945              1.944        0.991402478              1.937        0.113854447            -87.617
               529       0.113566437            -87.195        0.991744955              1.922        0.991174225              1.906        0.113749632            -87.736
               530       0.113357432            -87.286        0.990717878              1.886        0.991744955              1.877         0.11316184            -87.894
               531       0.112927574            -87.277        0.991516624              1.852        0.991859141              1.843        0.112888577            -87.762
               532        0.11260301            -87.282        0.990831945              1.798        0.991288345              1.805        0.112460497             -87.78
               533       0.111982459            -87.348        0.991174225              1.788        0.990147739               1.78        0.112266453            -87.878
               534       0.111609201            -87.297        0.991288345              1.769        0.991288345              1.776         0.11180211            -87.876
               535       0.111699184            -87.429        0.991174225              1.716        0.991630783              1.757        0.111442283            -87.802
               536       0.111083614            -87.211        0.991174225              1.678        0.990946025              1.722        0.110955798             -88.07
               537        0.11067512            -87.481        0.991174225              1.643        0.991288345              1.662        0.110585962            -88.007
               538       0.110509598            -87.611        0.991744955              1.647        0.991516624              1.685        0.110293521            -88.011
               539       0.109913237            -87.573        0.991859141              1.638        0.991516624              1.649        0.110077866            -88.139
               540       0.109357859            -87.464        0.991744955              1.534        0.992087551              1.574        0.109572104            -88.177
               541       0.109458628            -87.429        0.991630783              1.532        0.992430265              1.547        0.109383043            -88.033
               542       0.109093783            -87.545        0.992773098              1.554        0.991744955              1.537          0.1091566            -88.141
               543       0.108867939            -87.608        0.991630783              1.512        0.992201776              1.508        0.108480081            -88.224
               544       0.108380213            -87.594        0.992201776              1.451        0.992544529              1.488        0.108517555            -88.265
               545       0.108068718            -87.735        0.991516624              1.424        0.992658807               1.43        0.107907095            -88.327
               546       0.107696106             -87.91        0.992430265              1.392        0.992544529               1.42        0.107745713             -88.37
               547       0.107300069            -87.648        0.991973339              1.383        0.992430265              1.401        0.107090267            -88.263
               548       0.107003997            -87.841        0.991859141              1.367        0.991630783              1.365        0.107065611            -88.258
               549       0.106696457            -87.698        0.991859141              1.348        0.992087551              1.362        0.106659612            -88.427
               550       0.106316336            -87.749        0.991516624              1.286        0.992430265              1.293         0.10618178            -88.352
               551       0.106120674            -87.886        0.991859141              1.259        0.992887401              1.244        0.105827857            -88.472
               552        0.10565742            -87.805        0.991630783              1.284        0.992544529              1.248        0.105645256            -88.447
               553       0.105486915            -87.892        0.992998495              1.229        0.993570276              1.191        0.105329153            -88.487
               554       0.104893844             -87.89        0.992658807              1.245        0.992430265              1.185        0.104881768            -88.501
               555        0.10448405            -87.882        0.992658807               1.14        0.993001718              1.152        0.104568289            -88.574
               556       0.104195749            -88.027        0.992544529              1.126        0.992773098              1.161        0.104363828            -88.697
               557       0.103920206            -87.886        0.992887401              1.085        0.992201776              1.124         0.10388432            -88.595
               558       0.103728954            -87.924        0.992773098              1.111        0.992773098              1.106        0.103645392            -88.671
               559       0.103276141            -88.002        0.992658807              1.027        0.992544529              1.083         0.10300303             -88.74
               560        0.10300303            -88.139        0.992430265              1.008        0.992430265              1.017        0.102789795            -88.706
               561       0.102612437            -88.008        0.992430265              1.001        0.992430265              1.009        0.102600624            -88.674
               562         0.1024118            -88.078        0.992201776              1.022        0.993116048              0.963        0.102341081            -88.803
               563       0.101929525            -88.116        0.992544529              0.923        0.992544529              0.958        0.101964736            -88.853
               564       0.101765366            -88.172        0.992773098              0.942        0.993344748               0.91         0.10167168            -88.791
               565        0.10119289            -88.091        0.992430265              0.864        0.992773098              0.864        0.101204541            -88.873
               566       0.101053184             -88.08        0.991859141               0.88        0.993344748              0.863        0.100960153            -88.844
               567       0.100902052            -88.099        0.993116048              0.816        0.993230392              0.844        0.100727951            -88.926
               568       0.100357538            -88.091        0.992773098              0.822        0.992773098              0.857        0.100496283            -88.889
               569      0.0999654672            -88.153        0.992544529              0.738        0.993230392              0.765                0.1            -88.924
               570       0.099907939             -88.34        0.993459118              0.745        0.993573501              0.711       0.0998504439            -89.052
               571      0.0993573501            -88.302        0.993802306               0.76        0.993344748              0.711       0.0995405417            -89.128
               572      0.0991060119             -88.22        0.992544529              0.668        0.992887401              0.745       0.0990147739             -89.06
               573      0.0986052413            -88.306        0.992773098              0.648        0.992658807              0.629       0.0986961019             -89.16
               574      0.0984124401            -88.291        0.993344748              0.688        0.992887401              0.604       0.0985825392            -89.001
               575      0.0980957066            -88.272        0.992544529              0.616        0.993001718              0.583       0.0981634922            -88.907
               576      0.0978700928            -88.255        0.992430265               0.61        0.992316014              0.577       0.0977687359            -88.961
               577      0.0976899753            -88.476        0.993344748              0.548        0.993573501              0.559       0.0977462264            -89.216
               578      0.0971851703            -88.518        0.992430265              0.516        0.993344748              0.533       0.0972411307            -89.138
               579      0.0972747224            -88.424        0.992773098              0.521        0.993344748              0.511       0.0970957007            -89.206
               580      0.0966829738             -88.21        0.994031163              0.488        0.993116048               0.47       0.0966495864            -89.302
               581      0.0964161976            -88.645        0.993344748              0.439        0.994031163              0.473       0.0961944465            -89.414
               582      0.0961280207             -88.47        0.993116048              0.381        0.994374549              0.408       0.0961390884            -89.411
               583      0.0957083877            -88.644        0.993116048              0.377        0.993802306              0.385       0.0957965789             -89.46
               584      0.0952686476            -88.569        0.993230392              0.414        0.993116048              0.384         0.09546628            -89.276
               585      0.0952357486            -88.574        0.992887401              0.355        0.993344748              0.361       0.0950495358             -89.35
               586      0.0949510999            -88.583        0.993687897              0.289        0.992887401              0.326       0.0947218126            -89.494
               587      0.0945039584            -88.436        0.993230392              0.263        0.992773098              0.274       0.0944495733            -89.477
               588      0.0942974611            -88.792        0.992887401               0.28        0.994031163              0.274        0.094080583             -89.48
               589      0.0938858192             -88.47        0.992430265              0.204        0.993459118              0.236       0.0936591043            -89.506
               590      0.0938317897            -88.581        0.992887401              0.263        0.993230392              0.221       0.0935297988            -89.558
               591      0.0932609854            -88.695        0.993802306              0.204        0.993459118              0.165        0.093379168            -89.594
               592      0.0931322296            -88.752        0.994031163              0.199        0.994489037              0.142       0.0929822391            -89.692
               593       0.092939429            -88.696        0.993687897              0.137        0.994489037              0.128       0.0927470276             -89.74
               594      0.0925124111            -88.712        0.994031163              0.127        0.993573501                0.1       0.0924059636            -89.719
               595      0.0923208937            -88.806        0.993573501              0.077        0.993916728              0.101       0.0921403802            -89.726
               596      0.0917698454            -88.744        0.994145612              0.073        0.994260074              0.038       0.0920343607            -89.737
               597       0.091622049            -88.988        0.994260074              0.018        0.994145612              0.021       0.0917381547            -89.828
               598      0.0912641052            -88.767        0.994603539              -0.05        0.993687897           0.007525       0.0911695896            -89.948
               599      0.0910961452            -88.794        0.993116048             -0.032        0.993916728             -0.062       0.0908447847            -89.705
               600      0.0906984782            -88.721        0.994031163             -0.072        0.993802306             -0.061       0.0905211369            -89.847
               601      0.0904586287            -88.794        0.993459118             -0.096        0.993116048             -0.081       0.0901674941            -89.909
               602      0.0902194136            -88.853        0.993344748             -0.073        0.993344748              -0.08       0.0899601146            -89.894
               603      0.0897945545            -88.812        0.994374549             -0.165        0.993344748             -0.194       0.0895983475            -89.945
               604      0.0895570955             -88.82        0.993802306             -0.173        0.993687897             -0.114        0.089145618            -89.916
               605       0.089227762            -88.883        0.994489037             -0.186        0.994374549             -0.185       0.0893614074            -90.165
               606      0.0888996395            -88.693        0.993802306              -0.22        0.993344748             -0.193       0.0889405888            -90.037
               607      0.0886339287            -88.948        0.993687897             -0.233        0.994145612             -0.261       0.0885931207            -90.097
               608      0.0882673321            -88.964        0.993916728              -0.29        0.993344748             -0.202       0.0881353229             -89.91
               609      0.0882876587            -89.016        0.994031163             -0.284        0.993802306             -0.286       0.0880035112            -90.039
               610      0.0880237771            -89.147        0.994260074             -0.323        0.994489037             -0.263       0.0882571705            -90.107
               611      0.0876697968            -89.143        0.994260074             -0.318        0.994603539             -0.364        0.087287087            -90.303
               612      0.0873071879            -89.107        0.994489037              -0.35        0.994031163             -0.349       0.0873172401            -90.171
