!{501R14S430}
!Johanson Technology Inc.
!www.johansontechnology.com
!Test Board Conditions:
!Substrate Type  RO4350B
!Substrate Thickness        20 mil
!Substrate Dk      3.66
!TL Type: GCPW 
!TL Trace Width  36 mil
!TL Gap  12 mil
!Electrode orientation      Horizontal
!DUT TOPOLOGY	SERIES
!Mounting Pad LxW         26x36 mil
! Created Wed Mar 11 16:07:48 2020
# mhz S ma R 50
! 2 Port Network Data from SP1.SP block
! freq  magS11  angS11  magS21  angS21  magS12  angS12  magS22  angS22  
!     
               500      0.0358797989            -89.715        0.997929819             -1.651        0.997011115             -1.614       0.0358674086            -90.647
               501      0.0357272838            -89.926        0.997125907             -1.682        0.997814935             -1.656       0.0356738515            -90.547
               502      0.0356451133            -90.413        0.997929819               -1.7        0.998619403             -1.696       0.0350994248            -90.779
               503      0.0353671448            -89.802        0.997470361             -1.711        0.998389489             -1.716       0.0352289744            -90.949
               504      0.0349784048            -90.214        0.997700064             -1.765        0.998619403             -1.725       0.0348658293            -91.149
               505      0.0349301138             -89.95        0.998504439             -1.712        0.997814935             -1.741        0.034673685            -90.782
               506      0.0347456147            -90.301        0.997125907             -1.723         0.99873438             -1.782       0.0344468886             -90.84
               507      0.0342965156            -90.264        0.997470361             -1.804        0.997814935             -1.776       0.0339899089            -90.912
               508      0.0343755773            -90.071        0.997585206             -1.777        0.997929819             -1.803       0.0340800325             -91.03
               509      0.0341703951            -89.891        0.997470361             -1.829        0.997585206             -1.848       0.0337792498            -90.709
               510      0.0338337394            -89.989        0.997929819             -1.845         0.99735553             -1.869        0.033200911            -90.646
               511      0.0334156567            -90.355        0.997814935             -1.866        0.998159627             -1.884       0.0333234532            -90.998
               512      0.0332927753            -90.211        0.997125907             -1.922        0.997929819              -1.93       0.0329761538            -91.007
               513       0.033174165            -90.451        0.998504439              -1.91        0.998619403             -1.879       0.0328586715            -91.197
               514      0.0328662383            -90.323        0.998389489             -1.903        0.997929819             -1.924       0.0328624547            -90.901
               515      0.0324152966            -90.046        0.998504439             -1.991        0.998619403             -1.962       0.0321699214            -91.203
               516      0.0324003723            -90.284        0.998504439             -1.984        0.998504439             -2.006       0.0319668615            -91.239
               517      0.0320811553            -90.161        0.997814935             -2.004        0.997929819             -2.021       0.0316883773            -91.217
               518      0.0318419752            -90.558        0.998159627             -2.023        0.998044717             -2.017        0.031470236            -91.439
               519      0.0313977308            -90.333        0.999264507             -1.989        0.997810941             -2.025       0.0315644526            -91.387
               520      0.0314304066            -90.442        0.997814935              -2.08        0.998389489             -2.047       0.0309492408            -91.579
               521      0.0311745361            -90.645        0.998619403             -2.094        0.998274551             -2.102       0.0309349914            -91.602
               522      0.0307928581            -90.327        0.998619403             -2.111        0.998159627             -2.132       0.0306725583            -91.631
               523      0.0305632828            -90.559        0.998274551             -2.142        0.998274551             -2.133       0.0304088503            -91.359
               524      0.0303354191            -90.465        0.998619403             -2.189        0.998044717             -2.199       0.0302795907            -91.795
               525      0.0302238649             -90.36        0.997700064              -2.18        0.997700064             -2.152       0.0299536672            -91.522
               526      0.0297337715            -90.667        0.998504439             -2.198        0.998619403              -2.17       0.0298435168            -91.773
               527      0.0296893029            -90.639        0.997585206             -2.207        0.998389489             -2.219       0.0292213314            -91.152
               528      0.0294306599            -90.252        0.997929819              -2.24        0.998389489             -2.217        0.029160838            -91.405
               529      0.0291339922            -90.393        0.998619403             -2.271        0.998044717             -2.262       0.0291306382            -91.441
               530      0.0291675533            -90.731        0.997585206             -2.276        0.998389489             -2.283       0.0286846794            -92.139
               531      0.0287772971            -90.518        0.998044717             -2.303         0.99873438             -2.327       0.0285495982            -91.339
               532      0.0286285927            -90.218        0.997700064              -2.35        0.998274551              -2.33       0.0284380622            -91.652
               533      0.0282000579            -90.606        0.997929819             -2.349        0.997125907             -2.345       0.0282195445            -91.725
               534      0.0279125812            -90.467        0.998504439             -2.353        0.997929819             -2.356       0.0278740452            -91.756
               535      0.0281805847            -90.751        0.998044717               -2.4        0.998274551             -2.358       0.0275708401            -91.583
               536      0.0277683452            -89.956        0.997700064              -2.42        0.997700064             -2.388       0.0273086355            -92.093
               537      0.0273747398            -90.852        0.997814935             -2.448        0.997814935             -2.437       0.0269339469            -91.796
               538      0.0272740731             -91.54        0.998044717             -2.448        0.997929819             -2.404       0.0269742886            -91.532
               539      0.0267731826            -91.254        0.998389489             -2.449        0.997814935             -2.438       0.0267793481            -91.919
               540      0.0264636656            -90.393        0.998274551             -2.538        0.998389489             -2.516       0.0264758554            -92.052
               541      0.0266133778            -90.163        0.997929819             -2.533        0.998619403             -2.498       0.0263906447            -91.476
               542      0.0263602788            -90.709        0.998990941             -2.503        0.998159627             -2.508       0.0262119904            -92.015
               543      0.0262210453             -90.91        0.998044717             -2.522        0.998389489             -2.537       0.0258344964            -91.911
               544      0.0260045893            -90.489        0.998274551             -2.587        0.998894565             -2.534       0.0257039578            -92.067
               545      0.0257039578            -90.925        0.997814935             -2.608         0.99884937             -2.572       0.0254097271            -92.249
               546      0.0253629637            -91.617        0.998945857              -2.64         0.99873438             -2.592       0.0252522453            -92.303
               547      0.0250726362            -90.783         0.99884937             -2.634        0.998274551             -2.611       0.0249948192             -91.81
               548      0.0251159726            -91.392        0.998504439             -2.636        0.998044717             -2.627       0.0250034536            -91.628
               549      0.0249660594            -90.368        0.997814935             -2.647        0.997929819             -2.615       0.0247001733            -92.168
               550      0.0246632327            -90.659        0.998159627             -2.703        0.998274551             -2.696       0.0241796494            -92.044
               551      0.0245216675            -91.022        0.998504439             -2.729         0.99873438             -2.734       0.0241407078             -92.44
               552      0.0241157071            -91.025        0.998159627             -2.688        0.998389489             -2.707       0.0241046039            -91.922
               553       0.023975488            -90.532        0.998805339             -2.728        0.999299696             -2.778       0.0236601479            -92.113
               554      0.0235911982            -90.905        0.998389489             -2.697         0.99873438             -2.758       0.0234314951            -91.975
               555      0.0233077312            -90.566        0.998619403             -2.788         0.99873438             -2.814       0.0231366246            -92.211
               556      0.0231100029             -91.01         0.99884937             -2.807        0.998619403             -2.784       0.0231606103            -92.782
               557      0.0231073424            -90.519        0.998619403             -2.872        0.998274551             -2.832       0.0227274128            -92.289
               558      0.0230250191            -90.634         0.99873438             -2.809        0.998504439             -2.807       0.0226673108            -92.869
               559      0.0225891558             -90.89        0.998274551             -2.884        0.998389489             -2.831       0.0222484623            -92.721
               560      0.0224052606            -91.221        0.998274551             -2.884        0.998159627             -2.915       0.0221921817             -92.06
               561      0.0222689633            -90.668        0.998619403             -2.876        0.998044717             -2.885       0.0220571806            -92.318
               562      0.0220495637             -91.07        0.998274551             -2.862        0.998504439             -2.929       0.0218097155            -92.449
               563      0.0216197168            -90.678        0.998504439             -2.962        0.998044717             -2.941       0.0215799284            -92.643
               564      0.0216970155             -90.89         0.99884937             -2.948        0.998504439             -2.972       0.0213476464            -92.331
               565      0.0213255382            -90.603        0.998274551             -3.021        0.998274551             -2.975       0.0211641095            -92.521
               566        0.02115193            -90.432        0.997585206             -2.997        0.998619403             -3.006       0.0209266639            -92.113
               567      0.0210523218            -89.882        0.998619403             -3.039        0.998389489             -2.994       0.0208041511            -92.236
               568      0.0207897851            -90.315        0.998044717             -3.025        0.998159627             -2.997       0.0206942647            -92.131
               569       0.020398583            -90.262        0.998159627             -3.108        0.998619403             -3.098       0.0202255341            -92.205
               570      0.0203633863             -91.34        0.999021995             -3.091        0.998504439             -3.101       0.0200678109            -92.595
               571      0.0199825082            -90.929         0.99954845             -3.061         0.99884937             -3.121       0.0198906969            -92.979
               572       0.019803867            -90.146        0.998159627             -3.151        0.998159627             -3.077       0.0197605942            -92.681
               573      0.0194782529            -90.168        0.998044717             -3.172        0.997929819             -3.161       0.0195051817            -92.811
               574      0.0193976894            -90.157        0.998504439              -3.13        0.998389489             -3.196       0.0194088588             -92.06
               575       0.019250854            -90.299        0.997929819             -3.191        0.998389489             -3.215       0.0192176376            -91.085
               576      0.0191073298            -89.628        0.998159627             -3.193        0.997929819             -3.194        0.018927794            -92.261
               577      0.0190085942            -90.692        0.998890195             -3.249        0.998920325             -3.203       0.0188538479            -92.674
               578      0.0187111293            -90.819        0.997470361             -3.243        0.998159627             -3.224       0.0185267824             -91.96
               579      0.0187780288            -90.474        0.998044717             -3.288        0.998504439             -3.257       0.0184884286            -91.827
               580      0.0182810022            -89.722        0.999401162              -3.28        0.998389489             -3.271       0.0181739781             -92.63
               581      0.0180530257            -91.752        0.998159627              -3.31        0.999241011             -3.262       0.0177930336            -92.817
               582      0.0180296829            -90.177        0.998017346             -3.366         0.99961149             -3.319       0.0176598939            -92.538
               583       0.017668513            -90.373        0.998159627             -3.395        0.999005318             -3.348       0.0175287118            -93.288
               584      0.0173540163            -90.201        0.998159627             -3.322        0.998044717             -3.334       0.0173840115            -92.362
               585      0.0175206414            -90.153        0.998044717             -3.346        0.998159627             -3.351       0.0170411932             -92.21
               586      0.0171553665            -89.881         0.99873438             -3.421        0.997814935             -3.391       0.0167667929            -92.626
               587      0.0170765447            -89.251        0.998619403             -3.431        0.998044717             -3.409        0.016685914            -92.428
               588      0.0168635886            -90.955        0.997814935             -3.422        0.999062827             -3.409       0.0164191247            -92.094
               589      0.0166532883            -89.082        0.997585206             -3.471        0.998274551             -3.439         0.01618639             -91.92
               590      0.0165519818              -89.3        0.997929819              -3.45        0.997929819             -3.472       0.0161528812            -92.484
               591      0.0161138754            -90.296        0.998504439             -3.482        0.998389489             -3.502       0.0159477713            -92.174
               592      0.0159698192            -90.434         0.99873438             -3.494        0.999476644             -3.522       0.0157398286            -93.276
               593      0.0159257539            -89.923        0.998619403             -3.521        0.999321773             -3.547       0.0155167227            -92.636
               594      0.0156296769            -89.642        0.998504439             -3.532        0.998159627             -3.545        0.015273902            -92.383
               595      0.0155131503            -90.035        0.998389489             -3.559        0.998619403             -3.537       0.0150141241            -92.569
               596      0.0150487352            -89.679        0.998504439             -3.594         0.99889836             -3.588       0.0151425843            -92.473
               597      0.0150296892            -90.567         0.99888364             -3.612         0.99891492              -3.62       0.0149039025            -92.655
               598      0.0147893811            -89.011         0.99884937             -3.653        0.998389489             -3.616       0.0144793811            -92.952
               599      0.0147757658            -89.204        0.997700064             -3.665        0.998619403             -3.674       0.0142823608            -92.056
               600      0.0144960607            -88.998         0.99884937             -3.711        0.998504439             -3.646       0.0139894294            -92.257
               601      0.0143797058            -89.208        0.998159627             -3.721        0.997700064             -3.692       0.0138516019            -92.107
               602      0.0141432755            -89.427        0.998044717             -3.681        0.997814935             -3.657       0.0137736804            -92.783
               603      0.0138723488            -88.601        0.998504439             -3.737        0.998159627             -3.748       0.0134849705             -92.14
               604      0.0136395487            -88.792        0.998504439             -3.764        0.998274551             -3.694       0.0132938263            -91.599
               605      0.0133705724             -88.88        0.998973344             -3.757        0.998887665             -3.783       0.0134338347            -93.536
               606      0.0133567255            -87.964        0.998274551             -3.799        0.998274551             -3.756       0.0130106801            -91.998
               607      0.0131340904            -89.224        0.997929819             -3.792        0.998389489             -3.807       0.0127423638            -92.707
               608      0.0128115006            -89.077        0.998274551             -3.825        0.998274551              -3.76       0.0126197282            -90.944
               609      0.0129181404            -88.501        0.997585206             -3.837        0.997929819             -3.825       0.0123083546            -91.477
               610       0.012567532            -89.014         0.99873438             -3.876        0.998389489             -3.832       0.0125878048              -92.2
               611      0.0123908186            -89.512        0.998274551             -3.882        0.999238135             -3.905       0.0117679279            -92.692
               612      0.0122532135            -88.906         0.99873438             -3.892        0.998961383             -3.882       0.0119770538            -92.736
