!{501R14S120}
!Johanson Technology Inc.
!www.johansontechnology.com
!Test Board Conditions:
!Substrate Type  RO4350B
!Substrate Thickness        20 mil
!Substrate Dk      3.66
!TL Type: GCPW 
!TL Trace Width  36 mil
!TL Gap  12 mil
!Electrode orientation      Horizontal
!DUT TOPOLOGY	SERIES
!Mounting Pad LxW         26x36 mil
! Created Wed Mar 11 16:03:36 2020
# mhz S ma R 50
! 2 Port Network Data from SP1.SP block
! freq  magS11  angS11  magS21  angS21  magS12  angS12  magS22  angS22  
!     
               500       0.246093419            -79.038        0.965494935             10.196        0.966162106             10.135        0.246575544             -79.37
               501       0.245357874            -79.108        0.966162106             10.083        0.966607143             10.074        0.245951797            -79.479
               502       0.244568207            -79.217        0.966273346             10.026        0.966495864             10.031        0.245273145            -79.536
               503       0.244230557            -79.223        0.965161523             10.003        0.966162106              9.973        0.244371188            -79.533
               504        0.24350058            -79.246        0.965606099              9.935        0.966829738               9.94        0.243921454             -79.61
               505       0.242968515            -79.268        0.966495864              9.958        0.966495864              9.919        0.243444518            -79.648
               506       0.242465527            -79.326        0.966050879              9.906        0.967275082              9.841        0.242577212            -79.727
               507       0.241768658            -79.452        0.966829738              9.829        0.966941055               9.79        0.242158657            -79.762
               508       0.241268153              -79.4        0.966050879              9.748        0.967275082              9.798        0.241657345            -79.769
               509       0.241046039            -79.491        0.966607143               9.74        0.968500836              9.734         0.24101829            -79.851
               510       0.239938533            -79.451         0.96738645              9.679        0.967163727              9.732        0.240519338            -79.871
               511       0.239193845            -79.515        0.966384599              9.638        0.967275082              9.662        0.239745244            -79.891
               512       0.238836116            -79.597         0.96738645              9.603         0.96783205              9.607         0.23938669            -79.936
               513       0.238259376            -79.663        0.967720631              9.534        0.968277856              9.531         0.23869867            -80.029
               514       0.237684029            -79.629        0.967720631              9.511        0.968054928              9.533        0.238177098            -80.029
               515       0.237301236            -79.735        0.967275082              9.459        0.969393269              9.495        0.237547246            -80.107
               516       0.236782717             -79.75        0.968277856              9.466        0.968723867              9.478        0.237301236            -80.152
               517       0.235911982             -79.79        0.968277856              9.362        0.968835402              9.414        0.236210936             -80.22
               518       0.235586283            -79.913        0.968277856              9.347         0.96894695              9.317        0.235749076            -80.178
               519       0.234990335            -79.904         0.96783205              9.289        0.968835402              9.313        0.235206869            -80.208
               520        0.23461188            -79.893        0.968612345              9.248        0.969170084              9.289        0.234990335            -80.278
               521       0.233533937            -79.942        0.968277856              9.177        0.968723867              9.223        0.233802957            -80.375
               522       0.233238371            -79.951        0.968612345              9.182         0.96894695              9.194        0.233560825             -80.45
               523        0.23238067            -80.047        0.968500836              9.149        0.969170084              9.106        0.232916363            -80.449
               524        0.23224694            -80.069        0.969170084              9.102        0.969504881              9.135        0.232648362            -80.458
               525        0.23133961            -80.131         0.96894695               9.07        0.969393269              9.006        0.231739465            -80.528
               526       0.231020224            -80.102        0.968835402              9.031         0.97039824              9.017        0.231073424            -80.647
               527       0.230409298            -80.114        0.968835402              9.036        0.969951458              8.978         0.23054197            -80.564
               528       0.229667742            -80.253        0.969728144              8.956        0.970509967              8.935        0.230223684            -80.645
               529       0.229588431            -80.275        0.969728144              8.897        0.970509967              8.899        0.229614865            -80.626
               530       0.228744152            -80.305        0.970174823              8.868        0.970286525              8.867        0.229165903            -80.727
               531       0.228244331            -80.348        0.970509967               8.81        0.970509967              8.825        0.228586196            -80.788
               532       0.227588336            -80.406        0.970174823              8.761        0.970845227              8.767        0.228060462            -80.874
               533       0.226986485            -80.445        0.969839794              8.721        0.969951458              8.708        0.227038757             -80.83
               534       0.226673108            -80.534         0.97039824              8.683        0.970509967              8.679        0.226620921            -80.869
               535       0.225943577            -80.504         0.97039824              8.643        0.970845227              8.648        0.226516582            -80.938
               536       0.225346076            -80.549        0.971180603              8.575         0.97039824              8.645        0.225813551            -80.932
               537       0.224646678            -80.578        0.970733461              8.571        0.970063134              8.602         0.22539797            -80.913
               538       0.224310705            -80.662        0.970621708              8.508        0.971627952              8.502        0.224569101            -81.059
               539       0.224181618            -80.737        0.971739821              8.531        0.971739821              8.447        0.224284882            -81.103
               540       0.223280091            -80.726        0.971292421              8.419        0.971627952              8.443        0.223460106            -81.197
               541       0.222792209            -80.764        0.971516095              8.429        0.971180603               8.42        0.223202986            -81.127
               542       0.222484623            -80.855        0.971627952              8.377        0.972411307               8.38        0.222715273            -81.143
               543       0.221896269            -80.852        0.971404252              8.273        0.972075506               8.34        0.221768572            -81.278
               544       0.220622601            -80.939        0.970621708              8.239        0.972635239              8.255        0.221207578            -81.282
               545       0.220597202            -81.022        0.971627952              8.221        0.972187427              8.234        0.221003932            -81.342
               546       0.219861912            -80.947        0.971516095              8.189        0.971516095              8.218         0.22031801            -81.274
               547       0.219558371            -80.983        0.971180603               8.16        0.972971233              8.174        0.220039171            -81.431
               548       0.219255249            -81.063        0.971292421              8.145         0.97229936              8.115        0.219280494             -81.38
               549       0.218700613            -81.155        0.971963598              8.112        0.972411307              8.088        0.218801351            -81.406
               550       0.217946551            -81.054        0.972075506              7.988        0.972971233              8.053        0.217971644            -81.541
               551       0.217470323            -81.105        0.972075506              8.016        0.972971233              8.013        0.217946551            -81.538
               552        0.21702012            -81.226        0.972635239              7.973        0.973419406              7.986        0.217270118            -81.564
               553       0.216645663            -81.212        0.972635239              7.948        0.972635239              7.935        0.216695554            -81.572
               554       0.216097628            -81.244        0.972411307              7.912         0.97364357              7.936        0.216246955            -81.649
               555       0.215675096            -81.265         0.97229936              7.864        0.974092052              7.887        0.215948405            -81.654
               556       0.214733597            -81.285        0.972747224              7.828        0.973195294              7.821        0.215278173            -81.652
               557       0.214511214            -81.418        0.973307343              7.792        0.973867785              7.748        0.214461826            -81.767
               558       0.214141086            -81.364        0.973083257              7.803        0.972859222              7.725        0.214042493             -81.75
               559       0.213501043            -81.508        0.973195294              7.674        0.974765164              7.714        0.213746986            -81.816
               560       0.212520094            -81.473        0.973307343              7.666        0.974204205              7.589        0.213476464            -81.896
               561       0.212471165            -81.548        0.972747224              7.639        0.974204205               7.66        0.212569035            -81.819
               562        0.21161673            -81.516        0.972971233              7.623        0.973419406              7.558        0.212055724             -81.96
               563        0.21161673            -81.623        0.973307343              7.502         0.97543874              7.582        0.211641095            -82.005
               564       0.210911374            -81.644         0.97364357              7.518        0.974652946              7.518        0.211081417            -81.991
               565       0.210450518            -81.684        0.973419406              7.503         0.97442855              7.452        0.210256776             -81.99
               566       0.209966496            -81.717        0.973307343              7.436        0.974765164              7.413        0.210087397            -82.089
               567       0.209387138             -81.76        0.973867785               7.41        0.974092052              7.421        0.209869825            -82.112
               568       0.209122133            -81.801        0.974989638              7.388        0.975214163              7.389        0.209507705            -82.122
               569       0.208353116            -81.852        0.974540742              7.315        0.975326445              7.254        0.208689212            -82.233
               570       0.208041511            -81.821        0.974652946              7.253        0.975101894                7.3        0.208233213            -82.208
               571       0.207157185            -81.814        0.974092052              7.292        0.974540742              7.247        0.207921787            -82.184
               572       0.206990303             -81.95         0.97442855              7.235        0.974652946              7.243        0.207300333             -82.35
               573       0.206110445            -81.968        0.974989638              7.187        0.974989638                7.2        0.206752134             -82.41
               574       0.206062991            -81.963        0.974989638              7.164        0.975326445              7.143        0.206371633            -82.422
               575       0.205328862            -82.056        0.974540742              7.097         0.97543874              7.103        0.205376146            -82.356
               576       0.205092604            -82.161        0.975326445              7.072        0.975101894              7.053        0.205328862            -82.477
               577       0.204503149              -82.1        0.975551048              7.009        0.975663369              7.058        0.205163453            -82.542
               578       0.203962347            -82.119        0.975663369              6.972         0.97667484              7.021        0.204503149             -82.54
               579        0.20361042            -82.212        0.975775703              6.973        0.976449978              6.961        0.203657309            -82.594
               580       0.203095359            -82.219        0.976449978              6.855         0.97543874              6.914         0.20293175            -82.685
               581       0.202488331            -82.272         0.97600041              6.858        0.976112782              6.875        0.202838318            -82.702
               582         0.2018134            -82.276         0.97442855              6.863        0.975551048              6.843        0.201952856            -82.693
               583       0.201557981            -82.346        0.975551048              6.799         0.97600041              6.828          0.2018134            -82.708
               584       0.200978685            -82.351        0.974540742              6.783        0.976225168              6.772        0.201210203            -82.721
               585       0.200770546            -82.355        0.975551048              6.794        0.976112782              6.724        0.200955548            -82.813
               586       0.200377983            -82.413        0.976112782               6.74         0.97701223              6.695        0.200701214            -82.833
               587       0.199917126            -82.407        0.976449978              6.664        0.976562402              6.691        0.200193513            -82.892
               588       0.199388451            -82.533        0.976899753              6.646        0.977237221              6.641        0.199618138            -82.977
               589       0.198861174            -82.413        0.976112782              6.596         0.97600041              6.599        0.199021502            -82.911
               590       0.198449496            -82.535        0.976337567              6.571         0.97701223              6.531        0.198609492            -82.956
               591        0.19794749            -82.532         0.97678729              6.487        0.976337567              6.584        0.197901917            -83.065
               592       0.197219567            -82.645        0.976225168              6.476         0.97701223              6.464        0.197651448            -83.052
               593        0.19706069            -82.719         0.97701223              6.428        0.977799926              6.455         0.19731041            -83.155
               594         0.1966301            -82.716         0.97701223              6.427        0.977124719              6.418        0.196811286            -83.171
               595       0.195974696            -82.765         0.97678729               6.38        0.977687359              6.352         0.19620045            -83.143
               596        0.19579428            -82.724        0.977124719              6.363        0.977799926              6.323         0.19599726            -83.227
               597       0.195096734            -82.726        0.977124719              6.327        0.977574805              6.375        0.195704134            -83.182
               598       0.194782529            -82.811        0.977574805              6.267        0.977912506              6.283         0.19500691            -83.329
               599       0.193954562            -82.883        0.977687359              6.221        0.977462264              6.226        0.194446442            -83.281
               600        0.19382063            -82.821        0.977574805              6.232        0.977799926              6.213        0.193932234            -83.273
               601       0.193285823            -82.918        0.977574805               6.18        0.978362955              6.164        0.193686789            -83.401
               602       0.193107882            -82.851        0.977799926              6.155        0.978250323              6.152        0.193330333            -83.377
               603       0.192597214            -82.876        0.978137704              6.082        0.978025099              6.149        0.192597214            -83.459
               604       0.192043671            -82.965        0.977687359              6.107        0.978475599              6.016        0.192132131            -83.439
               605       0.191668172            -83.026        0.978025099              6.051        0.979377224              6.008        0.191844786            -83.549
               606       0.191161311            -82.975        0.978475599              6.049        0.978700928              6.005        0.191668172            -83.582
               607       0.190546072            -83.084        0.978362955              5.998        0.978362955              5.935        0.190875418            -83.607
               608       0.190348737            -83.161        0.978813611              5.956        0.979264475              5.896        0.190655791            -83.611
               609       0.189648757            -83.157        0.978250323              5.867        0.978813611              5.952        0.189976552            -83.684
               610       0.189081918            -83.179        0.978700928              5.867        0.978250323              5.857         0.18956144             -83.74
               611       0.188907848             -83.13        0.978250323              5.779        0.978926308               5.85        0.189103689            -83.782
               612       0.188473372            -83.256        0.978700928               5.82        0.979264475              5.803        0.188560187            -83.837
