!{501R14S1R5}
!Johanson Technology Inc.
!www.johansontechnology.com
!Test Board Conditions:
!Substrate Type  RO4350B
!Substrate Thickness        20 mil
!Substrate Dk      3.66
!TL Type: GCPW 
!TL Trace Width  36 mil
!TL Gap  12 mil
!Electrode orientation      Horizontal
!DUT TOPOLOGY	SERIES
!Mounting Pad LxW         26x36 mil
! Created Wed Mar 11 15:55:26 2020
# mhz S ma R 50
! 2 Port Network Data from SP1.SP block
! freq  magS11  angS11  magS21  angS21  magS12  angS12  magS22  angS22  
!     
               500       0.913218461            -28.583        0.402091306             60.932        0.403343147             61.005        0.912062673            -28.763
               501       0.912220862            -28.678        0.402577965             60.842        0.403970824              60.95        0.911905846            -28.837
               502       0.912641052            -28.693        0.403413103             60.797        0.404529316             60.918        0.911381062            -28.876
               503       0.912248162            -28.749        0.404029427             60.759        0.405380634             60.766        0.910988715            -28.977
               504       0.912220862            -28.788        0.404855459             60.688        0.405601918             60.796          0.9103324            -29.023
               505       0.911411102            -28.891        0.405661988             60.603        0.406597135             60.723        0.910781739            -29.035
               506       0.911656993            -28.896        0.406332413             60.605        0.407315998             60.705        0.909874445            -29.088
               507       0.910646872            -28.989        0.407005239             60.527        0.407802609             60.587        0.909703781            -29.153
               508       0.911312438                -29        0.407537238             60.519        0.408476708             60.592        0.909111806            -29.204
               509       0.910290159            -29.028        0.408676672             60.468         0.40905325             60.547        0.909871052            -29.257
               510       0.910099167            -29.107        0.409250027             60.375        0.409815818             60.485         0.90947071            -29.342
               511       0.909805847            -29.178        0.409683736             60.328        0.410770005             60.406        0.908758997            -29.369
               512       0.909799333            -29.239        0.410483414             60.235        0.411287598             60.329        0.907915884            -29.472
               513       0.909023861            -29.312        0.411363053             60.159        0.412074066             60.296        0.908396146            -29.523
               514       0.908343264             -29.37        0.411860365             60.156         0.41233481             60.247        0.908029588            -29.498
               515       0.908146091             -29.39        0.412720193             60.133        0.413481152             60.184        0.908041543            -29.583
               516       0.908238693            -29.427        0.413047502             60.027        0.414238061             60.143        0.907193647            -29.693
               517       0.907507034            -29.495        0.413523314             60.005        0.414858507             60.067        0.906880367            -29.686
               518       0.907507034            -29.516        0.414476584             59.937        0.415719121             60.046        0.906358475            -29.792
               519       0.907359884            -29.647        0.415221253             59.848        0.416322204             59.961        0.906002872            -29.822
               520        0.90685055             -29.64        0.416184327             59.837        0.416759704             59.913        0.906015694            -29.878
               521       0.906201207             -29.68        0.416893032             59.805        0.417421329             59.885        0.906305543            -29.925
               522       0.906129776            -29.782         0.41729233             59.723        0.418109853              59.79         0.90550406            -29.961
               523        0.90579445            -29.821        0.418003247             59.688        0.419111575             59.766        0.905377413            -30.034
               524        0.90569131            -29.849        0.418919137             59.636        0.419401714             59.759        0.905065896            -30.073
               525       0.905331397            -29.941        0.418993786             59.569        0.420685538             59.682         0.90449794            -30.132
               526       0.905056602            -29.956        0.419832196              59.54        0.421090788             59.598        0.904015217             -30.19
               527       0.905094657            -30.035        0.420381893             59.514        0.421545057             59.569        0.903428946            -30.178
               528       0.904738487            -30.103        0.421524736             59.376        0.421864582             59.492        0.903073431            -30.302
               529       0.904116941            -30.137        0.422060401             59.352        0.422935955             59.452        0.903284602            -30.359
               530       0.903724024            -30.201         0.42304428             59.286        0.423531608             59.395        0.902996002            -30.416
               531       0.903772273            -30.244        0.423115576             59.283        0.424384011             59.306        0.902108996            -30.465
               532       0.903286261            -30.336        0.424302318             59.154        0.425035696              59.28        0.902143044            -30.548
               533       0.903125636            -30.319        0.424715558              59.15         0.42559662             59.272        0.901774957             -30.58
               534       0.902837255            -30.382        0.425509707             59.148        0.426245171             59.169        0.901279456            -30.614
               535       0.901897885            -30.447        0.426341264              59.02        0.426783252             59.115        0.901586434            -30.692
               536       0.902136992            -30.506        0.426798114             58.997         0.42763426             59.092        0.900995229            -30.744
               537       0.901586708            -30.552         0.42747183              58.92        0.428309296             59.061        0.900756698            -30.776
               538       0.901346466            -30.594        0.427702472             58.914        0.429083446             58.967        0.900102069            -30.808
               539       0.900694542            -30.651        0.428674382             58.807        0.430058495             58.951        0.900176209            -30.905
               540       0.900724424            -30.685        0.429429563             58.735         0.43012228             58.891        0.899273798            -30.942
               541       0.900455886             -30.76        0.430142585             58.761        0.431084533             58.803        0.899212719            -30.994
               542       0.899290488            -30.779        0.430625754             58.678        0.431668144             58.793        0.898979938            -31.049
               543       0.899497582            -30.862        0.431519077             58.555        0.432065908             58.709        0.897635459            -31.146
               544       0.899568935            -30.897        0.432149932             58.517        0.432747382             58.691        0.898120169            -31.185
               545         0.8991815            -30.966        0.432660615             58.498        0.434007628             58.613        0.897630009            -31.238
               546       0.898649615            -31.044        0.433601117             58.425        0.434400576             58.588        0.897822309            -31.256
               547       0.898506217            -31.081        0.434481297             58.358        0.434931724              58.51        0.897162446            -31.359
               548        0.89746848            -31.121        0.434829705             58.325        0.435781916             58.481        0.897675153            -31.373
               549       0.898008872            -31.201        0.435642887             58.275        0.436345626             58.401        0.896356201            -31.444
               550       0.897301463            -31.255        0.436052094             58.269        0.437258616             58.353        0.896372194            -31.424
               551       0.897323017            -31.294        0.436967169             58.227        0.437873646             58.312        0.895981016            -31.526
               552       0.896280638             -31.34        0.437415345             58.119         0.43847417             58.249        0.896074285            -31.569
               553       0.896396186            -31.423        0.438177426             58.061        0.438934786             58.166        0.895158624            -31.669
               554       0.896251731             -31.46        0.438864051             58.052        0.439723835              58.13        0.895014368            -31.685
               555       0.895732974            -31.483        0.439570523             57.994        0.440026226             58.055        0.894496328            -31.714
               556       0.895558252            -31.516          0.4402444             57.916        0.441056107             58.088         0.89421889             -31.79
               557       0.895293428            -31.559        0.440925683             57.877        0.441687793             58.015        0.893851547            -31.865
               558       0.894643477            -31.629        0.441621288             57.832        0.442231832             57.978        0.893511199            -31.891
               559       0.894643477            -31.675        0.441977336             57.829          0.4429452             57.867        0.892894196            -31.916
               560       0.894208957            -31.725         0.44278104             57.718        0.443546356             57.848        0.892768823            -31.982
               561       0.893685393            -31.826        0.443695128             57.645        0.444462024             57.768        0.892759869            -32.068
               562       0.893470516            -31.834         0.44409944             57.615        0.444969481             57.726        0.892339721            -32.117
               563          0.892997            -31.895         0.44458008             57.543        0.445604943             57.689        0.891661469            -32.165
               564       0.893023129            -31.942        0.445515386             57.581        0.446182679             57.648        0.891687559            -32.154
               565       0.892845637            -32.021        0.446196728             57.493        0.446916492             57.564        0.890997286            -32.252
               566        0.89145618            -32.038        0.446735021             57.429        0.447507172             57.538        0.891148335             -32.29
               567       0.892017981            -32.142         0.44763456             57.356        0.448150215             57.445        0.890273833             -32.35
               568       0.891764131            -32.171        0.448125853             57.337        0.448797057             57.403        0.889918018            -32.394
               569       0.891148443            -32.261        0.449158944             57.234        0.449417576             57.356        0.890123061            -32.463
               570       0.890840596            -32.246        0.449572771             57.207        0.449883432               57.3        0.889303497            -32.535
               571       0.890122953             -32.32        0.450505399             57.142        0.450712912             57.231        0.889713131            -32.621
               572       0.890116704            -32.352        0.450657861             57.119        0.451488769             57.212        0.889194875            -32.619
               573       0.889815568            -32.435        0.451699906             57.063        0.451855944              57.12          0.8886894            -32.683
               574       0.889303497            -32.492        0.451803926             57.012        0.452793308             57.115        0.887973489            -32.703
               575       0.889098751            -32.509        0.452793308             56.943        0.453106195             57.082        0.887973489            -32.767
               576       0.889027694             -32.59        0.453696355             56.879        0.453696355             57.001        0.887595905             -32.84
               577       0.887871263            -32.634        0.453837105             56.861        0.454516862             56.928         0.88705388            -32.894
               578       0.888177976            -32.648        0.454255297             56.821        0.455512186             56.918         0.88695176            -32.946
               579        0.88772718            -32.721        0.455438266             56.746        0.455910419             56.878        0.886807826            -32.945
               580       0.887803303            -32.771        0.456002009               56.7        0.456527304             56.817        0.886577604            -33.072
               581        0.88705388            -32.832        0.456457135             56.654        0.457456708             56.759        0.886135224            -33.082
               582       0.886543398            -32.858         0.45724609             56.599        0.457720117             56.689        0.885727237            -33.174
               583       0.886543398            -32.951        0.457772817             56.563        0.458511254             56.656         0.88511561             -33.17
               584       0.885829216             -32.98        0.458511254             56.482        0.459092291             56.587        0.885217518            -33.253
               585        0.88511561            -32.994        0.459092291              56.46        0.459356642             56.561        0.884606243             -33.28
               586        0.88511561            -33.073         0.45977992             56.409        0.460468578             56.464        0.884504405            -33.354
               587       0.885013713            -33.111        0.460839822             56.375        0.460999018             56.445        0.884402578            -33.409
               588       0.884504405            -33.141        0.461264466              56.36        0.461530068             56.442        0.884097169            -33.423
               589       0.884552595            -33.238        0.462033708              56.29        0.462459453             56.311        0.883534802            -33.507
               590       0.883690121            -33.248        0.462327791             56.221         0.46254075             56.272        0.882571705            -33.548
               591       0.883588388            -33.286        0.463073576             56.156        0.463180215             56.237        0.882571705            -33.617
               592       0.883761789            -33.393        0.463911587             56.118        0.464125276             56.177         0.88254167            -33.674
               593       0.882774948            -33.405        0.464354865             56.068        0.464622246             56.142        0.881454704            -33.709
               594       0.883123671            -33.478        0.465234085             55.985        0.465234085             56.095         0.88170139            -33.787
               595       0.882266928            -33.513        0.465639699             55.975        0.465800553             56.033        0.881251765            -33.802
               596       0.882063802            -33.565        0.466337135             55.908         0.46649823              55.98        0.880846027            -33.859
               597       0.881665897            -33.639         0.46677119             55.851        0.467631806             55.908        0.881158515            -33.944
               598       0.881454704            -33.676        0.467627454             55.801        0.467788994             55.878        0.880136435            -33.965
               599       0.880643228            -33.704         0.46816614              55.75        0.468381788             55.865        0.880339118            -34.014
               600       0.880541846            -33.746        0.468705446             55.686        0.469029328             55.748        0.879224943              -34.1
               601       0.880035112            -33.785        0.469245374             55.663        0.469894109             55.745        0.878921321            -34.138
               602       0.879427415            -33.883        0.469894109             55.584         0.47054374             55.642        0.878921321            -34.193
               603       0.879326173            -33.911        0.470923106             55.515        0.471085785             55.635        0.879022517            -34.265
               604       0.878718966            -33.983        0.471085785             55.502        0.471519871             55.583        0.877606841            -34.286
               605       0.879022517            -34.035        0.471900025             55.428        0.472389244             55.528        0.877303779            -34.336
               606       0.878820138            -34.056        0.472552429             55.412        0.472933415             55.465        0.877505809            -34.365
               607        0.87813604             -34.12        0.473109645             55.319        0.473818269             55.379        0.877327619             -34.45
               608       0.877910008            -34.197        0.474078216             55.296        0.474296588             55.365        0.876798907            -34.493
               609       0.877303779            -34.238        0.474952305             55.232        0.474624333             55.342        0.877000821            -34.513
               610       0.876294327            -34.257        0.474788291             55.186        0.474788291             55.298        0.875890871            -34.597
               611       0.876899859            -34.317        0.475718455             55.166         0.47599238             55.244        0.876092576            -34.602
               612       0.876294327            -34.415        0.476650442             55.089          0.4768151             55.166        0.876193445            -34.675
