!{501R14S270}
!Johanson Technology Inc.
!www.johansontechnology.com
!Test Board Conditions:
!Substrate Type  RO4350B
!Substrate Thickness        20 mil
!Substrate Dk      3.66
!TL Type: GCPW 
!TL Trace Width  36 mil
!TL Gap  12 mil
!Electrode orientation      Horizontal
!DUT TOPOLOGY	SERIES
!Mounting Pad LxW         26x36 mil
! Created Wed Mar 11 16:06:05 2020
# mhz S ma R 50
! 2 Port Network Data from SP1.SP block
! freq  magS11  angS11  magS21  angS21  magS12  angS12  magS22  angS22  
!     
               500      0.0967720631            -87.828        0.993230392              1.073        0.992887401              1.076       0.0971627952            -88.437
               501      0.0966829738            -87.885        0.992773098              1.041        0.993459118              1.046        0.096894695            -88.483
               502      0.0964828225            -88.046        0.993459118              1.023        0.994145612              1.003       0.0962609182            -88.608
               503      0.0960284679            -87.846        0.992658807              0.976        0.993802306               0.96       0.0960616407              -88.7
               504      0.0955652499            -88.013        0.993116048               0.91        0.994031163              0.962       0.0957524732            -88.811
               505      0.0955432478            -87.981        0.994260074              0.967        0.993573501              0.958       0.0956092695            -88.668
               506      0.0953125305            -88.069        0.992658807              0.959        0.994374549              0.892       0.0953015579            -88.645
               507      0.0946782016            -88.079        0.992658807              0.866        0.993001718              0.915       0.0946128228            -88.683
               508      0.0946346107            -88.066        0.993344748              0.901        0.993230392              0.844       0.0946564037            -88.711
               509      0.0943517588            -88.021        0.992887401              0.851        0.993230392              0.811       0.0942648976            -88.662
               510      0.0939939715             -88.04        0.993230392              0.799        0.993230392              0.779       0.0936806726            -88.705
               511      0.0934329368            -88.157        0.992773098              0.787        0.993573501              0.784       0.0937022458             -88.76
               512      0.0933361752            -88.179        0.992773098               0.73        0.993573501              0.736       0.0933576691            -88.842
               513      0.0931000684            -88.225        0.994031163              0.748        0.994260074              0.754        0.093218047            -88.805
               514      0.0926829823            -88.145        0.993802306              0.746        0.993459118              0.689       0.0930250688            -88.752
               515      0.0922359022            -88.166        0.993802306              0.639        0.994603539               0.67       0.0922465218            -88.996
               516      0.0920555549            -88.223        0.994374549              0.636        0.994145612              0.624       0.0920131715            -88.967
               517      0.0917381547            -88.187        0.993459118               0.61        0.993916728              0.601       0.0915587806            -88.968
               518      0.0914113241             -88.26        0.993802306              0.598        0.993916728              0.624       0.0915166259             -89.06
               519      0.0909494339            -88.272        0.994718053              0.593        0.993916728              0.576       0.0913797572            -89.118
               520      0.0909180265             -88.34        0.993230392              0.508        0.994374549              0.569       0.0908029588            -89.174
               521      0.0905836883            -88.388        0.994260074              0.517        0.994260074              0.501       0.0906358475            -89.185
               522      0.0901986422            -88.194        0.993802306              0.479        0.993802306              0.478       0.0902505797            -89.145
               523      0.0898048931            -88.394        0.993687897              0.462        0.994260074              0.432       0.0898772964            -89.122
               524      0.0895055571            -88.452        0.993916728              0.427        0.993687897              0.367       0.0897428795            -89.217
               525      0.0894025693            -88.461        0.993573501              0.382        0.993802306              0.422       0.0893202644            -89.241
               526      0.0887973489            -88.489        0.993916728              0.367        0.994603539              0.377       0.0891558818            -89.376
               527       0.088623725            -88.499        0.993459118              0.357        0.994145612              0.342       0.0885523315            -89.157
               528       0.088399539            -88.502        0.993459118              0.347        0.994260074              0.325       0.0884097169            -89.138
               529      0.0880237771             -88.44        0.994374549              0.298        0.993687897              0.294       0.0883893622            -89.234
               530      0.0880440476            -88.557        0.993344748              0.281        0.994947122              0.281       0.0878516656            -89.492
               531       0.087659704            -88.562        0.994031163              0.241        0.994603539              0.226       0.0875991718            -89.203
               532      0.0872067296            -88.552        0.993687897              0.187        0.994489037              0.207       0.0872770382             -89.29
               533      0.0869160538            -88.608        0.993573501              0.206        0.993116048              0.189       0.0870562589            -89.327
               534      0.0864669221            -88.513        0.993916728              0.167        0.993916728              0.167       0.0866662489            -89.476
               535      0.0866961876            -88.723        0.993916728              0.134        0.994260074              0.169       0.0863574878             -89.36
               536      0.0861985579            -88.393        0.993916728              0.109        0.994145612              0.137       0.0860498267            -89.582
               537      0.0858420341            -88.784        0.993687897              0.071        0.993802306              0.063       0.0856248848            -89.491
               538      0.0856051712            -88.868        0.994260074              0.085        0.994145612              0.101       0.0856347433            -89.534
               539      0.0850354472            -88.832        0.994145612              0.036        0.994031163              0.061       0.0852511017            -89.581
               540      0.0845960334             -88.71        0.994489037             -0.026        0.994145612          -0.005032       0.0850158693            -89.647
               541      0.0846837341            -88.605        0.993916728             -0.046        0.994947122              -0.01       0.0848398711            -89.539
               542      0.0843723217            -88.794        0.995405417              -0.03        0.994260074             -0.023       0.0845376167            -89.648
               543      0.0842558375            -88.811        0.993916728             -0.047        0.994832581              -0.06       0.0839943358            -89.718
               544      0.0839170097            -88.771        0.994374549             -0.089        0.995176243             -0.055       0.0840910935             -89.76
               545      0.0835218297            -88.889        0.993573501              -0.15        0.995061676             -0.111       0.0833969178            -89.723
               546      0.0833009588            -89.048        0.994832581             -0.159        0.994947122              -0.12       0.0834545462             -89.74
               547      0.0829946313            -88.839        0.994489037             -0.165        0.994832581             -0.141       0.0829373204            -89.736
               548       0.082803749            -89.005        0.994374549             -0.189        0.994374549             -0.185       0.0829277725            -89.685
               549       0.082480256            -88.767        0.994031163             -0.208        0.994260074             -0.176        0.082537251            -89.794
               550      0.0822147991             -89.01        0.994145612             -0.243        0.994603539             -0.263       0.0819313291            -89.855
               551      0.0820634933            -89.082        0.994603539             -0.272        0.994832581             -0.272       0.0819313291            -90.006
               552      0.0817146641            -89.035        0.994260074             -0.247        0.994603539             -0.286       0.0817052569             -89.83
               553      0.0815592015            -89.081        0.994999736             -0.291        0.995801934             -0.349       0.0812779919            -89.862
               554      0.0809282222            -88.986        0.994832581             -0.273        0.994947122             -0.326        0.081114781            -89.956
               555      0.0806770482             -88.99        0.994832581             -0.363        0.995405417             -0.373       0.0807606861            -90.012
               556      0.0804729644             -89.25        0.994718053             -0.381        0.995176243             -0.395       0.0805471169            -90.078
               557      0.0802878818            -88.947        0.994832581             -0.447        0.994603539             -0.397       0.0801770365            -90.089
               558      0.0801585772            -88.938        0.994947122              -0.39        0.994947122              -0.41       0.0799742176            -90.033
               559       0.079790282            -89.046        0.994489037              -0.48        0.994832581             -0.439       0.0795884414            -90.215
               560      0.0795334827            -89.316        0.994603539             -0.471        0.994832581             -0.496        0.079368834            -90.042
               561      0.0790678628             -89.18        0.994832581             -0.483        0.994603539              -0.51       0.0792683832            -90.024
               562      0.0790314591            -89.158        0.994374549             -0.468        0.994832581             -0.538       0.0789223485            -90.229
               563        0.07846934            -89.218        0.994947122              -0.59        0.994603539             -0.546       0.0785868715            -90.282
               564      0.0784241825            -89.198        0.994832581             -0.546        0.995290824              -0.58       0.0784332119            -90.241
               565      0.0779471068            -89.221        0.994947122             -0.631        0.995176243             -0.638        0.078090823            -90.315
               566       0.077740978             -89.21        0.994031163             -0.606        0.995405417             -0.629       0.0779112191            -90.227
               567       0.077740978             -89.14        0.995176243             -0.658        0.995290824             -0.631       0.0775711089            -90.277
               568      0.0771791516            -89.109        0.994603539             -0.653        0.994718053             -0.635       0.0774640145            -90.207
               569      0.0769750536            -89.321        0.994718053             -0.719        0.995290824             -0.709       0.0770016444            -90.276
               570      0.0768953362            -89.467        0.995634644             -0.713        0.995634644             -0.749       0.0768776324            -90.426
               571      0.0763747849            -89.419        0.995749278             -0.714        0.995061676             -0.756       0.0766390301            -90.538
               572       0.076172814            -89.329        0.994832581             -0.792        0.995290824              -0.73       0.0762781234            -90.447
               573      0.0757704733            -89.381        0.994947122             -0.814        0.994832581             -0.819       0.0759976214            -90.587
               574      0.0756049099            -89.296        0.995405417             -0.787        0.995290824             -0.875       0.0759276573             -90.36
               575      0.0754310234             -89.27        0.994374549             -0.857        0.995176243             -0.878       0.0755788014            -90.261
               576      0.0752575369            -89.342        0.994489037             -0.882        0.994489037             -0.884       0.0750758054            -90.304
               577      0.0750412397            -89.561        0.995290824             -0.905        0.995863924             -0.903        0.075119035            -90.606
               578       0.074576157            -89.662        0.994603539             -0.917        0.995405417             -0.923       0.0748083369            -90.529
               579      0.0745504038            -89.371        0.994603539             -0.963        0.995290824             -0.939       0.0747222602            -90.567
               580      0.0742506056            -89.341        0.996322642             -0.954        0.995061676             -0.968       0.0743446977              -90.7
               581       0.073952013            -89.786        0.994832581             -0.999        0.995863924             -0.957       0.0738754263            -90.696
               582      0.0737217557            -89.539         0.99516632             -1.028        0.996656881             -1.019       0.0738066799            -90.737
               583      0.0732993292            -89.692        0.994947122             -1.077        0.995978584             -1.065       0.0735275339            -90.866
               584      0.0730802459            -89.675        0.995176243             -1.022        0.994832581             -1.036       0.0732318491            -90.684
               585      0.0730297813            -89.547        0.994718053             -1.065        0.995176243             -1.067       0.0728031214            -90.711
               586      0.0727696021            -89.532        0.995290824             -1.107        0.994718053             -1.099       0.0726942399            -90.925
               587      0.0724936556            -89.328        0.995290824             -1.149        0.995061676             -1.145       0.0725186983            -90.822
               588      0.0722686596            -89.872        0.994489037             -1.142        0.995634644             -1.125       0.0720775473            -90.781
               589      0.0719531812            -89.471        0.994374549             -1.218        0.995405417             -1.189       0.0716720786             -90.83
               590      0.0718621158            -89.639        0.994947122             -1.177        0.994603539             -1.196       0.0716885836            -90.862
               591      0.0713674205            -89.744        0.995863924             -1.206        0.995405417             -1.269       0.0715237045            -90.919
               592      0.0711623039            -89.816        0.995863924              -1.24        0.996207943             -1.264       0.0711459201            -91.167
               593      0.0710804224            -89.805        0.995863924             -1.263        0.996207943             -1.289       0.0710149851            -91.082
               594      0.0707538375            -89.803        0.995978584             -1.268        0.995520024             -1.293         0.07066429            -91.083
               595      0.0705992358            -89.804        0.995634644             -1.285        0.996093257             -1.301       0.0704287532            -91.106
               596      0.0701697614            -89.732        0.995863924             -1.352        0.995863924             -1.361       0.0704125382            -91.087
               597      0.0700486871            -89.996        0.996093257             -1.371        0.995749278             -1.385       0.0701697614            -91.174
               598      0.0697428997            -89.739        0.996093257             -1.419        0.995634644             -1.386       0.0696065326            -91.194
               599      0.0696065326            -89.819        0.995290824             -1.423        0.995749278             -1.448       0.0693984866            -91.128
               600      0.0693984866            -89.792        0.996093257             -1.472        0.995520024             -1.431       0.0691990289            -91.229
               601      0.0690716769            -89.892        0.995634644             -1.492        0.995176243             -1.469       0.0688731585            -91.234
               602      0.0689366222            -89.831        0.994832581             -1.474        0.995405417             -1.455       0.0687305786            -91.288
               603      0.0684463037            -89.664        0.996093257             -1.515        0.995290824             -1.549       0.0684147903            -91.266
               604      0.0682103063            -89.817        0.995863924             -1.545        0.995520024             -1.475       0.0681161354            -91.125
               605      0.0678734617            -89.893        0.996322642             -1.555        0.995978584             -1.564       0.0682338694            -91.481
               606      0.0679907763            -89.589        0.995634644             -1.591        0.995749278             -1.559       0.0678734617            -91.399
               607      0.0675071852            -89.935        0.995634644             -1.591        0.995634644             -1.622       0.0675693903            -91.461
               608       0.067189282            -89.914        0.995520024             -1.639        0.995405417             -1.576       0.0672357107            -91.076
               609      0.0671738129            -89.978        0.995061676              -1.63        0.995749278             -1.644       0.0668959769            -91.294
               610      0.0670656287            -90.031        0.995863924             -1.682        0.995978584             -1.668        0.067266681            -91.353
               611      0.0668420868            -90.039        0.996093257             -1.699        0.996322642              -1.69       0.0664354682            -91.673
               612      0.0664737225             -90.09        0.996437354             -1.712        0.995978584             -1.715       0.0665656228            -91.581
