!Keysight Technologies,M9375A,US54320202,A.12.55.09
!Date: Monday, July 10, 2023 14:23:27
!Correction: S11(Full 2 Port(1,2)) 
!S21(Full 2 Port(1,2)) 
!S12(Full 2 Port(1,2)) 
!S22(Full 2 Port(1,2)) 
!S2P File: Measurements: S11, S21, S12, S22:
# Hz S  RI   R 50
950000000 0.9199844 -0.35040066 -5.5449657 2.4953058 0.0044774865 0.014789884 0.573421 -0.18094833
1106250000 0.89593995 -0.39306468 -5.2842503 2.7459049 0.0051315119 0.017910959 0.56447285 -0.20090525
1262500000 0.87034148 -0.4307017 -5.0118546 2.995415 0.0073798182 0.019237069 0.56232643 -0.21874331
1418750000 0.84209228 -0.46395794 -4.7519574 3.2134848 0.0098466715 0.02037351 0.55747461 -0.23655464
1575000000 0.81979769 -0.49066535 -4.4890943 3.394443 0.010823145 0.023149122 0.55371284 -0.25047213
1731250000 0.80177653 -0.51520973 -4.2729039 3.5151243 0.011234174 0.025858207 0.55571973 -0.26082107
1887500000 0.77581358 -0.53647232 -4.0057311 3.6531553 0.014410827 0.026944889 0.55340153 -0.27003157
2043750000 0.74467272 -0.56000757 -3.7778554 3.7989905 0.015824277 0.026697053 0.54142404 -0.28199494
2200000000 0.72401989 -0.57917345 -3.5769017 3.9217482 0.017189004 0.02859449 0.53911042 -0.28938663
2356250000 0.69868982 -0.59537083 -3.3677425 4.0558295 0.019300831 0.029412042 0.53489083 -0.29275757
2512500000 0.67498904 -0.60867119 -3.162693 4.1908097 0.02149744 0.031604342 0.52382714 -0.30038649
2668750000 0.6471954 -0.62147403 -2.9846125 4.2984471 0.022891127 0.03134831 0.51470721 -0.30779928
2825000000 0.6146639 -0.63456357 -2.7633076 4.4465742 0.024570338 0.033540834 0.49792257 -0.30975947
2981250000 0.58939356 -0.65057105 -2.5711944 4.6107354 0.025964446 0.035398606 0.4879173 -0.31433949
3137500000 0.55446905 -0.65563565 -2.3798087 4.7641449 0.030326691 0.037162911 0.46639702 -0.31821772
3293750000 0.52174306 -0.68001336 -2.1654127 4.9168029 0.032663133 0.036619104 0.45507285 -0.32798213
3450000000 0.48570967 -0.67929673 -1.9660368 5.0568633 0.036162354 0.039362758 0.42096412 -0.32996368
3606250000 0.43945995 -0.69241446 -1.710627 5.1981206 0.037198909 0.039269768 0.3984549 -0.33208486
3762500000 0.39968398 -0.69467694 -1.4519179 5.3580747 0.039412621 0.040198117 0.37496272 -0.33964363
3918750000 0.35818037 -0.69825846 -1.1508439 5.4516978 0.044236127 0.0397732 0.35813746 -0.34827074
4075000000 0.31118855 -0.70836914 -0.86249751 5.6010361 0.046160113 0.042988829 0.33141583 -0.35908887
4231250000 0.25296578 -0.70328462 -0.47346818 5.6646309 0.052668639 0.041429292 0.29783556 -0.36841762
4387500000 0.19221462 -0.70324641 -0.11532888 5.7496867 0.055116508 0.038930513 0.26469177 -0.37472624
4543750000 0.14251736 -0.69516742 0.24987169 5.7959476 0.059666362 0.042318854 0.23628132 -0.38691977
4700000000 0.088850066 -0.67960602 0.60240072 5.7648797 0.06413538 0.04056963 0.20873442 -0.39225194
4856250000 0.043569282 -0.67319804 0.96061695 5.7082911 0.067299232 0.037611455 0.18307894 -0.40028408
5012500000 -0.0092025511 -0.65131927 1.3288382 5.591454 0.069017455 0.036309544 0.1596259 -0.40214518
5168750000 -0.070674665 -0.63100833 1.7033483 5.4112868 0.074915171 0.036356464 0.12644142 -0.41061449
5325000000 -0.11962994 -0.59801203 1.990862 5.2308803 0.079277068 0.031384297 0.10602961 -0.41107094
5481250000 -0.15805742 -0.56993341 2.295846 5.0121269 0.084143579 0.030008446 0.095385514 -0.40528643
5637500000 -0.19144279 -0.54413956 2.5569441 4.8124499 0.084905565 0.028166989 0.082063757 -0.40239009
5793750000 -0.22970763 -0.51661092 2.7618613 4.6362181 0.088109486 0.025176032 0.075553872 -0.40651679
5950000000 -0.26667729 -0.49135053 2.9731278 4.3684335 0.092882812 0.019418668 0.072309926 -0.40604317
6106250000 -0.29532585 -0.46306476 3.1580789 4.1286402 0.093782246 0.016115164 0.064653799 -0.40101272
6262500000 -0.32014954 -0.42888737 3.2818077 3.845885 0.09336669 0.01260628 0.069454007 -0.39178428
6418750000 -0.33092466 -0.40438846 3.3978679 3.5978432 0.094098285 0.010147208 0.08203841 -0.37701818
6575000000 -0.33495384 -0.38035882 3.4707403 3.3666086 0.098138765 0.010164334 0.095675334 -0.3765237
6731250000 -0.36745897 -0.36135748 3.5958331 3.1667027 0.096204698 0.0060792188 0.10396818 -0.38174835
6887500000 -0.39847067 -0.35262284 3.7156565 2.9614315 0.10063369 0.0026682077 0.10131939 -0.3852399
7043750000 -0.41731709 -0.31435055 3.8028026 2.6803646 0.10454576 -0.0008284598 0.087452337 -0.38203683
7200000000 -0.43106902 -0.28224778 3.8663287 2.4023879 0.10666583 -0.0055141537 0.072756737 -0.375346
