!Keysight Technologies,M9375A,US54320202,A.12.55.09
!Date: Monday, July 10, 2023 14:13:46
!Correction: S11(Full 2 Port(1,2)) 
!S21(Full 2 Port(1,2)) 
!S12(Full 2 Port(1,2)) 
!S22(Full 2 Port(1,2)) 
!S2P File: Measurements: S11, S21, S12, S22:
# Hz S  RI   R 50
950000000 0.96012551 -0.27581704 -0.22255002 0.11123201 0.0040797847 0.023020644 0.93921202 -0.27050385
1106250000 0.94212478 -0.30283469 -0.20826447 0.1188314 0.0082199015 0.028001811 0.92445159 -0.30282569
1262500000 0.93467033 -0.34472895 -0.20677008 0.14088498 0.012493608 0.026910117 0.91561371 -0.33430597
1418750000 0.92098856 -0.37053302 -0.19661056 0.14804046 0.013325477 0.032382414 0.90339458 -0.36255366
1575000000 0.90733796 -0.39148429 -0.1896231 0.15711693 0.015356614 0.035111539 0.89486074 -0.38071895
1731250000 0.90056598 -0.41515058 -0.1864733 0.15446089 0.01859159 0.037699606 0.89158827 -0.40322518
1887500000 0.88763571 -0.43883991 -0.17043228 0.1582576 0.019975547 0.036924884 0.87653202 -0.41924518
2043750000 0.87075007 -0.46495894 -0.16259949 0.16467609 0.022833584 0.041463558 0.86922473 -0.44189101
2200000000 0.86126512 -0.4829171 -0.1529648 0.17700967 0.026611764 0.041436829 0.85734409 -0.4554019
2356250000 0.84853697 -0.49892059 -0.15229285 0.18090174 0.028486131 0.043109953 0.84812927 -0.4743529
2512500000 0.83918446 -0.52159435 -0.14955601 0.18554471 0.032365263 0.044372637 0.83766252 -0.49433783
2668750000 0.82445604 -0.53613919 -0.14750552 0.18573226 0.037713215 0.045259021 0.82819742 -0.50985754
2825000000 0.8088187 -0.55331045 -0.13970715 0.19013542 0.038177006 0.04808889 0.80867326 -0.52570957
2981250000 0.79486829 -0.57639664 -0.13570295 0.20079964 0.040850714 0.05083482 0.79469025 -0.54402292
3137500000 0.78021628 -0.59039176 -0.13241023 0.20938003 0.04760151 0.050116826 0.77771056 -0.56925654
3293750000 0.76495045 -0.61438292 -0.12678215 0.21940628 0.049867205 0.056095395 0.7627508 -0.58361781
3450000000 0.74890548 -0.62593579 -0.12454941 0.22618355 0.055456221 0.057110775 0.73946363 -0.61101884
3606250000 0.72100812 -0.64827311 -0.11631642 0.23749527 0.062890485 0.057379745 0.71328402 -0.63365972
3762500000 0.70155048 -0.66933548 -0.10929883 0.25496361 0.069132537 0.061076131 0.6843366 -0.65545964
3918750000 0.6790961 -0.69044787 -0.098274067 0.26868227 0.070547618 0.059138242 0.65861315 -0.6823917
4075000000 0.65259105 -0.72345525 -0.090987481 0.29382786 0.079400867 0.060059655 0.63045132 -0.71711493
4231250000 0.61341071 -0.74636281 -0.073736131 0.3210046 0.086305313 0.061264262 0.58912426 -0.74600548
4387500000 0.57450396 -0.77721322 -0.067280531 0.33824241 0.093562663 0.059861086 0.55024081 -0.77008581
4543750000 0.54081368 -0.80509216 -0.055894699 0.34650096 0.10090473 0.060632277 0.50840378 -0.79671603
4700000000 0.4986957 -0.82900584 -0.027350044 0.34944329 0.10858138 0.05700817 0.47341624 -0.81793028
4856250000 0.45365104 -0.86385018 -0.0045890422 0.3502709 0.11762005 0.05572772 0.43392542 -0.84084642
5012500000 0.39915705 -0.87758964 0.03188768 0.34667459 0.12631294 0.051273324 0.39745295 -0.8653416
5168750000 0.33280626 -0.89632511 0.066134617 0.35986656 0.13081568 0.047782723 0.35013056 -0.88326275
5325000000 0.26459074 -0.91341543 0.088068515 0.38957298 0.14109612 0.040853031 0.31529829 -0.89312947
5481250000 0.20378155 -0.92954969 0.082058094 0.39427325 0.1485842 0.032884758 0.28322455 -0.90065998
5637500000 0.15000035 -0.94368851 0.093483984 0.37062407 0.15365124 0.028798634 0.25409147 -0.90816802
5793750000 0.085666813 -0.95270431 0.12375139 0.35108089 0.16070552 0.019538771 0.23711513 -0.91991973
5950000000 0.017803537 -0.95873821 0.13574 0.34223753 0.16325721 0.013296321 0.20930922 -0.93567425
6106250000 -0.047653701 -0.94123816 0.1609384 0.33200377 0.16560312 -0.00076090021 0.1872371 -0.93041801
6262500000 -0.11990053 -0.9300651 0.18908717 0.33853185 0.16641402 -0.002694498 0.16704942 -0.9174521
6418750000 -0.16128288 -0.91820061 0.20025361 0.34685871 0.16929595 -0.010937553 0.15410322 -0.91187626
6575000000 -0.21636423 -0.89229321 0.19339377 0.33379722 0.16980134 -0.02071899 0.14440021 -0.92051572
6731250000 -0.28221992 -0.89482212 0.21211277 0.30302966 0.16943151 -0.028141616 0.14173672 -0.91588604
6887500000 -0.339849 -0.897008 0.23428014 0.30453116 0.17318428 -0.034317121 0.11217795 -0.91630501
7043750000 -0.40275916 -0.84883249 0.24939868 0.3073507 0.17437965 -0.043344859 0.073009275 -0.92043549
7200000000 -0.45985806 -0.8053537 0.26083457 0.30520791 0.17167087 -0.05245173 0.025320679 -0.92321241
