!Keysight Technologies,M9375A,US54320202,A.12.55.09
!Date: Monday, July 10, 2023 14:29:57
!Correction: S11(Full 2 Port(1,2)) 
!S21(Full 2 Port(1,2)) 
!S12(Full 2 Port(1,2)) 
!S22(Full 2 Port(1,2)) 
!S2P File: Measurements: S11, S21, S12, S22:
# Hz S  RI   R 50
950000000 0.91189992 -0.34507155 -4.8636456 2.1052454 0.0042090924 0.015024662 0.51592219 -0.15140855
1106250000 0.88956368 -0.3828997 -4.6301184 2.330044 0.0053455462 0.01880784 0.51549858 -0.17626342
1262500000 0.86718756 -0.42605874 -4.3946548 2.5289185 0.0073241638 0.018221183 0.52529073 -0.18630278
1418750000 0.83855122 -0.45488185 -4.1803131 2.7015357 0.0075593889 0.020620845 0.51856977 -0.20225736
1575000000 0.82198071 -0.4816727 -3.9815638 2.8707659 0.0096489349 0.022845615 0.51667655 -0.21289729
1731250000 0.8010782 -0.50497705 -3.7762682 2.9838581 0.010760528 0.025040044 0.51919407 -0.22835387
1887500000 0.77736568 -0.5252232 -3.5498817 3.1097827 0.01325888 0.025818108 0.51855278 -0.24086685
2043750000 0.74900275 -0.55099195 -3.3483512 3.2429073 0.013776646 0.026973613 0.51252478 -0.2536791
2200000000 0.72525269 -0.57362336 -3.1903763 3.3432593 0.016026763 0.02780132 0.51297432 -0.25928521
2356250000 0.7059654 -0.58336222 -3.0372546 3.4510362 0.016235076 0.029008653 0.50572562 -0.26160213
2512500000 0.67888862 -0.60327524 -2.8525183 3.590605 0.018083775 0.030785009 0.49632514 -0.26098856
2668750000 0.65492159 -0.61687833 -2.7002053 3.7046678 0.021965956 0.032001901 0.48601887 -0.26617774
2825000000 0.62289953 -0.63055891 -2.5130627 3.8135014 0.020827474 0.031413041 0.46735346 -0.2683396
2981250000 0.59912121 -0.6492964 -2.3611338 3.9635344 0.025726665 0.034142043 0.45947447 -0.273357
3137500000 0.56501508 -0.65603679 -2.1894245 4.079906 0.024480326 0.036223162 0.43784449 -0.27879173
3293750000 0.53491646 -0.67591256 -2.0476871 4.2344794 0.028957058 0.035390001 0.42948458 -0.28462771
3450000000 0.49829003 -0.68278068 -1.8802488 4.3909788 0.029774696 0.036174539 0.40092808 -0.28732282
3606250000 0.4543325 -0.69062889 -1.6570508 4.521039 0.036766056 0.038830757 0.38613576 -0.28925738
3762500000 0.41462415 -0.69678628 -1.4119493 4.6527019 0.037038587 0.038692635 0.36292216 -0.29269239
3918750000 0.37885228 -0.70559454 -1.168538 4.7251263 0.039363079 0.041316442 0.34762099 -0.29595327
4075000000 0.3251524 -0.72062624 -0.94662285 4.8384972 0.043331183 0.041223299 0.32361603 -0.30670264
4231250000 0.26762617 -0.71710873 -0.64061731 4.9375196 0.047279257 0.041444633 0.29784837 -0.31392521
4387500000 0.20720151 -0.71822363 -0.33541757 5.0509582 0.050978038 0.041407336 0.269223 -0.32421201
4543750000 0.15409411 -0.71378714 -0.01416432 5.1380968 0.054176964 0.043366536 0.24606197 -0.33069777
4700000000 0.10576833 -0.69671839 0.29843128 5.137228 0.056875084 0.040713064 0.2210945 -0.339706
4856250000 0.050969854 -0.69824475 0.63040805 5.1074862 0.062732086 0.040049404 0.20397981 -0.35329002
5012500000 -0.0093546659 -0.6755566 0.95628846 5.0263934 0.069105074 0.038252722 0.17545214 -0.36266667
5168750000 -0.064364702 -0.65594739 1.288582 4.8957047 0.071994327 0.037786067 0.14937019 -0.36934665
5325000000 -0.11360681 -0.62541997 1.5576428 4.7722545 0.073879667 0.035687786 0.1347401 -0.37271374
5481250000 -0.16056626 -0.59552276 1.8792675 4.6184916 0.079873435 0.032032967 0.1191901 -0.37260577
5637500000 -0.19495673 -0.56970847 2.1651559 4.4449139 0.080763333 0.031539101 0.10515497 -0.37494415
5793750000 -0.23501725 -0.54393935 2.3772278 4.268733 0.086477004 0.030788912 0.098033093 -0.38109002
5950000000 -0.2700935 -0.52068257 2.5730352 4.0286241 0.088434204 0.027201349 0.087923087 -0.38880509
6106250000 -0.30542365 -0.48919198 2.7381723 3.7929559 0.089104161 0.020634092 0.081671044 -0.37973294
6262500000 -0.33935532 -0.45361188 2.8763404 3.5717614 0.090949625 0.016933037 0.085554324 -0.36890918
6418750000 -0.35014868 -0.42963731 2.9933925 3.3706045 0.092152901 0.014996133 0.10287656 -0.35805061
6575000000 -0.35451636 -0.39817569 3.0662031 3.1416495 0.093109414 0.013973414 0.11469232 -0.35915825
6731250000 -0.38375762 -0.37862021 3.182637 2.9677234 0.093994997 0.0095569333 0.125057 -0.36773825
6887500000 -0.41747823 -0.37411842 3.2984245 2.7776911 0.099545762 0.0079219379 0.12332308 -0.37131771
7043750000 -0.43368953 -0.3311663 3.3942275 2.531734 0.099260472 0.0058203884 0.10871711 -0.36562356
7200000000 -0.44767135 -0.29359016 3.4660625 2.2796645 0.1014213 6.2271065e-005 0.089320138 -0.36406669
