!Keysight Technologies,M9375A,US54320202,A.12.55.09
!Date: Monday, July 10, 2023 14:26:19
!Correction: S11(Full 2 Port(1,2)) 
!S21(Full 2 Port(1,2)) 
!S12(Full 2 Port(1,2)) 
!S22(Full 2 Port(1,2)) 
!S2P File: Measurements: S11, S21, S12, S22:
# Hz S  RI   R 50
950000000 0.91388774 -0.34851852 -5.435873 2.5210474 0.0030271669 0.014845137 0.62531543 -0.1889959
1106250000 0.88926363 -0.38898662 -5.1619873 2.7673995 0.005830578 0.020358602 0.61717081 -0.20810002
1262500000 0.86835235 -0.42720598 -4.8943386 3.0003653 0.0088884057 0.02006745 0.62075019 -0.22862065
1418750000 0.83650535 -0.45774028 -4.6255217 3.1889389 0.0089861974 0.021920964 0.61182839 -0.24440236
1575000000 0.81841451 -0.48384115 -4.3823791 3.3450258 0.011639106 0.024058711 0.60645592 -0.26332888
1731250000 0.80241412 -0.50649112 -4.1517396 3.4342587 0.011767534 0.025870621 0.61295974 -0.2795637
1887500000 0.77310473 -0.52773869 -3.8726633 3.5618474 0.014559146 0.027807243 0.61017483 -0.28953075
2043750000 0.74472719 -0.55171788 -3.6386971 3.6955514 0.017234169 0.028124936 0.60238391 -0.3057391
2200000000 0.72651345 -0.56921583 -3.4681337 3.7885506 0.017867213 0.028907865 0.59554541 -0.31235036
2356250000 0.70297998 -0.58504969 -3.2591176 3.8986051 0.0189908 0.031418547 0.58975899 -0.32246223
2512500000 0.67987615 -0.60027635 -3.0699787 4.0225554 0.02264644 0.032816984 0.57762635 -0.33395788
2668750000 0.65422589 -0.6110127 -2.905262 4.1381369 0.025274463 0.03406186 0.56233019 -0.34523055
2825000000 0.62443799 -0.62467444 -2.7121065 4.2553339 0.027723553 0.034508195 0.54494441 -0.35549381
2981250000 0.60129029 -0.64316672 -2.5588634 4.405055 0.029698616 0.035191681 0.53204644 -0.37089854
3137500000 0.56414205 -0.65151602 -2.3614674 4.5564089 0.033040848 0.0393853 0.51222908 -0.37527734
3293750000 0.53077614 -0.67022735 -2.1739981 4.6986585 0.03475064 0.037452698 0.4930397 -0.38501087
3450000000 0.4935751 -0.67267495 -1.974013 4.849915 0.038598504 0.038519252 0.45605978 -0.39103532
3606250000 0.45436543 -0.68630242 -1.761552 4.9956989 0.03995553 0.040358827 0.42542586 -0.39712948
3762500000 0.41226733 -0.69079489 -1.5283841 5.1606469 0.04235518 0.041786 0.39512581 -0.40503478
3918750000 0.37422332 -0.69961971 -1.2806176 5.2819791 0.047899518 0.039178815 0.3728475 -0.4224436
4075000000 0.32738146 -0.70983487 -1.0070204 5.4188919 0.050091237 0.041416589 0.35114783 -0.43518066
4231250000 0.27155593 -0.70628613 -0.63736945 5.4845204 0.053932115 0.040809371 0.32119551 -0.44473282
4387500000 0.21545081 -0.70755708 -0.27474177 5.563025 0.057942595 0.041739617 0.29083502 -0.4448418
4543750000 0.16374335 -0.69959956 0.12033539 5.6085992 0.064899944 0.041130509 0.25309002 -0.45131597
4700000000 0.11034843 -0.68495512 0.45803642 5.6269455 0.065958224 0.038897216 0.22111671 -0.45168349
4856250000 0.056641318 -0.67917579 0.8195017 5.5859203 0.07371676 0.038296018 0.18441954 -0.46516216
5012500000 0.0046428214 -0.65767473 1.1676068 5.5114436 0.07446719 0.036214504 0.1510831 -0.48129731
5168750000 -0.058708049 -0.63792872 1.4803252 5.3722148 0.080721639 0.030550286 0.12073044 -0.49092656
5325000000 -0.10856711 -0.61896062 1.7427905 5.1936569 0.084283598 0.029283993 0.10549302 -0.48926657
5481250000 -0.14297025 -0.58892697 2.0665755 4.947175 0.086579405 0.027447356 0.092136048 -0.47813672
5637500000 -0.1690156 -0.56261581 2.3688138 4.7419987 0.090925403 0.026182983 0.084458858 -0.46393123
5793750000 -0.21143238 -0.52977145 2.6638331 4.6195936 0.090574056 0.021634541 0.064736597 -0.46439242
5950000000 -0.25111231 -0.50585938 2.8990259 4.4028382 0.09187416 0.018002195 0.044693526 -0.46563804
6106250000 -0.28219509 -0.47074664 3.0876133 4.1650877 0.093042336 0.010444317 0.033739224 -0.45792329
6262500000 -0.31662598 -0.44580612 3.1941025 3.943866 0.099175446 0.0057180715 0.038499102 -0.45430472
6418750000 -0.32717949 -0.41940349 3.2801769 3.6741831 0.09826608 0.0051255217 0.052683014 -0.44325018
6575000000 -0.33263436 -0.39843115 3.3443987 3.4123669 0.097881332 0.0013812702 0.065815538 -0.4401612
6731250000 -0.35781467 -0.38169533 3.4810395 3.2198133 0.0986837 0.00080058246 0.075098626 -0.43139324
6887500000 -0.38484246 -0.37094498 3.6164222 3.0369577 0.10073645 -0.0010040016 0.062895402 -0.42508373
7043750000 -0.41298768 -0.33118543 3.7222195 2.7819772 0.10415544 -0.0078067281 0.042524889 -0.42472777
7200000000 -0.42845982 -0.29590601 3.7793243 2.5069785 0.10462326 -0.013098553 0.02198319 -0.41958433
