!Keysight Technologies,M9375A,US54320202,A.12.55.09
!Date: Monday, July 10, 2023 14:18:33
!Correction: S11(Full 2 Port(1,2)) 
!S21(Full 2 Port(1,2)) 
!S12(Full 2 Port(1,2)) 
!S22(Full 2 Port(1,2)) 
!S2P File: Measurements: S11, S21, S12, S22:
# Hz S  RI   R 50
950000000 0.95520926 -0.29362386 -1.3047558 0.50309652 0.0066266386 0.023194863 0.85900319 -0.2598291
1106250000 0.93518293 -0.32716578 -1.2498515 0.54121804 0.0089218635 0.021657903 0.84871161 -0.28953126
1262500000 0.922167 -0.36597726 -1.2201122 0.61156923 0.010914371 0.026309503 0.83780843 -0.32219654
1418750000 0.90187961 -0.39494672 -1.1744089 0.64930594 0.011986636 0.028445262 0.82373214 -0.34591311
1575000000 0.8912136 -0.42080656 -1.1306695 0.6875031 0.014663801 0.032286931 0.8165319 -0.36460665
1731250000 0.88259989 -0.44296044 -1.0944957 0.69994783 0.016102806 0.032899778 0.81452781 -0.38366455
1887500000 0.86495066 -0.46921065 -1.0472109 0.72795969 0.020717844 0.035800625 0.80145109 -0.40177029
2043750000 0.84799576 -0.49585301 -1.019156 0.75680661 0.021021262 0.037172433 0.79053235 -0.42297077
2200000000 0.83762276 -0.51398808 -0.98628688 0.78714168 0.023896685 0.038852729 0.77950007 -0.43633947
2356250000 0.81736499 -0.53319567 -0.9643718 0.8265152 0.028027352 0.039909516 0.76930612 -0.45220867
2512500000 0.80579805 -0.5545761 -0.94445372 0.85276103 0.030632263 0.04203948 0.75951785 -0.46748662
2668750000 0.79101652 -0.57284349 -0.92758006 0.87721944 0.034232382 0.042960983 0.74301374 -0.48237076
2825000000 0.77065247 -0.58769721 -0.89120734 0.92227143 0.038310669 0.043283861 0.72457725 -0.49753445
2981250000 0.75183153 -0.61127913 -0.87815356 0.98036557 0.039616022 0.044811357 0.71225953 -0.51710117
3137500000 0.72941279 -0.62550294 -0.86656368 1.0260189 0.044599257 0.047681957 0.69040316 -0.53380638
3293750000 0.71159714 -0.65123653 -0.83492738 1.082943 0.049494661 0.050695144 0.67588019 -0.5511452
3450000000 0.68386239 -0.66960168 -0.81755322 1.1410327 0.054122388 0.049507607 0.64285934 -0.57248986
3606250000 0.65380788 -0.68915117 -0.79894364 1.1881806 0.05745979 0.053309575 0.61183482 -0.58657694
3762500000 0.6251961 -0.7063579 -0.75663984 1.2761184 0.062201776 0.052872438 0.58613843 -0.60812658
3918750000 0.59709722 -0.72823459 -0.72161847 1.3445289 0.068901718 0.052308835 0.55194211 -0.63198823
4075000000 0.5641495 -0.75977737 -0.67742079 1.4184242 0.072541051 0.051730048 0.51900929 -0.65947324
4231250000 0.51071835 -0.77357805 -0.58976609 1.483503 0.080373503 0.051858597 0.47937033 -0.68324786
4387500000 0.46276185 -0.79941511 -0.51001137 1.5621428 0.087072358 0.050162114 0.4357464 -0.70414227
4543750000 0.41962975 -0.82467473 -0.43160611 1.6191027 0.094789475 0.051155612 0.39435947 -0.72586316
4700000000 0.36799109 -0.83734423 -0.36336944 1.6505947 0.10153164 0.048494827 0.35859454 -0.74223071
4856250000 0.31370124 -0.86426699 -0.26384684 1.6971765 0.10791729 0.043962065 0.31894359 -0.75973862
5012500000 0.25339106 -0.87409526 -0.17427918 1.7274762 0.11089694 0.042199265 0.27716306 -0.77301472
5168750000 0.18587677 -0.88169312 -0.03505953 1.7489694 0.11785884 0.03882039 0.23047212 -0.78414321
5325000000 0.11490279 -0.88304156 0.074691363 1.7486483 0.12514275 0.028928716 0.19299996 -0.78883845
5481250000 0.046632841 -0.88101572 0.15815374 1.7462801 0.13044862 0.0202548 0.15993859 -0.79282773
5637500000 -0.0099037541 -0.88514775 0.20660786 1.717877 0.13231023 0.016749008 0.13688463 -0.7952289
5793750000 -0.074809179 -0.87616897 0.32562512 1.6957347 0.1383851 0.013186984 0.1239484 -0.80198562
5950000000 -0.14381908 -0.86232978 0.42729369 1.6935229 0.1404953 0.0061126165 0.097547293 -0.80342615
6106250000 -0.20541346 -0.83932924 0.50014925 1.6587182 0.14492032 -0.0024094891 0.07271181 -0.79565984
6262500000 -0.26374418 -0.81065381 0.59952158 1.6066961 0.14276238 -0.0099934628 0.060809996 -0.77767891
6418750000 -0.30382118 -0.79626817 0.64702481 1.5910001 0.14244701 -0.017759515 0.048816718 -0.76484782
6575000000 -0.34949881 -0.76153111 0.67282575 1.5227458 0.14153427 -0.024836555 0.042318434 -0.76581603
6731250000 -0.40784529 -0.75252616 0.72475779 1.4838212 0.14311115 -0.027327666 0.041266005 -0.75787956
6887500000 -0.46155983 -0.73758227 0.83972538 1.4761502 0.14508292 -0.034212425 0.021810584 -0.75467598
7043750000 -0.52310222 -0.67930412 0.92208087 1.467796 0.14493331 -0.041639619 -0.0094654765 -0.75028598
7200000000 -0.55962682 -0.62642074 0.98182994 1.414444 0.14043483 -0.047268581 -0.051763035 -0.74022895
