!Keysight Technologies,M9375A,US54320202,A.12.55.09
!Date: Monday, July 10, 2023 14:20:27
!Correction: S11(Full 2 Port(1,2)) 
!S21(Full 2 Port(1,2)) 
!S12(Full 2 Port(1,2)) 
!S22(Full 2 Port(1,2)) 
!S2P File: Measurements: S11, S21, S12, S22:
# Hz S  RI   R 50
950000000 0.93778551 -0.32097903 -3.0515442 1.2112303 0.0055655767 0.018201791 0.71689504 -0.22727457
1106250000 0.91748726 -0.35957929 -2.9415309 1.3286875 0.0087370081 0.021664357 0.70726752 -0.25352803
1262500000 0.90337747 -0.39877719 -2.8533483 1.4692308 0.0087134549 0.023766801 0.70165116 -0.27894136
1418750000 0.87768608 -0.43106228 -2.7299821 1.5854892 0.0093925698 0.024930371 0.69178867 -0.30081958
1575000000 0.86435771 -0.45506519 -2.6190722 1.6602113 0.012861763 0.027794288 0.68512791 -0.31960401
1731250000 0.8484329 -0.48033562 -2.5181477 1.7221662 0.014331982 0.02975476 0.67924583 -0.33760408
1887500000 0.82786459 -0.504363 -2.4131126 1.8014681 0.016635604 0.03071891 0.67205906 -0.34895167
2043750000 0.80578351 -0.53198677 -2.3270113 1.8886151 0.021091992 0.031758182 0.65893853 -0.36601487
2200000000 0.78715992 -0.5502519 -2.2471886 1.950201 0.021154093 0.035749696 0.65039539 -0.37757537
2356250000 0.76791912 -0.57207268 -2.1637127 2.0439808 0.023522174 0.033855118 0.64052981 -0.38932443
2512500000 0.74935371 -0.59137583 -2.0795548 2.1225753 0.02718032 0.035370614 0.63049734 -0.40317592
2668750000 0.72970808 -0.60851556 -2.0230792 2.2032592 0.029426461 0.036291361 0.61734927 -0.41299844
2825000000 0.70162922 -0.6263935 -1.932045 2.3074534 0.032458369 0.037722636 0.59226424 -0.42224622
2981250000 0.67558801 -0.6475606 -1.8716307 2.4404304 0.03260323 0.040493805 0.58069503 -0.4331252
3137500000 0.64904511 -0.66174221 -1.8034 2.5625556 0.039391641 0.040672265 0.55743748 -0.44455186
3293750000 0.62227136 -0.68403566 -1.726746 2.6668136 0.041282263 0.043065824 0.53641683 -0.45769247
3450000000 0.58675003 -0.69388908 -1.6351663 2.7832222 0.044061184 0.0423861 0.50524831 -0.46952066
3606250000 0.54741466 -0.71614528 -1.5291256 2.9232779 0.048420593 0.044440102 0.47615388 -0.47966331
3762500000 0.51162124 -0.7273801 -1.416689 3.066602 0.050831743 0.045595318 0.44774738 -0.48615268
3918750000 0.47203973 -0.74214965 -1.2743807 3.2052095 0.054857161 0.043760438 0.41954303 -0.49531156
4075000000 0.42547259 -0.76246446 -1.1270697 3.3467147 0.0628253 0.045256961 0.38887635 -0.51660746
4231250000 0.36883584 -0.77431232 -0.92207599 3.4528651 0.067844503 0.045378286 0.34425548 -0.53096688
4387500000 0.30798754 -0.78974444 -0.71386069 3.5799081 0.071946509 0.042320926 0.30351248 -0.54169071
4543750000 0.25462347 -0.79611719 -0.50886905 3.6714871 0.076615177 0.044466004 0.26731008 -0.55356652
4700000000 0.19664551 -0.79518521 -0.30444506 3.7470994 0.081156358 0.039309982 0.23695014 -0.56276268
4856250000 0.14017758 -0.8014555 -0.064593837 3.8048954 0.086873859 0.034581915 0.200124 -0.57376766
5012500000 0.07173945 -0.7907691 0.19538279 3.8124063 0.087545849 0.034280967 0.16838151 -0.57966149
5168750000 0.0041030329 -0.78048438 0.47155038 3.7729483 0.094681032 0.034307528 0.13446474 -0.58028471
5325000000 -0.056568444 -0.75686324 0.69562215 3.7022638 0.097774215 0.02537203 0.095239259 -0.57673293
5481250000 -0.11686831 -0.7349416 0.9447099 3.6339974 0.10167157 0.021506041 0.072699361 -0.57350177
5637500000 -0.16432416 -0.71960372 1.1180477 3.5486915 0.10702632 0.017391903 0.055652913 -0.57517326
5793750000 -0.21753797 -0.69863129 1.3051898 3.4496937 0.11005735 0.012727014 0.047197834 -0.57822436
5950000000 -0.27002591 -0.6701715 1.5187683 3.3000152 0.11274398 0.0072221025 0.035479844 -0.57408595
6106250000 -0.31674114 -0.63334817 1.6682202 3.1931036 0.11252648 0.0032898248 0.015878368 -0.56424856
6262500000 -0.35518345 -0.60240406 1.8067971 3.0504823 0.11402576 -0.0012881896 0.018743642 -0.545609
6418750000 -0.38141209 -0.57094216 1.9242982 2.9256785 0.11169091 -0.0053158118 0.017597843 -0.52889216
6575000000 -0.40550184 -0.53333771 2.0074394 2.7832134 0.11201508 -0.011345113 0.021325454 -0.52572662
6731250000 -0.45239288 -0.51444805 2.1471188 2.6886809 0.11232423 -0.011947534 0.028024558 -0.5247829
6887500000 -0.48991913 -0.49613822 2.2877495 2.5602465 0.11440849 -0.01557473 0.022509737 -0.52023405
7043750000 -0.51340944 -0.43892306 2.4170933 2.3934822 0.11313114 -0.022847939 -0.00031838298 -0.51008475
7200000000 -0.53455311 -0.39440131 2.5197735 2.1925454 0.11637017 -0.024441559 -0.02197169 -0.49635768
