!Keysight Technologies,M9375A,US54320202,A.12.55.09
!Date: Monday, July 10, 2023 14:21:44
!Correction: S11(Full 2 Port(1,2)) 
!S21(Full 2 Port(1,2)) 
!S12(Full 2 Port(1,2)) 
!S22(Full 2 Port(1,2)) 
!S2P File: Measurements: S11, S21, S12, S22:
# Hz S  RI   R 50
950000000 0.92526728 -0.34340221 -4.637701 2.0008016 0.0051791957 0.017628616 0.61451119 -0.19644244
1106250000 0.89965045 -0.37820029 -4.4356847 2.1724722 0.0067033218 0.021006521 0.60396802 -0.219796
1262500000 0.88132542 -0.42368981 -4.2406001 2.4121277 0.0079387603 0.022092149 0.60674781 -0.23838273
1418750000 0.85498226 -0.45185009 -4.045836 2.5783389 0.010155837 0.02282382 0.59809864 -0.25973731
1575000000 0.83546007 -0.48115572 -3.847079 2.7235045 0.010542518 0.022990787 0.59204382 -0.27462661
1731250000 0.81818247 -0.50279838 -3.6756034 2.812345 0.012799723 0.026751701 0.59315139 -0.28768763
1887500000 0.7932722 -0.52975404 -3.4720616 2.9449325 0.013970111 0.026219407 0.58798105 -0.30065313
2043750000 0.76385522 -0.5528211 -3.3006723 3.0765202 0.01705889 0.028358139 0.57802218 -0.30901766
2200000000 0.74647391 -0.57306439 -3.1507368 3.190048 0.019104403 0.02974461 0.56998128 -0.317157
2356250000 0.72010821 -0.58955061 -2.9866035 3.3111699 0.019455031 0.033268459 0.56289887 -0.32548401
2512500000 0.69714433 -0.60870004 -2.8351915 3.4209814 0.021692924 0.033765461 0.55147129 -0.33342692
2668750000 0.67321217 -0.62225682 -2.7085481 3.5347457 0.024741549 0.032850273 0.54146695 -0.34294191
2825000000 0.64095563 -0.63792449 -2.5422163 3.670311 0.026862074 0.036885288 0.51806027 -0.34427786
2981250000 0.61356533 -0.6577943 -2.3997228 3.830173 0.027930336 0.036374114 0.51040804 -0.35483122
3137500000 0.58235306 -0.66761082 -2.2409165 3.9895005 0.033253238 0.039141219 0.4881922 -0.35986495
3293750000 0.55468875 -0.68682319 -2.1025999 4.1336131 0.034672305 0.040195864 0.47410604 -0.36831704
3450000000 0.51493198 -0.69213343 -1.9268485 4.2646642 0.03842346 0.039053146 0.43907222 -0.37634999
3606250000 0.46808183 -0.70764464 -1.7341138 4.4196696 0.043598868 0.041107096 0.41564363 -0.37812865
3762500000 0.42925489 -0.71090513 -1.515417 4.5811572 0.045961998 0.041427985 0.386765 -0.38741136
3918750000 0.38790789 -0.7210291 -1.2705046 4.716104 0.046466019 0.041585065 0.36875415 -0.39543197
4075000000 0.33606774 -0.72927564 -1.0199901 4.8526545 0.051518824 0.041216269 0.33806923 -0.40586033
4231250000 0.27980277 -0.73316717 -0.68778068 4.9587474 0.055754177 0.041643705 0.29930589 -0.41504607
4387500000 0.21939693 -0.73641443 -0.38350645 5.0713372 0.059566926 0.042795323 0.26573434 -0.42328373
4543750000 0.162458 -0.73333675 -0.058507659 5.1334548 0.064246349 0.040840659 0.23412755 -0.4333398
4700000000 0.11021458 -0.71735579 0.25326011 5.1496949 0.067840636 0.040962189 0.20770399 -0.44176006
4856250000 0.053190809 -0.71488023 0.60375714 5.1225815 0.075169347 0.036149699 0.17686801 -0.44919163
5012500000 0.00018173813 -0.69495511 0.92610699 5.0595388 0.07561896 0.03492 0.15125477 -0.45166585
5168750000 -0.058654182 -0.6732775 1.2829117 4.9240651 0.075928599 0.036347825 0.12182764 -0.45491549
5325000000 -0.11541717 -0.64158428 1.5534427 4.7774143 0.083641618 0.030598585 0.094874278 -0.45122135
5481250000 -0.1632192 -0.61370713 1.8463588 4.6275535 0.086328603 0.026326606 0.075251631 -0.44704658
5637500000 -0.20203732 -0.59145468 2.0851305 4.4582529 0.09190391 0.023902522 0.064186968 -0.44668227
5793750000 -0.24713814 -0.56712723 2.3133163 4.2983232 0.092591792 0.019838201 0.057379749 -0.45100269
5950000000 -0.281454 -0.54267317 2.5088608 4.0957541 0.097180143 0.017409816 0.050340697 -0.45349872
6106250000 -0.31755635 -0.50493544 2.6862082 3.8652382 0.09921778 0.013977903 0.041630916 -0.44064251
6262500000 -0.34946328 -0.47067872 2.835516 3.6383588 0.10082959 0.0063960119 0.046079405 -0.42737755
6418750000 -0.36086696 -0.44607583 2.9662817 3.4220643 0.10169808 0.0059289956 0.057698205 -0.41008639
6575000000 -0.37314591 -0.4138568 3.0305445 3.2020218 0.10058228 0.00016693826 0.065351218 -0.41049483
6731250000 -0.40325081 -0.3938095 3.1584232 3.0431082 0.10186369 0.00095641823 0.074702822 -0.41581833
6887500000 -0.43557814 -0.37939146 3.2920368 2.8587747 0.10494301 -0.0015021603 0.071819268 -0.41367945
7043750000 -0.45708001 -0.33749163 3.4123533 2.6084197 0.10652358 -0.0076616472 0.056878634 -0.41093397
7200000000 -0.4714061 -0.29855451 3.4708388 2.3413339 0.11111412 -0.011557205 0.042376097 -0.40545064
