!Keysight Technologies,M9375A,US54320202,A.12.55.09
!Date: Monday, July 10, 2023 14:28:18
!Correction: S11(Full 2 Port(1,2)) 
!S21(Full 2 Port(1,2)) 
!S12(Full 2 Port(1,2)) 
!S22(Full 2 Port(1,2)) 
!S2P File: Measurements: S11, S21, S12, S22:
# Hz S  RI   R 50
950000000 0.9029969 -0.3413136 -4.8204951 2.128109 0.0049658371 0.01447282 0.57366753 -0.17098354
1106250000 0.88261187 -0.37649682 -4.5634494 2.3353426 0.0059238798 0.015746539 0.57109052 -0.18997592
1262500000 0.86464614 -0.41859883 -4.3448391 2.5612237 0.0069980384 0.020984374 0.57224345 -0.20905675
1418750000 0.83868045 -0.45306969 -4.1299152 2.7341115 0.0079468973 0.020678574 0.56408685 -0.23011436
1575000000 0.81865865 -0.47727925 -3.931391 2.8677995 0.010700234 0.022670243 0.56100589 -0.24182774
1731250000 0.8002885 -0.50008661 -3.7259643 2.9650741 0.012258635 0.02416984 0.56201446 -0.25354517
1887500000 0.77474165 -0.5200184 -3.4878235 3.0521193 0.013717956 0.025821261 0.56447625 -0.26716769
2043750000 0.74640369 -0.54658318 -3.2910388 3.1549504 0.015905861 0.026077306 0.55763209 -0.28130189
2200000000 0.72803319 -0.56418437 -3.1388345 3.2489076 0.017548198 0.030228909 0.55042714 -0.28380683
2356250000 0.70314658 -0.57747477 -2.9931011 3.3567483 0.018831817 0.02977326 0.54630816 -0.29185513
2512500000 0.68047369 -0.59525806 -2.8508208 3.4941635 0.018826429 0.02982224 0.53293592 -0.29931435
2668750000 0.65754414 -0.60830396 -2.7157724 3.6148219 0.021752102 0.032689106 0.51914155 -0.30653545
2825000000 0.63124609 -0.62428516 -2.5600173 3.7176003 0.025811629 0.033341154 0.50170857 -0.3155264
2981250000 0.60547656 -0.64258808 -2.4342399 3.8488882 0.027039465 0.035498459 0.49588394 -0.32180154
3137500000 0.57050419 -0.64865404 -2.287122 3.9853632 0.029201722 0.033556905 0.47635958 -0.32729104
3293750000 0.54078299 -0.66749775 -2.1333177 4.1364484 0.03312673 0.038544159 0.46317345 -0.3322821
3450000000 0.5049305 -0.67952687 -1.9718397 4.3091154 0.032073803 0.035206623 0.43290189 -0.33878419
3606250000 0.46015504 -0.68667597 -1.7684536 4.4405789 0.039085533 0.039672986 0.40689424 -0.34217694
3762500000 0.42187873 -0.69454825 -1.5242385 4.5910501 0.039328203 0.037456453 0.37797675 -0.34879509
3918750000 0.38442582 -0.7031973 -1.2744073 4.6937346 0.043482415 0.038595684 0.36213949 -0.35718185
4075000000 0.33800328 -0.71669477 -1.0393913 4.8365073 0.046998553 0.040901564 0.33674875 -0.36515573
4231250000 0.27617073 -0.71732116 -0.73005462 4.9511256 0.052184109 0.039795261 0.30709308 -0.37771198
4387500000 0.22056337 -0.71503979 -0.43663031 5.0775204 0.055250928 0.041030359 0.27538463 -0.38253114
4543750000 0.1672083 -0.71286094 -0.097753651 5.1429319 0.059469558 0.03958926 0.24635197 -0.39299551
4700000000 0.11920758 -0.69879997 0.20320643 5.1587844 0.063976891 0.038480923 0.21901293 -0.39451674
4856250000 0.065379791 -0.70156318 0.54078043 5.1171608 0.063992858 0.03796272 0.19529429 -0.41082528
5012500000 0.0089963693 -0.68115509 0.85842013 5.0571256 0.070844136 0.036013175 0.16733885 -0.42188412
5168750000 -0.046682399 -0.65788668 1.187206 4.9136062 0.072520725 0.03378031 0.14215714 -0.42376989
5325000000 -0.10237981 -0.63606435 1.4807341 4.8117337 0.07982152 0.031881839 0.11903035 -0.42663568
5481250000 -0.14709751 -0.60071599 1.8107259 4.6456342 0.081007905 0.030257316 0.10216831 -0.41960701
5637500000 -0.18232244 -0.57880044 2.0745852 4.4810419 0.08514443 0.026986158 0.090954348 -0.42177287
5793750000 -0.2267085 -0.5596984 2.2795627 4.3219872 0.086637862 0.022205384 0.082625888 -0.4253023
5950000000 -0.26462629 -0.53915197 2.4764531 4.0995097 0.089286104 0.019744163 0.069927208 -0.43104663
6106250000 -0.29723474 -0.50474405 2.6382813 3.8737118 0.089919344 0.017570091 0.059200559 -0.42364383
6262500000 -0.33162051 -0.46839547 2.7807279 3.6600378 0.093871757 0.011338517 0.066221744 -0.41033185
6418750000 -0.34448418 -0.44049948 2.9170403 3.4447916 0.09451551 0.0078597376 0.078239202 -0.39624
6575000000 -0.35224462 -0.4086141 3.0030107 3.2257526 0.092810079 0.0054267482 0.088080451 -0.39418942
6731250000 -0.37737295 -0.39347669 3.1149616 3.0541899 0.093974002 0.0062708026 0.099496014 -0.394905
6887500000 -0.41020223 -0.38415357 3.2462413 2.8646719 0.09862861 0.0028453961 0.096255183 -0.39750612
7043750000 -0.43223172 -0.34354866 3.3438866 2.6276679 0.098182037 -0.0021716151 0.078349538 -0.39571354
7200000000 -0.45261809 -0.30723095 3.428242 2.3777192 0.1004651 -0.0080284178 0.057910893 -0.39290625
