!Agilent Technologies,E5071C,MY46214845,A.10.06
!Date: Fri Jan 10 10:28:52 2025
!Data & Calibration Information:
!Freq	S11:SOLT2(ON)	S21:SOLT2(ON)	S12:SOLT2(ON)	S22:SOLT2(ON)
!PortZ  Port1:50+j0    Port2:50+j0
!Above PortZ is port z conversion or system Z0 setting when saving the data.
!When reading, reference impedance value at option line is always used.
# Hz S dB R 50
100000000	5.331581e-003	-1.317614e+001	-7.339897e+001	1.627456e+002	-8.013553e+001	-1.085131e+002	-6.534994e-003	-6.579741e+000
115800000	-3.387941e-003	-1.519245e+001	-7.848836e+001	-2.762671e+001	-7.023533e+001	-7.085579e-001	-3.730143e-004	-7.595379e+000
131600000	-4.098155e-003	-1.732383e+001	-7.578636e+001	1.240203e+002	-8.261910e+001	-6.842228e+001	-1.366216e-002	-8.635031e+000
147400000	-8.408390e-003	-1.939246e+001	-7.072642e+001	6.846539e+001	-7.701895e+001	1.339533e+002	-1.136808e-002	-9.690687e+000
163200000	-7.601075e-004	-2.150353e+001	-7.859363e+001	-7.277024e+001	-7.566049e+001	1.496254e+002	-1.835638e-002	-1.079459e+001
179000000	-8.159722e-003	-2.361043e+001	-7.925896e+001	-8.760915e+001	-7.946576e+001	5.537580e+001	-9.441168e-003	-1.180597e+001
194800000	2.742291e-003	-2.567936e+001	-7.452896e+001	7.521405e+001	-7.885710e+001	-2.458273e+001	-1.222501e-002	-1.289337e+001
210600000	6.712805e-003	-2.784319e+001	-7.799104e+001	1.533594e+002	-8.113328e+001	-9.143987e+001	2.066883e-003	-1.400593e+001
226400000	1.297602e-002	-2.989371e+001	-7.194148e+001	-8.282022e+001	-7.338316e+001	-1.666887e+000	3.859172e-004	-1.503086e+001
242200000	1.588387e-002	-3.199461e+001	-8.421268e+001	7.192870e+001	-7.939883e+001	8.315539e+000	-3.198652e-003	-1.605067e+001
258000000	1.725668e-002	-3.403135e+001	-7.767553e+001	1.714091e+002	-9.096439e+001	1.683120e+002	5.615386e-003	-1.703739e+001
273800000	1.375715e-002	-3.612247e+001	-7.328027e+001	5.442765e+001	-7.226136e+001	2.848669e+001	-1.412275e-003	-1.807712e+001
289600000	1.540909e-002	-3.826864e+001	-8.074591e+001	-1.627393e+002	-7.749498e+001	1.201394e+002	-7.048842e-003	-1.906432e+001
305400000	1.393854e-002	-4.040767e+001	-7.644380e+001	-5.981421e+001	-7.511334e+001	-1.458570e+001	-5.970543e-003	-2.008249e+001
321200000	2.351383e-003	-4.248536e+001	-9.692761e+001	-2.797563e+001	-7.700704e+001	-9.188794e+001	-1.025804e-002	-2.124617e+001
337000000	1.845524e-002	-4.467949e+001	-7.413377e+001	-1.504554e+001	-8.399514e+001	9.531680e+001	-4.720436e-003	-2.226192e+001
352800000	1.762348e-002	-4.682411e+001	-6.544482e+001	-6.226821e+001	-7.715625e+001	3.729302e+001	-3.102491e-003	-2.339480e+001
368600000	2.227986e-002	-4.882913e+001	-7.461791e+001	-1.075484e+002	-7.042513e+001	1.457585e+002	-1.011373e-002	-2.438323e+001
384400000	2.047193e-002	-5.103911e+001	-8.742104e+001	1.720730e+002	-7.608677e+001	1.037008e+002	-1.223092e-003	-2.546626e+001
400200000	1.644980e-002	-5.307470e+001	-7.603692e+001	1.118609e+002	-8.505647e+001	-6.160390e+001	1.362880e-002	-2.652294e+001
416000000	2.714656e-002	-5.527971e+001	-7.535941e+001	-1.082189e+001	-8.413511e+001	7.313096e+001	7.681161e-003	-2.759097e+001
431800000	3.643494e-002	-5.732418e+001	-7.724312e+001	-8.491029e+001	-8.341597e+001	4.489463e+001	1.426666e-002	-2.861540e+001
447600000	2.424069e-002	-5.953977e+001	-8.534787e+001	3.310573e+001	-7.527769e+001	-1.448308e+002	3.278967e-003	-2.967745e+001
463400000	3.479673e-002	-6.166591e+001	-7.427452e+001	4.491408e+000	-7.719235e+001	-1.532247e+002	7.176898e-003	-3.065129e+001
479200000	3.246574e-002	-6.388687e+001	-7.678800e+001	-3.180162e+001	-7.634513e+001	3.954125e+001	2.191436e-002	-3.171150e+001
495000000	2.531285e-002	-6.598397e+001	-7.814498e+001	1.107416e+002	-8.256167e+001	-2.704853e+001	5.381457e-003	-3.270411e+001
510800000	2.270490e-002	-6.821900e+001	-7.723645e+001	3.896722e+000	-7.118224e+001	-5.330126e+001	1.280981e-002	-3.391945e+001
526600000	2.803809e-002	-7.023369e+001	-8.335123e+001	3.541486e+001	-7.569254e+001	1.133891e+001	-6.190820e-004	-3.485154e+001
542400000	3.277008e-002	-7.248125e+001	-8.075136e+001	1.112736e+002	-7.245031e+001	4.576626e+001	2.317979e-002	-3.596783e+001
558200000	2.981232e-002	-7.458054e+001	-8.687644e+001	2.574342e+001	-7.475471e+001	7.686221e+001	8.246805e-003	-3.707746e+001
574000000	2.418505e-002	-7.665165e+001	-8.529606e+001	-1.023443e+002	-7.636869e+001	1.325307e+002	5.366339e-003	-3.806640e+001
589800000	3.409255e-002	-7.893505e+001	-8.074424e+001	1.223779e+002	-7.743648e+001	-1.464406e+001	2.808278e-002	-3.920325e+001
605600000	3.096157e-002	-8.109796e+001	-8.012111e+001	5.501475e+001	-7.222146e+001	-9.372627e+001	3.257163e-002	-4.016283e+001
621400000	4.415634e-002	-8.339001e+001	-7.559405e+001	-1.387805e+002	-7.170671e+001	-1.353102e+002	2.202141e-002	-4.125650e+001
637200000	4.234452e-002	-8.553938e+001	-7.463873e+001	-8.239432e+001	-7.532793e+001	1.739317e+002	2.246344e-002	-4.231580e+001
653000000	2.098660e-002	-8.774558e+001	-7.740477e+001	1.452647e+001	-8.676510e+001	-1.738866e+002	2.852413e-002	-4.340471e+001
668800000	2.562815e-002	-9.005112e+001	-7.510379e+001	2.246464e+001	-7.404900e+001	-1.707322e+002	1.627563e-003	-4.450117e+001
684600000	3.057961e-002	-9.217664e+001	-8.175706e+001	-9.077265e+001	-7.613201e+001	-2.557651e+001	2.477900e-002	-4.558172e+001
700400000	3.058076e-002	-9.438630e+001	-6.940662e+001	-1.534311e+002	-7.953320e+001	-7.678004e+001	1.559482e-002	-4.661102e+001
716200000	2.333200e-002	-9.656426e+001	-7.877497e+001	-1.147524e+002	-9.082427e+001	1.534394e+002	1.578761e-002	-4.768138e+001
732000000	3.245600e-002	-9.868264e+001	-7.087559e+001	1.620223e+002	-7.680685e+001	-1.487844e+002	2.346402e-002	-4.877970e+001
747800000	2.317397e-002	-1.008611e+002	-7.518539e+001	1.587504e+002	-7.659661e+001	1.236191e+002	2.410131e-002	-4.978442e+001
763600000	1.393940e-002	-1.031401e+002	-8.744933e+001	-1.515654e+002	-8.559771e+001	1.681327e+002	3.969770e-002	-5.082268e+001
779400000	-1.040767e-003	-1.054249e+002	-7.108900e+001	1.459309e+002	-7.937860e+001	-9.759906e+001	3.491191e-002	-5.188816e+001
795200000	-2.647036e-002	-1.075765e+002	-7.609800e+001	6.645397e+001	-7.989036e+001	1.617255e+002	3.168795e-002	-5.297976e+001
811000000	-6.305645e-002	-1.099602e+002	-7.925420e+001	2.323841e+001	-8.826802e+001	-4.990355e+001	2.258601e-002	-5.408405e+001
826800000	-6.720036e-002	-1.116448e+002	-7.134298e+001	4.149763e+001	-7.851702e+001	-8.705086e+001	8.536438e-003	-5.514501e+001
842600000	-1.184819e-002	-1.139398e+002	-7.324625e+001	8.481441e+001	-8.007610e+001	-6.503969e+001	1.160816e-002	-5.633048e+001
858400000	-3.220225e-004	-1.161780e+002	-8.228122e+001	-1.761277e+002	-7.611748e+001	-8.047642e+001	1.696288e-002	-5.736314e+001
874200000	7.772095e-003	-1.185166e+002	-7.284907e+001	-1.183872e+002	-8.119364e+001	-1.278499e+002	2.911185e-003	-5.843972e+001
890000000	8.183446e-003	-1.206978e+002	-7.081192e+001	2.408374e+001	-8.025984e+001	1.545157e+002	2.807590e-002	-5.964101e+001
905800000	2.876683e-003	-1.229471e+002	-7.404343e+001	-6.944786e+001	-7.547202e+001	-1.532523e+002	2.304808e-002	-6.053954e+001
921600000	3.284396e-003	-1.251370e+002	-8.173467e+001	1.799963e+002	-7.824976e+001	-8.969574e+001	3.430082e-002	-6.156954e+001
937400000	-1.107095e-002	-1.273604e+002	-7.078884e+001	8.787790e+001	-8.309955e+001	-1.259238e+002	3.926232e-002	-6.267689e+001
953200000	-2.513320e-002	-1.296195e+002	-7.575052e+001	1.427522e+000	-7.631359e+001	-1.783412e+002	4.152696e-002	-6.366308e+001
969000000	-3.253299e-002	-1.317844e+002	-7.144540e+001	-1.789788e+001	-7.616030e+001	-5.719859e+001	3.288202e-002	-6.483469e+001
984800000	-2.442957e-002	-1.341037e+002	-6.503376e+001	-3.546407e+001	-8.230430e+001	1.154023e+002	2.111049e-002	-6.594422e+001
1000600000	-2.589558e-002	-1.364694e+002	-7.544594e+001	-8.760937e+001	-8.275098e+001	1.450050e+002	1.298197e-002	-6.708435e+001
1016400000	-2.653981e-002	-1.387336e+002	-8.605808e+001	4.674816e+001	-8.186281e+001	8.733487e+001	1.931542e-002	-6.828390e+001
1032200000	-2.874333e-002	-1.410341e+002	-6.991884e+001	-3.756290e+001	-8.533226e+001	1.471316e+002	3.063119e-002	-6.932565e+001
1048000000	-2.654386e-002	-1.432784e+002	-6.830640e+001	-4.942177e+001	-7.487201e+001	-1.302358e+002	3.091136e-002	-7.043899e+001
1063800000	-4.097278e-002	-1.455300e+002	-7.687735e+001	7.222547e+001	-8.504136e+001	-1.956204e+001	3.017499e-002	-7.158986e+001
1079600000	-3.747065e-002	-1.477748e+002	-7.120206e+001	-7.460089e+001	-7.533953e+001	1.731845e+002	4.825517e-002	-7.255263e+001
1095400000	-2.993776e-002	-1.499989e+002	-8.083214e+001	-1.119475e+002	-8.232689e+001	1.423675e+002	3.569902e-002	-7.362140e+001
1111200000	-3.956668e-002	-1.522131e+002	-7.311286e+001	-1.187827e+002	-8.294216e+001	-1.443212e+002	5.828576e-002	-7.460148e+001
1127000000	-5.499223e-002	-1.544320e+002	-7.724354e+001	-1.384163e+002	-8.084024e+001	-1.364326e+002	4.321703e-002	-7.566997e+001
1142800000	-6.555069e-002	-1.567931e+002	-7.295437e+001	-1.458707e+002	-7.824788e+001	1.517470e+002	3.487413e-002	-7.664485e+001
1158600000	-7.136040e-002	-1.590351e+002	-7.299440e+001	-8.032276e+001	-7.794358e+001	5.881558e+001	3.661954e-002	-7.787222e+001
1174400000	-7.794522e-002	-1.613758e+002	-6.933692e+001	-1.266500e+002	-7.427424e+001	1.464503e+002	7.384445e-003	-7.894118e+001
1190200000	-7.710306e-002	-1.636541e+002	-7.761888e+001	8.883881e+001	-8.610090e+001	5.513560e+001	2.308472e-002	-8.023630e+001
1206000000	-7.918534e-002	-1.659283e+002	-6.921066e+001	-9.146201e+001	-7.951558e+001	-6.503371e+001	1.230134e-003	-8.139737e+001
1221800000	-8.112957e-002	-1.681643e+002	-7.551645e+001	-1.068081e+002	-8.027282e+001	1.021193e+002	2.163410e-002	-8.254605e+001
1237600000	-8.726236e-002	-1.704135e+002	-6.674302e+001	-3.014905e+001	-8.092941e+001	-8.529270e+001	1.782236e-002	-8.368582e+001
1253400000	-8.909107e-002	-1.726325e+002	-6.843260e+001	-1.027813e+002	-7.892893e+001	1.673904e+002	3.599041e-002	-8.481061e+001
1269200000	-1.040917e-001	-1.748780e+002	-6.566354e+001	-8.092001e+001	-7.826517e+001	8.255221e+001	4.156008e-002	-8.581475e+001
1285000000	-1.193068e-001	-1.771423e+002	-7.046718e+001	-1.235052e+002	-8.503439e+001	1.354665e+002	4.665592e-002	-8.683231e+001
1300800000	-1.288587e-001	-1.794003e+002	-6.975726e+001	-1.003379e+002	-7.733950e+001	9.739164e+001	3.530863e-002	-8.782782e+001
1316600000	-1.502285e-001	1.783134e+002	-6.756994e+001	-1.331124e+002	-7.081203e+001	8.627120e+001	4.105252e-002	-8.885362e+001
1332400000	-1.468352e-001	1.760433e+002	-6.997609e+001	-1.186605e+002	-7.980285e+001	5.961538e+001	1.947912e-002	-9.001630e+001
1348200000	-1.539687e-001	1.738368e+002	-6.393379e+001	-1.016932e+002	-8.698028e+001	7.128601e+001	1.551372e-002	-9.111644e+001
1364000000	-1.528827e-001	1.715487e+002	-6.093867e+001	-1.200508e+002	-6.990128e+001	1.023882e+002	7.890438e-003	-9.236118e+001
1379800000	-1.569626e-001	1.693067e+002	-5.953488e+001	-1.336217e+002	-7.079307e+001	8.493712e+001	9.476596e-003	-9.340276e+001
1395600000	-1.646316e-001	1.670428e+002	-6.476690e+001	-1.728359e+002	-6.952706e+001	6.061608e+001	7.758091e-003	-9.470106e+001
1411400000	-1.642275e-001	1.647840e+002	-6.120540e+001	-1.724160e+002	-7.355794e+001	7.647611e+001	3.575989e-002	-9.587665e+001
1427200000	-1.948387e-001	1.626619e+002	-6.557687e+001	1.784699e+002	-6.555338e+001	2.168740e+001	2.994230e-002	-9.700057e+001
1443000000	-1.566290e-001	1.606071e+002	-6.350111e+001	-1.679958e+002	-6.959584e+001	-7.227421e+001	3.475777e-002	-9.823995e+001
1458800000	-1.607344e-001	1.582180e+002	-6.366912e+001	1.629755e+002	-7.775079e+001	-1.373895e+002	3.398001e-002	-9.922938e+001
1474600000	-1.702852e-001	1.559564e+002	-6.385919e+001	1.708844e+002	-8.213279e+001	-1.822643e+001	3.186152e-002	-1.002386e+002
1490400000	-1.850678e-001	1.536165e+002	-6.831114e+001	-1.757225e+002	-8.130962e+001	7.050197e+001	5.084039e-002	-1.013562e+002
1506200000	-1.875474e-001	1.512425e+002	-6.260788e+001	1.584384e+002	-2.000000e+002	0.000000e+000	3.390267e-002	-1.023545e+002
1522000000	-2.014505e-001	1.490954e+002	-6.660122e+001	1.702091e+002	-7.322369e+001	4.802425e+000	3.920415e-002	-1.034077e+002
1537800000	-2.148470e-001	1.468055e+002	-6.521073e+001	1.641733e+002	-8.196003e+001	5.976666e+001	2.980163e-002	-1.046111e+002
1553600000	-2.065958e-001	1.445608e+002	-6.609253e+001	1.792612e+002	-7.273092e+001	1.924599e+001	3.439573e-002	-1.058664e+002
1569400000	-2.148223e-001	1.424152e+002	-6.527897e+001	1.510101e+002	-8.244973e+001	1.666854e+001	1.863571e-002	-1.070268e+002
1585200000	-2.129582e-001	1.402835e+002	-6.235269e+001	1.753385e+002	-7.456504e+001	-3.455048e+001	1.787886e-002	-1.082381e+002
1601000000	-2.191620e-001	1.380746e+002	-6.461296e+001	1.748969e+002	-7.050967e+001	-4.276834e+001	2.462637e-002	-1.094277e+002
1616800000	-2.274144e-001	1.358179e+002	-6.636346e+001	1.762002e+002	-7.269752e+001	-4.854841e+001	3.326327e-002	-1.106870e+002
1632600000	-2.460566e-001	1.335092e+002	-6.455912e+001	1.229929e+002	-7.452461e+001	-1.063050e+002	5.024751e-002	-1.117751e+002
1648400000	-2.630349e-001	1.312031e+002	-6.713706e+001	1.341415e+002	-6.889442e+001	-9.224710e+000	1.848152e-002	-1.128379e+002
1664200000	-2.807396e-001	1.289260e+002	-6.723526e+001	1.633842e+002	-8.164479e+001	-1.100378e+002	3.273147e-002	-1.141049e+002
1680000000	-2.991241e-001	1.267908e+002	-6.670342e+001	1.684537e+002	-7.706818e+001	-5.039698e+001	2.046025e-002	-1.152102e+002
1695800000	-2.901792e-001	1.245535e+002	-7.129130e+001	-1.644597e+002	-7.066072e+001	-1.902125e+001	1.954597e-002	-1.163337e+002
1711600000	-2.846692e-001	1.223300e+002	-6.135378e+001	-1.775913e+002	-7.758459e+001	-1.195035e+001	1.324794e-002	-1.175406e+002
1727400000	-2.924120e-001	1.200936e+002	-6.124803e+001	-1.597818e+002	-7.043392e+001	-3.679069e+001	1.705562e-002	-1.187268e+002
1743200000	-2.956063e-001	1.178862e+002	-6.106074e+001	-1.695854e+002	-6.583108e+001	-1.507547e+001	-2.282577e-003	-1.198728e+002
1759000000	-2.839626e-001	1.157913e+002	-5.629685e+001	-1.730789e+002	-7.116362e+001	-8.958247e+000	1.124089e-002	-1.210401e+002
1774800000	-3.200892e-001	1.135836e+002	-5.465466e+001	-1.789177e+002	-7.782273e+001	-3.295916e+001	2.651826e-002	-1.220232e+002
1790600000	-3.499619e-001	1.113645e+002	-5.301705e+001	1.571166e+002	-7.009207e+001	-2.053341e+001	2.583105e-002	-1.233157e+002
1806400000	-3.688600e-001	1.091104e+002	-5.295044e+001	1.460669e+002	-7.536520e+001	-1.615538e+002	2.207763e-002	-1.244160e+002
1822200000	-3.869908e-001	1.068786e+002	-5.385093e+001	1.439324e+002	-6.897698e+001	-4.864093e+001	2.057117e-002	-1.256166e+002
1838000000	-3.967806e-001	1.046132e+002	-5.341061e+001	1.427954e+002	-6.800070e+001	-8.433288e+001	1.508772e-003	-1.269441e+002
1853800000	-3.940450e-001	1.024169e+002	-5.406492e+001	1.477033e+002	-6.748255e+001	-6.945200e+001	-1.913259e-002	-1.280930e+002
1869600000	-3.822464e-001	1.002499e+002	-5.101559e+001	1.476402e+002	-6.472255e+001	-8.890997e+001	-2.362355e-002	-1.294028e+002
1885400000	-4.053706e-001	9.792558e+001	-4.888010e+001	1.479711e+002	-6.858626e+001	-1.032663e+002	-1.485370e-002	-1.305972e+002
1901200000	-4.153563e-001	9.584323e+001	-4.766312e+001	1.465191e+002	-6.586407e+001	-9.125821e+001	-3.329839e-002	-1.317646e+002
1917000000	-4.504051e-001	9.364990e+001	-4.527932e+001	1.393052e+002	-6.444272e+001	-1.442642e+002	-2.879240e-002	-1.329265e+002
1932800000	-5.163286e-001	9.149143e+001	-4.271037e+001	1.289187e+002	-6.397740e+001	-1.412202e+002	-1.873318e-002	-1.340101e+002
1948600000	-5.629211e-001	8.954706e+001	-4.110354e+001	1.127475e+002	-6.518228e+001	-1.472973e+002	-5.409351e-003	-1.351141e+002
1964400000	-6.251670e-001	8.755353e+001	-3.983426e+001	9.693010e+001	-6.621474e+001	1.688579e+002	1.285817e-003	-1.362537e+002
1980200000	-6.936968e-001	8.579550e+001	-3.925667e+001	7.849579e+001	-6.444052e+001	-1.790892e+002	5.182393e-003	-1.372588e+002
1996000000	-6.958789e-001	8.395475e+001	-3.948109e+001	6.569495e+001	-6.485243e+001	1.673585e+002	-1.962534e-003	-1.384942e+002
2011800000	-6.989814e-001	8.201140e+001	-3.926228e+001	5.923270e+001	-6.595912e+001	1.705224e+002	-3.993976e-002	-1.396242e+002
2027600000	-6.972457e-001	8.013187e+001	-3.850820e+001	5.187307e+001	-6.682926e+001	1.684191e+002	-5.849958e-002	-1.408583e+002
2043400000	-6.662053e-001	7.826631e+001	-3.729028e+001	4.060659e+001	-6.165288e+001	1.196745e+002	-8.233053e-002	-1.421195e+002
2059200000	-5.938216e-001	7.663736e+001	-3.658998e+001	2.576588e+001	-5.774044e+001	6.387233e+001	-6.382290e-002	-1.433010e+002
2075000000	-4.895012e-001	7.468355e+001	-3.633700e+001	1.082410e+001	-6.751831e+001	3.460847e+001	-7.060302e-002	-1.446102e+002
2090800000	-4.391790e-001	7.251914e+001	-3.668658e+001	-3.840586e+000	-7.220721e+001	2.092091e+001	-4.409570e-002	-1.459207e+002
2106600000	-3.819155e-001	7.030546e+001	-3.683722e+001	-1.349456e+001	-8.898782e+001	2.035361e+001	-1.901070e-002	-1.471738e+002
2122400000	-3.662491e-001	6.821359e+001	-3.715624e+001	-2.489444e+001	-6.973575e+001	4.822324e+000	-9.684389e-003	-1.483759e+002
2138200000	-3.529107e-001	6.594573e+001	-3.764235e+001	-3.570396e+001	-7.953157e+001	-5.182233e+001	-1.767381e-003	-1.493754e+002
2154000000	-3.494387e-001	6.367134e+001	-3.824191e+001	-4.481841e+001	-7.173355e+001	-1.088505e+001	-2.331287e-003	-1.504096e+002
2169800000	-3.530129e-001	6.127990e+001	-3.860953e+001	-5.161516e+001	-6.694829e+001	-7.408834e+001	-3.731964e-003	-1.514834e+002
2185600000	-3.536967e-001	5.896110e+001	-3.912760e+001	-5.887574e+001	-7.469168e+001	-9.465961e+001	1.189212e-002	-1.525040e+002
2201400000	-3.653864e-001	5.657334e+001	-3.965646e+001	-6.535460e+001	-7.156070e+001	-9.592825e+001	5.456132e-003	-1.538158e+002
2217200000	-3.511914e-001	5.425787e+001	-4.010203e+001	-6.977624e+001	-6.688589e+001	-1.599160e+002	-1.586138e-003	-1.551958e+002
2233000000	-3.567233e-001	5.208997e+001	-4.035180e+001	-7.199412e+001	-6.802571e+001	-1.376647e+002	-1.541381e-002	-1.566725e+002
2248800000	-3.510752e-001	4.992232e+001	-4.052818e+001	-7.614048e+001	-7.168825e+001	1.716650e+002	-3.019735e-002	-1.580831e+002
2264600000	-3.406908e-001	4.796044e+001	-4.016692e+001	-7.759047e+001	-7.081272e+001	-1.624368e+002	-4.441325e-002	-1.594010e+002
2280400000	-3.408092e-001	4.577338e+001	-3.988518e+001	-7.876274e+001	-7.397502e+001	1.447635e+002	-5.293397e-002	-1.607219e+002
2296200000	-3.434374e-001	4.393620e+001	-3.893160e+001	-8.343245e+001	-7.047267e+001	1.296241e+002	-4.962632e-002	-1.618652e+002
2312000000	-3.556991e-001	4.183592e+001	-3.849467e+001	-9.401836e+001	-7.298698e+001	1.265712e+002	-4.994425e-002	-1.629805e+002
2327800000	-3.528700e-001	3.959497e+001	-3.837143e+001	-1.023116e+002	-7.897335e+001	-1.626709e+002	-3.899596e-002	-1.639996e+002
2343600000	-3.597087e-001	3.746682e+001	-3.865532e+001	-1.113178e+002	-6.573173e+001	-1.744458e+002	-3.041853e-002	-1.650443e+002
2359400000	-3.363279e-001	3.526988e+001	-3.880759e+001	-1.203666e+002	-6.728130e+001	-1.781418e+002	-4.091680e-002	-1.660719e+002
2375200000	-3.574554e-001	3.279603e+001	-3.918763e+001	-1.271878e+002	-7.091612e+001	1.627515e+002	-5.437161e-002	-1.673139e+002
2391000000	-3.435666e-001	3.057209e+001	-4.015735e+001	-1.319060e+002	-6.643827e+001	1.347472e+002	-6.700036e-002	-1.684921e+002
2406800000	-3.341412e-001	2.837244e+001	-4.108460e+001	-1.332345e+002	-7.079187e+001	8.142030e+001	-8.092983e-002	-1.699637e+002
2422600000	-3.220050e-001	2.627087e+001	-4.076713e+001	-1.317962e+002	-7.051764e+001	4.257411e+001	-8.298221e-002	-1.714105e+002
2438400000	-3.136690e-001	2.414762e+001	-4.046967e+001	-1.319647e+002	-7.337059e+001	1.101806e+002	-9.148832e-002	-1.728002e+002
2454200000	-3.053732e-001	2.200524e+001	-3.935316e+001	-1.330921e+002	-7.283688e+001	-9.463699e+000	-9.387064e-002	-1.740704e+002
2470000000	-2.944478e-001	1.997166e+001	-3.854917e+001	-1.413573e+002	-6.994409e+001	1.264222e+001	-9.230104e-002	-1.753403e+002
2485800000	-2.812475e-001	1.785093e+001	-3.819453e+001	-1.499832e+002	-9.642842e+001	-6.504034e+001	-7.660168e-002	-1.765658e+002
