!Agilent Technologies,E5071C,MY46214845,A.10.06
!Date: Fri Jan 10 10:25:58 2025
!Data & Calibration Information:
!Freq	S11:SOLT2(ON)	S21:SOLT2(ON)	S12:SOLT2(ON)	S22:SOLT2(ON)
!PortZ  Port1:50+j0    Port2:50+j0
!Above PortZ is port z conversion or system Z0 setting when saving the data.
!When reading, reference impedance value at option line is always used.
# Hz S dB R 50
100000000	-6.060196e-003	-1.319055e+001	-8.370987e+001	1.402696e+002	-7.814613e+001	1.763269e+002	-3.868086e-003	-6.542349e+000
115800000	-5.533655e-003	-1.523298e+001	-7.559472e+001	-1.656302e+001	-7.397956e+001	-1.575435e+002	-8.682358e-003	-7.574009e+000
131600000	3.576400e-003	-1.732241e+001	-9.994577e+001	2.737690e+001	-7.723643e+001	5.675218e+001	-1.692322e-002	-8.610630e+000
147400000	2.044297e-003	-1.938062e+001	-8.663706e+001	-8.510675e+001	-7.423841e+001	1.712939e+002	-1.655385e-002	-9.687937e+000
163200000	-1.914077e-003	-2.158006e+001	-7.094919e+001	4.188419e+001	-7.482221e+001	-4.222531e+001	-1.235418e-002	-1.080135e+001
179000000	-1.452566e-002	-2.357665e+001	-7.869128e+001	9.267937e+001	-6.927977e+001	-3.669412e+001	-8.279686e-003	-1.178522e+001
194800000	2.425800e-003	-2.569506e+001	-7.030279e+001	-3.568732e+001	-8.491726e+001	-5.298066e+001	-9.444125e-003	-1.297196e+001
210600000	1.014074e-002	-2.784920e+001	-8.233202e+001	9.724413e+001	-8.558290e+001	-3.506260e+001	-2.664010e-003	-1.398460e+001
226400000	1.279363e-002	-2.990930e+001	-7.870456e+001	6.189611e+001	-8.527799e+001	-9.515231e+001	5.434186e-003	-1.503334e+001
242200000	1.380400e-002	-3.196881e+001	-7.792498e+001	1.068119e+002	-7.854853e+001	-1.563644e+002	7.654874e-004	-1.600303e+001
258000000	1.340724e-002	-3.405240e+001	-7.416317e+001	3.977627e+001	-8.483912e+001	4.867357e+001	1.005656e-002	-1.704314e+001
273800000	1.523947e-002	-3.616729e+001	-7.902054e+001	-7.085178e+000	-8.785623e+001	-7.637457e+001	2.443777e-003	-1.807289e+001
289600000	1.449949e-002	-3.836908e+001	-7.218578e+001	1.072745e+002	-8.617606e+001	1.606322e+002	-7.814324e-003	-1.908171e+001
305400000	1.298206e-002	-4.040576e+001	-8.683492e+001	-1.322630e+002	-7.047616e+001	1.139251e+002	-5.339954e-003	-2.005255e+001
321200000	4.084669e-004	-4.247616e+001	-8.595740e+001	-9.408044e+001	-8.309105e+001	1.472280e+002	-5.044914e-003	-2.119393e+001
337000000	2.167504e-002	-4.467770e+001	-8.159550e+001	1.517053e+002	-7.688703e+001	-1.735942e+002	-1.191337e-002	-2.221770e+001
352800000	1.608994e-002	-4.677380e+001	-7.762963e+001	6.744572e+001	-7.935706e+001	-3.185023e+001	-7.019539e-003	-2.338974e+001
368600000	2.446789e-002	-4.882498e+001	-7.704205e+001	9.290100e+001	-7.476346e+001	-7.091582e+001	-6.421712e-003	-2.434151e+001
384400000	1.810976e-002	-5.105754e+001	-7.724371e+001	8.742606e-001	-8.238463e+001	-1.404961e+002	-6.007220e-003	-2.549126e+001
400200000	1.369599e-002	-5.310543e+001	-7.831491e+001	1.504394e+002	-7.749119e+001	-1.698529e+002	1.209989e-002	-2.649428e+001
416000000	2.932404e-002	-5.530609e+001	-7.300419e+001	-5.660419e+001	-8.140007e+001	1.315211e+001	7.726047e-003	-2.757011e+001
431800000	3.721149e-002	-5.739494e+001	-9.782239e+001	-1.066045e+002	-7.909644e+001	-4.180944e+001	1.681119e-002	-2.861204e+001
447600000	2.097311e-002	-5.953723e+001	-7.618521e+001	9.734884e+001	-7.405735e+001	-1.122196e+002	2.041467e-003	-2.962730e+001
463400000	4.416380e-002	-6.165061e+001	-7.465051e+001	-1.481818e+001	-7.391139e+001	7.438002e+001	4.107259e-003	-3.063970e+001
479200000	4.046166e-002	-6.393314e+001	-7.543004e+001	1.181132e+002	-9.344826e+001	-3.572803e+001	8.416590e-003	-3.165429e+001
495000000	3.073408e-002	-6.602332e+001	-7.283564e+001	1.379947e+001	-8.408724e+001	-1.373946e+001	-8.724436e-004	-3.270808e+001
510800000	2.904018e-002	-6.825696e+001	-7.527579e+001	-1.080393e+002	-7.698580e+001	-3.937201e+001	1.225858e-002	-3.390213e+001
526600000	2.703972e-002	-7.024349e+001	-7.431037e+001	6.425247e+000	-8.090092e+001	1.143122e+002	3.546824e-003	-3.484292e+001
542400000	3.027044e-002	-7.250375e+001	-7.534273e+001	5.787501e+001	-7.247312e+001	-1.327474e+002	1.535846e-002	-3.599109e+001
558200000	2.422498e-002	-7.460834e+001	-7.501680e+001	-1.278134e+002	-8.185374e+001	8.376635e+001	1.398639e-002	-3.704273e+001
574000000	2.733571e-002	-7.669890e+001	-8.486231e+001	-7.268599e+001	-8.406420e+001	-3.288577e-001	1.035744e-002	-3.810418e+001
589800000	3.179306e-002	-7.897705e+001	-8.363642e+001	8.337918e+001	-8.297527e+001	1.144050e+002	2.658491e-002	-3.919014e+001
605600000	3.487523e-002	-8.115922e+001	-7.522375e+001	-7.987350e+001	-8.289178e+001	-1.421795e+002	2.826824e-002	-4.018602e+001
621400000	3.670598e-002	-8.340639e+001	-7.525380e+001	-9.940876e+001	-7.962951e+001	-1.535654e+002	1.916875e-002	-4.123477e+001
637200000	3.844990e-002	-8.554608e+001	-7.289320e+001	-1.288037e+002	-7.529718e+001	-1.685704e+002	2.423079e-002	-4.230023e+001
653000000	2.914748e-002	-8.775562e+001	-7.887088e+001	-1.335459e+001	-7.289585e+001	-1.453339e+002	2.763408e-002	-4.343240e+001
668800000	3.121988e-002	-9.007400e+001	-6.867008e+001	-1.536491e+001	-8.052938e+001	-1.454747e+002	4.233962e-003	-4.444109e+001
684600000	2.008474e-002	-9.215314e+001	-8.409869e+001	1.051164e+002	-9.083839e+001	1.211545e+002	8.238262e-003	-4.562251e+001
700400000	4.051881e-002	-9.437847e+001	-6.972855e+001	-7.231424e+001	-8.804581e+001	9.484979e+001	1.245287e-002	-4.656273e+001
716200000	2.215626e-002	-9.661721e+001	-7.096899e+001	-1.529785e+002	-7.922618e+001	7.867215e+001	2.005677e-002	-4.770367e+001
732000000	3.446643e-002	-9.872768e+001	-7.033161e+001	3.642790e+001	-8.206635e+001	-1.646091e+002	2.216464e-002	-4.873892e+001
747800000	2.639784e-002	-1.009067e+002	-7.412903e+001	8.652889e+001	-7.302223e+001	-1.164586e+002	1.695814e-002	-4.977688e+001
763600000	1.310658e-002	-1.031868e+002	-7.747219e+001	1.482320e+002	-7.340345e+001	-7.936463e+001	3.730569e-002	-5.083205e+001
779400000	5.211674e-003	-1.054230e+002	-8.125088e+001	1.347126e+002	-7.752616e+001	-1.003118e+002	3.461959e-002	-5.188278e+001
795200000	-2.053048e-002	-1.077237e+002	-7.079841e+001	1.206234e+002	-7.707715e+001	1.773526e+002	3.516623e-002	-5.298863e+001
811000000	-6.398235e-002	-1.101238e+002	-7.779795e+001	1.252428e+002	-8.730967e+001	1.340241e+002	2.673993e-002	-5.411326e+001
826800000	-9.094958e-002	-1.116326e+002	-6.733071e+001	5.264253e+001	-7.740246e+001	-5.137394e+001	1.129151e-002	-5.516323e+001
842600000	-1.245670e-002	-1.139165e+002	-7.227904e+001	-1.176498e+001	-7.236713e+001	-4.887777e+001	9.187655e-003	-5.630884e+001
858400000	1.483363e-002	-1.162178e+002	-7.169440e+001	-3.155596e+001	-7.857614e+001	-1.315940e+002	2.335269e-002	-5.736957e+001
874200000	9.531273e-003	-1.185492e+002	-7.521123e+001	-1.973384e+001	-7.395003e+001	-1.548621e+002	4.759241e-003	-5.843255e+001
890000000	1.523535e-002	-1.206904e+002	-6.986052e+001	-1.338944e+001	-8.229510e+001	-1.788695e+002	2.157250e-002	-5.960717e+001
905800000	1.008185e-003	-1.229769e+002	-7.904869e+001	-3.831027e+001	-7.383441e+001	-1.048818e+002	2.453429e-002	-6.054160e+001
921600000	1.615037e-002	-1.251278e+002	-6.837154e+001	-4.940176e+000	-8.323139e+001	-5.566212e+000	3.205677e-002	-6.157905e+001
937400000	5.900030e-004	-1.274224e+002	-7.652586e+001	5.289180e+001	-8.098645e+001	3.871606e+001	4.043380e-002	-6.267991e+001
953200000	-1.681588e-002	-1.296870e+002	-6.936914e+001	-5.213993e+001	-7.161286e+001	-1.022609e+002	4.055798e-002	-6.365232e+001
969000000	-2.466458e-002	-1.318923e+002	-6.935604e+001	-1.593940e+001	-7.830628e+001	1.738451e+002	3.087848e-002	-6.479468e+001
984800000	-1.811418e-002	-1.341603e+002	-6.528169e+001	-4.466419e+001	-7.463722e+001	-1.773578e+002	2.139483e-002	-6.593967e+001
1000600000	-2.031317e-002	-1.365620e+002	-6.754309e+001	-5.329212e+001	-8.295029e+001	-1.007213e+002	2.343269e-002	-6.703908e+001
1016400000	-2.796913e-002	-1.387986e+002	-6.882283e+001	-6.089718e+001	-7.287318e+001	-1.342416e+002	2.573162e-002	-6.831586e+001
1032200000	-3.284302e-002	-1.411055e+002	-6.538254e+001	-8.617938e+001	-7.625757e+001	-1.489868e+002	2.471123e-002	-6.933725e+001
1048000000	-3.119039e-002	-1.433440e+002	-6.962693e+001	-2.312708e+001	-6.904493e+001	1.399752e+002	2.770214e-002	-7.047414e+001
1063800000	-3.814629e-002	-1.456162e+002	-6.603190e+001	-1.287230e+002	-7.486014e+001	-1.108078e+002	3.127295e-002	-7.158054e+001
1079600000	-3.662261e-002	-1.478517e+002	-6.837767e+001	-6.236848e+001	-7.291413e+001	1.766426e+002	4.702983e-002	-7.255103e+001
1095400000	-3.711474e-002	-1.500173e+002	-6.604677e+001	-1.359400e+002	-6.969445e+001	1.345546e+002	3.585998e-002	-7.362002e+001
1111200000	-3.671916e-002	-1.522863e+002	-7.407372e+001	-9.400224e+001	-7.857540e+001	-1.176710e+002	6.041160e-002	-7.460114e+001
1127000000	-5.899516e-002	-1.545038e+002	-6.679850e+001	-1.332255e+002	-6.964679e+001	1.472428e+002	3.845291e-002	-7.564469e+001
1142800000	-5.774301e-002	-1.568159e+002	-6.481340e+001	-1.660560e+002	-8.485100e+001	1.044802e+002	3.771934e-002	-7.661019e+001
1158600000	-7.660471e-002	-1.590583e+002	-6.511101e+001	-1.771338e+002	-7.231852e+001	7.691771e+001	2.716596e-002	-7.781424e+001
1174400000	-7.978108e-002	-1.614274e+002	-7.114553e+001	-1.766365e+002	-7.420309e+001	3.526005e+001	1.565588e-002	-7.900999e+001
1190200000	-8.159697e-002	-1.637052e+002	-6.721640e+001	1.330612e+002	-7.029021e+001	4.209251e+001	2.050580e-002	-8.022444e+001
1206000000	-8.301097e-002	-1.660241e+002	-7.516866e+001	9.134933e+001	-9.130920e+001	-1.333198e+002	1.658656e-002	-8.137145e+001
1221800000	-8.228802e-002	-1.682490e+002	-7.627839e+001	1.763853e+002	-6.990160e+001	1.248319e+002	2.392990e-002	-8.249958e+001
1237600000	-8.853160e-002	-1.704921e+002	-7.101835e+001	1.150236e+002	-8.485772e+001	1.142775e+002	2.337439e-002	-8.366182e+001
1253400000	-8.802245e-002	-1.726790e+002	-6.791763e+001	4.904304e+001	-7.242146e+001	1.218116e+002	3.832812e-002	-8.480373e+001
1269200000	-1.019949e-001	-1.749456e+002	-7.557239e+001	5.289508e+001	-8.291531e+001	1.008452e+002	4.285661e-002	-8.577971e+001
1285000000	-1.199199e-001	-1.771891e+002	-7.505469e+001	1.679179e+001	-7.598950e+001	2.483356e+001	3.918871e-002	-8.683262e+001
1300800000	-1.236011e-001	-1.794287e+002	-8.388293e+001	-3.925752e+001	-7.245277e+001	1.092815e+002	3.947314e-002	-8.778986e+001
1316600000	-1.574922e-001	1.783224e+002	-8.254339e+001	1.371923e+002	-8.592254e+001	6.202060e+001	3.416162e-002	-8.884540e+001
1332400000	-1.517638e-001	1.761057e+002	-8.033991e+001	1.016345e+001	-7.512451e+001	7.708757e+001	2.755592e-002	-8.996920e+001
1348200000	-1.497419e-001	1.738232e+002	-7.962385e+001	-2.405297e+001	-8.069461e+001	1.073522e+001	1.568717e-002	-9.109626e+001
1364000000	-1.567891e-001	1.715505e+002	-7.387788e+001	-1.457456e+002	-7.365884e+001	1.045800e+002	9.466857e-003	-9.232843e+001
1379800000	-1.615833e-001	1.692437e+002	-7.087319e+001	-8.794320e+001	-7.579618e+001	5.003478e+001	1.412250e-002	-9.343508e+001
1395600000	-1.639853e-001	1.670216e+002	-6.596481e+001	-1.451001e+002	-8.121115e+001	1.403489e+001	6.274219e-003	-9.465163e+001
1411400000	-1.654397e-001	1.647628e+002	-6.865999e+001	-1.595680e+002	-7.074339e+001	5.982739e+001	3.371656e-002	-9.586048e+001
1427200000	-1.938762e-001	1.626143e+002	-7.043881e+001	1.274364e+002	-6.682457e+001	-3.602023e+000	2.817169e-002	-9.702623e+001
1443000000	-1.620476e-001	1.604993e+002	-6.661014e+001	-1.394914e+002	-7.314171e+001	-3.009279e+001	3.356376e-002	-9.822017e+001
1458800000	-1.627761e-001	1.582184e+002	-7.177937e+001	-1.295878e+002	-8.251282e+001	-1.157774e+002	3.416632e-002	-9.922962e+001
1474600000	-1.677572e-001	1.558912e+002	-7.822916e+001	1.641960e+002	-7.815463e+001	-1.794239e+001	3.036102e-002	-1.002509e+002
1490400000	-1.871513e-001	1.535517e+002	-7.088383e+001	1.627135e+002	-6.960267e+001	-1.252649e+002	5.845947e-002	-1.013954e+002
1506200000	-1.923570e-001	1.512569e+002	-7.361912e+001	-1.187263e+002	-8.105773e+001	-7.137525e+000	2.995476e-002	-1.022969e+002
1522000000	-1.985701e-001	1.490598e+002	-6.783976e+001	1.791116e+002	-7.489760e+001	-1.384567e+002	3.295156e-002	-1.034506e+002
1537800000	-1.993060e-001	1.467547e+002	-6.751479e+001	1.330049e+002	-7.549527e+001	4.883784e+001	3.729657e-002	-1.046040e+002
1553600000	-2.076565e-001	1.445251e+002	-6.665302e+001	1.361078e+002	-7.177198e+001	-3.671256e+001	2.455978e-002	-1.058408e+002
1569400000	-2.101866e-001	1.423830e+002	-7.245399e+001	1.441290e+002	-8.127153e+001	5.567040e+001	1.510164e-002	-1.069968e+002
1585200000	-2.114297e-001	1.402095e+002	-6.848633e+001	1.144391e+002	-7.498200e+001	1.439377e+002	1.594537e-002	-1.081867e+002
1601000000	-2.153925e-001	1.379803e+002	-7.074751e+001	7.047601e+001	-7.836599e+001	3.175355e+001	2.232245e-002	-1.094559e+002
1616800000	-2.263112e-001	1.357458e+002	-6.913313e+001	1.188666e+002	-7.544925e+001	8.268683e+000	3.064509e-002	-1.106691e+002
1632600000	-2.392685e-001	1.334390e+002	-6.789762e+001	1.192591e+002	-7.379045e+001	8.806070e-001	4.435143e-002	-1.117952e+002
1648400000	-2.467376e-001	1.311369e+002	-7.418476e+001	1.385017e+002	-7.910472e+001	-6.467282e+001	2.202522e-002	-1.128460e+002
1664200000	-2.645237e-001	1.288514e+002	-7.556464e+001	1.417063e+002	-7.623945e+001	-4.723897e+001	3.013460e-002	-1.141476e+002
1680000000	-2.837005e-001	1.267337e+002	-6.948921e+001	7.618752e+001	-7.353402e+001	2.676727e+001	1.644834e-002	-1.153030e+002
1695800000	-2.789441e-001	1.244572e+002	-7.205028e+001	1.301572e+002	-7.468156e+001	-9.942860e+001	2.051198e-002	-1.163163e+002
1711600000	-2.868802e-001	1.222300e+002	-7.550275e+001	7.627781e+001	-7.484785e+001	-3.109555e+001	1.315314e-002	-1.176144e+002
1727400000	-2.806027e-001	1.200332e+002	-7.503185e+001	3.285567e+001	-7.584996e+001	-4.460756e+001	6.401103e-003	-1.187488e+002
1743200000	-2.912257e-001	1.178112e+002	-7.640547e+001	4.224634e+001	-7.467360e+001	-6.943076e+001	5.731317e-003	-1.198434e+002
1759000000	-2.789525e-001	1.156359e+002	-7.156231e+001	-2.912764e+001	-8.595319e+001	6.393961e+001	1.764323e-002	-1.210559e+002
1774800000	-3.027838e-001	1.134456e+002	-6.780762e+001	-9.559039e+001	-7.043138e+001	-3.972868e+001	2.246073e-002	-1.220365e+002
1790600000	-3.341339e-001	1.110713e+002	-6.556216e+001	-1.120726e+002	-8.968247e+001	-3.206194e+001	2.074842e-002	-1.233409e+002
1806400000	-3.598147e-001	1.087524e+002	-6.471332e+001	-1.364303e+002	-7.371214e+001	-1.201023e+002	2.103711e-002	-1.244107e+002
1822200000	-4.061342e-001	1.064547e+002	-6.276845e+001	-1.645513e+002	-6.873829e+001	-3.228515e+000	1.453979e-002	-1.256414e+002
1838000000	-4.403205e-001	1.042950e+002	-5.980472e+001	-1.691770e+002	-7.575899e+001	-1.874947e-001	1.525693e-003	-1.269403e+002
1853800000	-4.398476e-001	1.021778e+002	-5.942907e+001	-1.578164e+002	-6.689313e+001	-5.085103e+000	-1.962360e-002	-1.280588e+002
1869600000	-4.315862e-001	1.001292e+002	-5.725074e+001	-1.597255e+002	-6.583542e+001	-3.298074e+001	-2.306186e-002	-1.293706e+002
1885400000	-4.702903e-001	9.800047e+001	-5.420201e+001	-1.672761e+002	-6.756976e+001	-6.352961e+001	-2.019276e-002	-1.306085e+002
1901200000	-4.789731e-001	9.599040e+001	-5.072211e+001	-1.746595e+002	-6.583091e+001	-6.772487e+001	-3.194989e-002	-1.317919e+002
1917000000	-5.031052e-001	9.403688e+001	-4.901922e+001	1.666071e+002	-6.418632e+001	-9.075581e+001	-2.793072e-002	-1.329183e+002
1932800000	-5.422194e-001	9.199979e+001	-4.690187e+001	1.440452e+002	-6.455386e+001	-1.209464e+002	-3.315409e-002	-1.339993e+002
1948600000	-5.637300e-001	9.018955e+001	-4.645163e+001	1.202551e+002	-6.840015e+001	-1.549286e+002	-5.091461e-004	-1.350752e+002
1964400000	-5.790117e-001	8.821505e+001	-4.672610e+001	1.061212e+002	-6.597437e+001	-1.500502e+002	5.664245e-004	-1.362507e+002
1980200000	-6.033973e-001	8.626950e+001	-4.821141e+001	9.698807e+001	-6.497562e+001	1.658566e+002	-3.843876e-003	-1.372384e+002
1996000000	-5.859269e-001	8.410865e+001	-4.867471e+001	9.259931e+001	-6.896518e+001	-1.302202e+002	-8.526915e-003	-1.385090e+002
2011800000	-5.665953e-001	8.186920e+001	-4.800159e+001	9.418334e+001	-6.770642e+001	-1.505793e+002	-4.095223e-002	-1.396918e+002
2027600000	-5.525099e-001	7.969038e+001	-4.693291e+001	8.618075e+001	-6.853075e+001	1.514598e+002	-5.665617e-002	-1.408880e+002
2043400000	-5.445972e-001	7.739515e+001	-4.480849e+001	8.909195e+001	-6.354385e+001	1.450939e+002	-7.441749e-002	-1.420823e+002
2059200000	-5.614677e-001	7.555272e+001	-4.292650e+001	7.176423e+001	-6.126343e+001	1.004415e+002	-6.654368e-002	-1.432800e+002
2075000000	-5.010943e-001	7.365195e+001	-4.282937e+001	6.024324e+001	-7.461947e+001	-5.360723e+001	-7.861935e-002	-1.446170e+002
2090800000	-5.105012e-001	7.167262e+001	-4.223900e+001	5.361062e+001	-7.181724e+001	-7.233465e+001	-5.031747e-002	-1.458992e+002
2106600000	-4.823846e-001	6.971186e+001	-4.153017e+001	3.979636e+001	-7.531762e+001	-6.729024e+001	-3.209375e-002	-1.471218e+002
2122400000	-4.771079e-001	6.796912e+001	-4.088222e+001	2.900658e+001	-8.619240e+001	-4.815746e+001	-2.200752e-002	-1.483387e+002
2138200000	-4.483184e-001	6.593134e+001	-4.043257e+001	1.765578e+001	-7.334420e+001	1.507686e+002	-7.342922e-003	-1.493285e+002
2154000000	-4.172470e-001	6.381869e+001	-4.038254e+001	4.012685e+000	-7.467109e+001	-1.742887e+002	-4.526462e-003	-1.503995e+002
2169800000	-4.051875e-001	6.146825e+001	-4.084650e+001	-4.777855e+000	-8.412881e+001	-1.289623e+002	-6.027733e-003	-1.514311e+002
2185600000	-3.965204e-001	5.914319e+001	-4.052285e+001	-1.166266e+001	-7.089984e+001	-7.131031e+001	1.240950e-002	-1.524978e+002
2201400000	-3.959269e-001	5.675431e+001	-4.036686e+001	-2.105720e+001	-7.554714e+001	1.657627e+002	1.903798e-004	-1.538037e+002
2217200000	-3.686836e-001	5.450057e+001	-4.008043e+001	-3.015566e+001	-8.418899e+001	9.127934e+001	-1.260401e-002	-1.551764e+002
2233000000	-3.647780e-001	5.223376e+001	-4.014388e+001	-3.785936e+001	-8.322372e+001	-1.262027e+001	-3.121691e-002	-1.566673e+002
2248800000	-3.556100e-001	5.007524e+001	-4.088111e+001	-4.693226e+001	-6.592493e+001	1.652955e+002	-3.603297e-002	-1.580778e+002
2264600000	-3.410361e-001	4.812033e+001	-4.064424e+001	-5.267864e+001	-6.662429e+001	5.410415e+001	-4.890408e-002	-1.593907e+002
2280400000	-3.353428e-001	4.596503e+001	-4.048280e+001	-5.460515e+001	-6.975312e+001	3.650064e+001	-5.748818e-002	-1.606947e+002
2296200000	-3.275039e-001	4.406984e+001	-4.005459e+001	-6.369700e+001	-6.768558e+001	-6.396151e+001	-5.293249e-002	-1.618185e+002
2312000000	-3.304791e-001	4.194953e+001	-3.981013e+001	-7.179930e+001	-6.904952e+001	-7.769021e+001	-5.314398e-002	-1.629687e+002
2327800000	-3.336740e-001	3.971845e+001	-4.021750e+001	-7.972245e+001	-7.522999e+001	-7.803572e+001	-4.447645e-002	-1.639207e+002
2343600000	-3.471721e-001	3.761585e+001	-4.032814e+001	-8.711567e+001	-7.910327e+001	-1.755393e+002	-3.688705e-002	-1.649936e+002
2359400000	-3.345005e-001	3.533796e+001	-4.039713e+001	-9.351688e+001	-6.946564e+001	-1.543852e+002	-4.287654e-002	-1.660562e+002
2375200000	-3.444081e-001	3.280235e+001	-4.083015e+001	-1.005612e+002	-6.762915e+001	1.347568e+002	-6.509345e-002	-1.672872e+002
2391000000	-3.329834e-001	3.055190e+001	-4.135326e+001	-1.033727e+002	-6.854457e+001	1.312172e+002	-7.018756e-002	-1.684541e+002
2406800000	-3.122253e-001	2.835244e+001	-4.123304e+001	-1.061493e+002	-7.165463e+001	1.223269e+002	-8.476276e-002	-1.699631e+002
2422600000	-2.983475e-001	2.621466e+001	-4.072811e+001	-1.069092e+002	-8.392285e+001	7.185471e+001	-8.570290e-002	-1.713896e+002
2438400000	-2.920079e-001	2.410076e+001	-4.061702e+001	-1.087776e+002	-6.882240e+001	4.810938e+001	-9.594925e-002	-1.727177e+002
2454200000	-2.823786e-001	2.193205e+001	-3.979534e+001	-1.144646e+002	-7.737336e+001	4.717012e+001	-1.059071e-001	-1.740321e+002
2470000000	-2.868759e-001	1.990505e+001	-3.905043e+001	-1.195418e+002	-8.138295e+001	-1.226537e+002	-1.019228e-001	-1.753115e+002
2485800000	-2.667015e-001	1.772279e+001	-3.861203e+001	-1.289448e+002	-7.380502e+001	1.495939e+002	-8.698754e-002	-1.765152e+002
