!Agilent Technologies,E5071C,MY46214845,A.10.06
!Date: Fri Jan 10 10:18:07 2025
!Data & Calibration Information:
!Freq	S11:SOLT2(ON)	S21:SOLT2(ON)	S12:SOLT2(ON)	S22:SOLT2(ON)
!PortZ  Port1:50+j0    Port2:50+j0
!Above PortZ is port z conversion or system Z0 setting when saving the data.
!When reading, reference impedance value at option line is always used.
# Hz S dB R 50
100000000	1.263713e-003	-8.596676e+000	-8.149504e+001	-1.701814e+002	-7.978095e+001	1.584624e+002	-3.616756e-002	1.765104e+002
115800000	-5.029691e-003	-9.948942e+000	-6.894777e+001	-3.259961e+001	-7.667090e+001	-4.746525e+001	-6.211524e-002	1.760236e+002
131600000	3.963751e-003	-1.123484e+001	-7.941328e+001	-1.468133e+002	-7.598096e+001	-1.731036e+002	-4.834228e-002	1.755740e+002
147400000	-9.536406e-003	-1.265938e+001	-8.788975e+001	-1.056007e+002	-7.561472e+001	-1.434974e+002	-5.550684e-002	1.749910e+002
163200000	-9.198217e-003	-1.407675e+001	-8.505994e+001	-9.305841e+001	-7.890202e+001	-1.094132e+002	-4.996745e-002	1.744766e+002
179000000	-1.142123e-002	-1.538651e+001	-7.912694e+001	9.553642e+001	-8.882974e+001	1.787505e+002	-5.726035e-002	1.740169e+002
194800000	-3.993516e-003	-1.677000e+001	-7.840645e+001	1.172429e+002	-8.314562e+001	7.288236e+001	-6.362639e-002	1.735207e+002
210600000	9.232741e-003	-1.816938e+001	-7.796450e+001	-3.624160e+001	-7.253777e+001	1.572931e+002	-6.756520e-002	1.730212e+002
226400000	8.127122e-003	-1.950023e+001	-7.575961e+001	-1.246088e+001	-7.501110e+001	1.698614e+002	-7.951060e-002	1.724838e+002
242200000	1.318986e-002	-2.087045e+001	-7.187289e+001	1.534530e+001	-7.866018e+001	-3.546292e+001	-8.397440e-002	1.720048e+002
258000000	1.217869e-002	-2.219312e+001	-7.767965e+001	-1.311027e+001	-8.265898e+001	2.303807e+001	-8.725107e-002	1.715118e+002
273800000	5.217675e-003	-2.360412e+001	-6.867968e+001	1.369931e+002	-8.431158e+001	-1.045601e+002	-8.487724e-002	1.709133e+002
289600000	9.567372e-003	-2.498295e+001	-7.457899e+001	4.331563e+001	-8.826786e+001	-7.107090e+001	-9.444262e-002	1.703146e+002
305400000	1.373888e-002	-2.639520e+001	-8.184969e+001	-7.255110e+001	-7.298231e+001	-5.667007e+001	-7.713439e-002	1.699532e+002
321200000	1.514627e-003	-2.776130e+001	-7.233281e+001	1.160977e+001	-7.636533e+001	1.456833e+001	-8.446534e-002	1.694114e+002
337000000	1.272391e-002	-2.921201e+001	-8.284971e+001	1.642885e+002	-7.316741e+001	1.688949e+002	-8.286106e-002	1.689639e+002
352800000	-9.971582e-004	-3.057484e+001	-7.436157e+001	-1.256393e+002	-7.822599e+001	1.161798e+002	-8.924060e-002	1.684338e+002
368600000	1.257107e-002	-3.193042e+001	-7.735472e+001	9.458621e+001	-8.106405e+001	-5.089236e+001	-8.752062e-002	1.679787e+002
384400000	1.513045e-002	-3.337775e+001	-7.800163e+001	-1.004020e+002	-8.069596e+001	-1.684608e+002	-8.740698e-002	1.675011e+002
400200000	1.459915e-002	-3.472219e+001	-7.131793e+001	8.084157e+001	-8.459175e+001	-1.708274e+002	-1.031048e-001	1.668829e+002
416000000	2.268998e-002	-3.613756e+001	-7.037151e+001	9.106786e+001	-7.356579e+001	8.387036e+001	-1.112691e-001	1.665880e+002
431800000	2.716971e-002	-3.748875e+001	-7.347888e+001	6.281980e+000	-7.364704e+001	1.523656e+002	-1.116600e-001	1.658815e+002
447600000	1.828551e-002	-3.897288e+001	-8.446552e+001	5.845857e+001	-8.071464e+001	1.724701e+002	-1.015827e-001	1.653359e+002
463400000	3.143582e-002	-4.038810e+001	-7.247411e+001	1.054690e+002	-8.489717e+001	-1.723370e+002	-1.036002e-001	1.649024e+002
479200000	3.314865e-002	-4.186564e+001	-8.279624e+001	5.217478e+001	-8.573894e+001	-4.057770e+001	-1.078418e-001	1.644042e+002
495000000	2.066585e-002	-4.331756e+001	-7.186202e+001	-9.905275e+001	-7.650449e+001	-1.483044e+002	-1.001205e-001	1.639025e+002
510800000	2.593203e-002	-4.490144e+001	-7.360504e+001	-1.385104e+002	-7.664194e+001	1.677240e+002	-9.720604e-002	1.634505e+002
526600000	1.517313e-002	-4.621910e+001	-8.832434e+001	1.775747e+002	-7.276858e+001	1.676889e+002	-9.811313e-002	1.629784e+002
542400000	5.346960e-004	-4.781998e+001	-7.179440e+001	1.180679e+002	-7.873290e+001	5.934990e+001	-1.053118e-001	1.624713e+002
558200000	-2.559494e-003	-4.940336e+001	-7.305983e+001	1.491779e+002	-7.862811e+001	-5.552626e+001	-1.115835e-001	1.619208e+002
574000000	-1.152927e-001	-5.125940e+001	-5.998816e+001	1.175985e+002	-7.139906e+001	-1.050480e+002	-1.090840e-001	1.614459e+002
589800000	-8.333004e-002	-5.076746e+001	-5.906194e+001	-1.322179e+001	-8.634646e+001	-4.363448e+001	-1.251531e-001	1.608436e+002
605600000	1.435421e-002	-5.264613e+001	-6.676072e+001	-6.010345e+001	-7.978774e+001	-1.636652e+002	-1.179417e-001	1.604063e+002
621400000	3.111636e-002	-5.434280e+001	-7.990242e+001	1.878119e+001	-8.209541e+001	-7.886099e+001	-1.248592e-001	1.598287e+002
637200000	3.509609e-002	-5.588868e+001	-8.105788e+001	1.023438e+001	-7.503334e+001	1.619000e+002	-1.275972e-001	1.593418e+002
653000000	3.294754e-002	-5.749279e+001	-7.188308e+001	1.521498e+002	-8.379227e+001	-9.521832e+001	-1.148597e-001	1.588608e+002
668800000	3.591026e-002	-5.907501e+001	-7.576864e+001	1.383706e+002	-8.394119e+001	-8.587033e+001	-1.170634e-001	1.584159e+002
684600000	3.016775e-002	-6.061458e+001	-9.056618e+001	7.017899e+001	-7.440634e+001	3.190928e+001	-1.167796e-001	1.579283e+002
700400000	3.981563e-002	-6.203899e+001	-7.561632e+001	2.537980e+001	-7.963429e+001	-1.175623e+002	-1.166936e-001	1.574462e+002
716200000	3.203613e-002	-6.365147e+001	-7.384904e+001	-7.260019e+001	-1.006031e+002	7.470275e+001	-1.179885e-001	1.570168e+002
732000000	4.749129e-002	-6.509928e+001	-7.717590e+001	1.008734e+002	-7.616173e+001	-1.205029e+002	-1.233333e-001	1.564172e+002
747800000	3.952252e-002	-6.655023e+001	-6.970877e+001	-3.059128e+001	-7.218271e+001	-1.063260e+002	-1.291679e-001	1.559524e+002
763600000	4.149852e-002	-6.813139e+001	-7.786633e+001	1.702317e+002	-8.666378e+001	-3.411188e+001	-1.424425e-001	1.553816e+002
779400000	4.046070e-002	-6.960415e+001	-9.113581e+001	8.122762e+001	-8.520965e+001	-4.968672e+000	-1.398301e-001	1.548405e+002
795200000	3.084613e-002	-7.109820e+001	-8.557701e+001	-1.379499e+002	-7.678022e+001	1.431290e+002	-1.475148e-001	1.542607e+002
811000000	4.082642e-002	-7.274672e+001	-7.360812e+001	-3.286437e+001	-7.658053e+001	-4.760908e+001	-1.368877e-001	1.537585e+002
826800000	4.446863e-002	-7.433535e+001	-7.503948e+001	5.475938e+000	-8.553072e+001	1.268600e+002	-1.273568e-001	1.533168e+002
842600000	4.657744e-002	-7.598408e+001	-7.310326e+001	-2.387491e+001	-7.649644e+001	2.765354e+001	-1.181404e-001	1.527786e+002
858400000	4.924885e-002	-7.760432e+001	-7.076425e+001	-9.676047e+001	-8.838144e+001	8.136299e+000	-1.231691e-001	1.523565e+002
874200000	4.789805e-002	-7.919299e+001	-7.680695e+001	-1.717904e+002	-8.645253e+001	3.163486e+000	-1.286264e-001	1.519101e+002
890000000	4.949960e-002	-8.076213e+001	-8.343738e+001	-3.805519e+001	-8.497347e+001	1.234622e+002	-1.253150e-001	1.514625e+002
905800000	3.892751e-002	-8.243221e+001	-7.306564e+001	8.875876e+001	-7.916423e+001	-9.424941e+001	-1.311665e-001	1.509361e+002
921600000	5.364083e-002	-8.392267e+001	-7.560274e+001	8.501192e+001	-7.619186e+001	1.638655e+002	-1.444196e-001	1.504302e+002
937400000	5.039111e-002	-8.554634e+001	-7.470240e+001	1.211318e+002	-7.085756e+001	1.691322e+002	-1.517275e-001	1.498983e+002
953200000	3.773591e-002	-8.720984e+001	-7.525392e+001	1.150161e+002	-8.156080e+001	-9.280346e+001	-1.472821e-001	1.492614e+002
969000000	2.763897e-002	-8.876486e+001	-7.570286e+001	-1.293033e+002	-7.449186e+001	8.000414e+001	-1.570429e-001	1.487645e+002
984800000	5.080245e-002	-9.049951e+001	-7.114164e+001	8.696654e+001	-7.265938e+001	1.110219e+002	-1.565973e-001	1.482490e+002
1000600000	3.901887e-002	-9.231180e+001	-8.095520e+001	-5.880205e+000	-7.076422e+001	8.059049e+001	-1.489141e-001	1.477681e+002
1016400000	3.391637e-002	-9.403192e+001	-9.077167e+001	-1.662705e+001	-7.872196e+001	1.605526e+002	-1.395010e-001	1.472994e+002
1032200000	1.801418e-002	-9.577996e+001	-7.497612e+001	9.780647e+001	-7.599554e+001	1.406622e+002	-1.340443e-001	1.468511e+002
1048000000	1.958782e-002	-9.750322e+001	-7.439551e+001	1.070422e+002	-8.260441e+001	5.923387e+001	-1.319794e-001	1.464029e+002
1063800000	2.035351e-002	-9.933279e+001	-7.790314e+001	-1.166087e+002	-7.123203e+001	-2.324293e+001	-1.376640e-001	1.459085e+002
1079600000	2.249207e-002	-1.011185e+002	-7.729085e+001	-1.688275e+002	-7.641324e+001	1.453859e+002	-1.466350e-001	1.453512e+002
1095400000	3.056976e-002	-1.027941e+002	-7.012900e+001	-8.576170e+001	-7.074655e+001	-9.040981e+001	-1.546797e-001	1.449083e+002
1111200000	3.473932e-002	-1.045321e+002	-7.311593e+001	1.081713e+002	-7.409811e+001	-1.156133e+002	-1.656460e-001	1.443193e+002
1127000000	2.016073e-002	-1.062692e+002	-6.977792e+001	1.735738e+002	-8.026061e+001	1.089890e+002	-1.554346e-001	1.437243e+002
1142800000	2.458921e-002	-1.081632e+002	-8.071669e+001	-1.493446e+002	-7.940408e+001	-1.382227e+002	-1.605388e-001	1.432062e+002
1158600000	3.828935e-003	-1.100082e+002	-7.563912e+001	1.635931e+002	-8.109284e+001	4.705248e+001	-1.666732e-001	1.426327e+002
1174400000	-1.064578e-002	-1.120278e+002	-7.096981e+001	-1.752750e+002	-7.615622e+001	1.339994e+002	-1.564678e-001	1.421622e+002
1190200000	-1.213993e-002	-1.140099e+002	-7.392501e+001	1.369431e+002	-8.802668e+001	-2.171405e+001	-1.549633e-001	1.416596e+002
1206000000	-1.166048e-002	-1.158978e+002	-7.410493e+001	1.676044e+002	-8.167901e+001	1.714619e+002	-1.481142e-001	1.412035e+002
1221800000	-1.381804e-002	-1.179294e+002	-7.102567e+001	1.714764e+002	-7.888471e+001	-1.983320e+001	-1.536551e-001	1.407321e+002
1237600000	-1.708799e-002	-1.199164e+002	-6.537335e+001	1.592356e+002	-8.481671e+001	-1.515367e+002	-1.493222e-001	1.402373e+002
1253400000	-8.840173e-004	-1.218663e+002	-6.769786e+001	1.576708e+002	-7.118307e+001	3.325705e+001	-1.622805e-001	1.397683e+002
1269200000	-3.581652e-003	-1.239642e+002	-6.606195e+001	1.683317e+002	-7.555372e+001	-1.693882e+002	-1.775646e-001	1.392589e+002
1285000000	-1.771834e-002	-1.259424e+002	-6.417554e+001	1.521971e+002	-7.447511e+001	-1.451197e+002	-1.794158e-001	1.387042e+002
1300800000	-3.924437e-002	-1.280425e+002	-6.429940e+001	1.561749e+002	-7.839005e+001	1.328204e+002	-1.809825e-001	1.381160e+002
1316600000	-7.038587e-002	-1.300959e+002	-6.487043e+001	1.391645e+002	-7.366345e+001	-2.015032e+001	-1.922428e-001	1.376378e+002
1332400000	-6.794984e-002	-1.322617e+002	-6.068028e+001	1.410968e+002	-8.003172e+001	8.960426e+001	-1.957583e-001	1.370619e+002
1348200000	-9.560520e-002	-1.344085e+002	-5.913730e+001	1.361234e+002	-7.929796e+001	-1.394064e+001	-1.756813e-001	1.365020e+002
1364000000	-1.142073e-001	-1.367096e+002	-5.884495e+001	1.459227e+002	-8.456893e+001	-7.670545e+000	-1.718441e-001	1.359958e+002
1379800000	-1.345817e-001	-1.391078e+002	-5.734853e+001	1.405654e+002	-8.366244e+001	8.328287e+001	-1.709561e-001	1.354831e+002
1395600000	-1.459167e-001	-1.414698e+002	-5.572091e+001	1.341106e+002	-8.133588e+001	-2.843245e+001	-1.590254e-001	1.350673e+002
1411400000	-1.488569e-001	-1.438270e+002	-5.546933e+001	1.294504e+002	-7.827537e+001	1.193271e+002	-1.757406e-001	1.346500e+002
1427200000	-1.624264e-001	-1.462823e+002	-5.423864e+001	1.293954e+002	-8.059224e+001	4.661724e+000	-1.813152e-001	1.341465e+002
1443000000	-1.744862e-001	-1.488036e+002	-5.221570e+001	1.296861e+002	-8.466919e+001	1.560065e+002	-1.747846e-001	1.337519e+002
1458800000	-2.136846e-001	-1.514325e+002	-5.119397e+001	1.279036e+002	-8.410696e+001	3.601067e+001	-1.915744e-001	1.331884e+002
1474600000	-2.481570e-001	-1.540193e+002	-4.925884e+001	1.219879e+002	-8.334723e+001	1.321958e+002	-1.827192e-001	1.325860e+002
1490400000	-2.905520e-001	-1.567398e+002	-4.874281e+001	1.212413e+002	-8.867830e+001	1.523417e+002	-2.002062e-001	1.320364e+002
1506200000	-3.050690e-001	-1.595366e+002	-4.706731e+001	1.147474e+002	-8.784518e+001	7.830294e+001	-1.880002e-001	1.315507e+002
1522000000	-3.899720e-001	-1.623996e+002	-4.578028e+001	1.126134e+002	-6.897167e+001	-4.858866e+001	-1.967484e-001	1.308249e+002
1537800000	-4.323267e-001	-1.652405e+002	-4.469421e+001	1.122717e+002	-7.770856e+001	-2.623267e+001	-1.909474e-001	1.303392e+002
1553600000	-4.713564e-001	-1.681088e+002	-4.301736e+001	1.079741e+002	-8.089560e+001	-5.750524e+000	-1.799053e-001	1.298075e+002
1569400000	-5.383012e-001	-1.711999e+002	-4.181306e+001	1.052633e+002	-7.704975e+001	-8.307354e+001	-1.785666e-001	1.293363e+002
1585200000	-6.139276e-001	-1.744427e+002	-4.010440e+001	1.012477e+002	-7.637954e+001	3.297043e+001	-1.739546e-001	1.288439e+002
1601000000	-7.301272e-001	-1.778555e+002	-3.849913e+001	9.628944e+001	-8.828977e+001	-1.014551e+002	-1.804361e-001	1.282955e+002
1616800000	-8.991919e-001	1.785984e+002	-3.702167e+001	9.081541e+001	-7.738052e+001	-1.587030e+002	-2.038195e-001	1.278130e+002
1632600000	-1.159878e+000	1.753080e+002	-3.529257e+001	8.273116e+001	-7.036507e+001	-5.400835e+001	-2.111554e-001	1.271747e+002
1648400000	-1.471253e+000	1.728143e+002	-3.434398e+001	7.106943e+001	-6.949977e+001	-1.421868e+002	-2.014619e-001	1.265302e+002
1664200000	-1.662220e+000	1.717986e+002	-3.447226e+001	5.911047e+001	-7.233904e+001	-1.145815e+002	-2.179225e-001	1.260159e+002
1680000000	-1.507203e+000	1.702232e+002	-3.591655e+001	5.655127e+001	-7.165011e+001	-9.891153e+001	-2.082837e-001	1.254442e+002
1695800000	-1.259443e+000	1.663877e+002	-3.593433e+001	6.428308e+001	-6.737483e+001	-8.437289e+001	-2.004586e-001	1.249356e+002
1711600000	-1.199065e+000	1.616157e+002	-3.439564e+001	6.927181e+001	-6.783512e+001	-1.074286e+002	-2.086358e-001	1.244595e+002
1727400000	-1.252027e+000	1.568163e+002	-3.256742e+001	7.053562e+001	-6.876610e+001	-1.466032e+002	-2.060539e-001	1.239467e+002
1743200000	-1.351586e+000	1.519945e+002	-3.063029e+001	6.919255e+001	-6.640317e+001	-1.045320e+002	-1.934503e-001	1.234084e+002
1759000000	-1.487949e+000	1.470776e+002	-2.874652e+001	6.656058e+001	-6.670284e+001	-1.533578e+002	-2.061531e-001	1.229075e+002
1774800000	-1.707778e+000	1.418709e+002	-2.687591e+001	6.198663e+001	-6.721216e+001	-1.330199e+002	-2.215098e-001	1.222874e+002
1790600000	-2.001253e+000	1.365879e+002	-2.503741e+001	5.699838e+001	-6.787803e+001	-1.547891e+002	-2.187263e-001	1.217781e+002
1806400000	-2.328400e+000	1.312133e+002	-2.362483e+001	5.174073e+001	-6.486696e+001	-1.276017e+002	-2.431522e-001	1.210952e+002
1822200000	-2.693162e+000	1.255101e+002	-2.218731e+001	4.666020e+001	-6.232589e+001	-1.488784e+002	-2.530157e-001	1.204660e+002
1838000000	-3.138099e+000	1.198258e+002	-2.077542e+001	4.098910e+001	-6.394347e+001	-1.565230e+002	-2.535057e-001	1.197855e+002
1853800000	-3.593861e+000	1.143379e+002	-1.938089e+001	3.518964e+001	-5.995282e+001	-1.576259e+002	-2.545220e-001	1.191984e+002
1869600000	-4.073563e+000	1.088616e+002	-1.805309e+001	2.945041e+001	-6.054012e+001	-1.593311e+002	-2.510045e-001	1.185773e+002
1885400000	-4.587052e+000	1.035592e+002	-1.671495e+001	2.331207e+001	-5.839641e+001	-1.601030e+002	-2.532331e-001	1.180046e+002
1901200000	-5.073473e+000	9.806996e+001	-1.535765e+001	1.747045e+001	-5.764121e+001	-1.672769e+002	-2.347770e-001	1.174179e+002
1917000000	-5.571552e+000	9.233025e+001	-1.399294e+001	1.183438e+001	-5.462779e+001	-1.761265e+002	-2.401186e-001	1.168551e+002
1932800000	-6.146882e+000	8.545507e+001	-1.249408e+001	5.868648e+000	-5.339193e+001	1.723606e+002	-2.595623e-001	1.161692e+002
1948600000	-6.915088e+000	7.771472e+001	-1.089894e+001	-8.151633e-001	-5.291609e+001	1.735424e+002	-2.870592e-001	1.153999e+002
1964400000	-7.958005e+000	6.985966e+001	-9.248838e+000	-8.399849e+000	-5.294033e+001	1.663286e+002	-3.285951e-001	1.146412e+002
1980200000	-9.332468e+000	6.317810e+001	-7.596223e+000	-1.708472e+001	-5.169070e+001	1.755727e+002	-3.749823e-001	1.136211e+002
1996000000	-1.085948e+001	5.895834e+001	-5.985721e+000	-2.651227e+001	-4.870666e+001	1.751513e+002	-4.566729e-001	1.126325e+002
2011800000	-1.191147e+001	5.864810e+001	-4.407306e+000	-3.629416e+001	-4.486485e+001	1.669004e+002	-5.017169e-001	1.115231e+002
2027600000	-1.200065e+001	5.904447e+001	-2.835035e+000	-4.614821e+001	-4.187776e+001	1.513397e+002	-6.045190e-001	1.101883e+002
2043400000	-1.120590e+001	5.453412e+001	-1.114333e+000	-5.573569e+001	-3.940975e+001	1.352110e+002	-7.196416e-001	1.088366e+002
2059200000	-1.016167e+001	4.320234e+001	8.906852e-001	-6.567481e+001	-3.673422e+001	1.126290e+002	-9.613954e-001	1.071665e+002
2075000000	-9.279726e+000	2.625856e+001	3.495124e+000	-8.022971e+001	-3.484353e+001	8.756862e+001	-1.438102e+000	1.058450e+002
2090800000	-8.910317e+000	3.062336e+000	6.085192e+000	-1.038292e+002	-3.359022e+001	5.795697e+001	-2.291604e+000	1.076909e+002
2106600000	-9.459200e+000	-2.413622e+001	7.005491e+000	-1.350411e+002	-3.397384e+001	2.511457e+001	-2.595319e+000	1.156568e+002
2122400000	-1.105503e+001	-4.868856e+001	5.989659e+000	-1.638945e+002	-3.578856e+001	-2.313619e+000	-1.802062e+000	1.202435e+002
2138200000	-1.276591e+001	-6.700238e+001	4.337021e+000	1.755799e+002	-3.828263e+001	-1.764280e+001	-1.153385e+000	1.199316e+002
2154000000	-1.390795e+001	-8.152249e+001	2.833312e+000	1.609706e+002	-3.965224e+001	-2.688440e+001	-8.337991e-001	1.186158e+002
2169800000	-1.474085e+001	-9.439377e+001	1.572182e+000	1.496065e+002	-4.004782e+001	-3.580752e+001	-6.316158e-001	1.172643e+002
2185600000	-1.553028e+001	-1.049289e+002	4.798050e-001	1.399597e+002	-4.093552e+001	-4.486042e+001	-5.056497e-001	1.159432e+002
2201400000	-1.628052e+001	-1.119818e+002	-4.915063e-001	1.320450e+002	-4.183880e+001	-5.576254e+001	-4.531433e-001	1.146128e+002
2217200000	-1.687065e+001	-1.155833e+002	-1.302619e+000	1.254004e+002	-4.223263e+001	-6.722572e+001	-4.060670e-001	1.133805e+002
2233000000	-1.692146e+001	-1.165788e+002	-1.960227e+000	1.197948e+002	-4.279911e+001	-7.957669e+001	-3.734443e-001	1.123158e+002
2248800000	-1.641383e+001	-1.195302e+002	-2.420068e+000	1.145061e+002	-4.376677e+001	-9.374456e+001	-3.454841e-001	1.113702e+002
2264600000	-1.595991e+001	-1.259847e+002	-2.771256e+000	1.090824e+002	-4.527597e+001	-1.027097e+002	-3.211590e-001	1.106512e+002
2280400000	-1.575466e+001	-1.328946e+002	-3.074369e+000	1.036018e+002	-4.697734e+001	-1.100155e+002	-2.941269e-001	1.100677e+002
2296200000	-1.584912e+001	-1.402002e+002	-3.366213e+000	9.814007e+001	-4.751146e+001	-1.129676e+002	-2.951832e-001	1.093132e+002
2312000000	-1.612244e+001	-1.458286e+002	-3.630457e+000	9.299199e+001	-4.918589e+001	-1.123760e+002	-2.742727e-001	1.087985e+002
2327800000	-1.659250e+001	-1.488760e+002	-3.858820e+000	8.803256e+001	-5.067903e+001	-1.170867e+002	-2.633688e-001	1.081571e+002
2343600000	-1.687054e+001	-1.487067e+002	-4.068140e+000	8.356479e+001	-5.007541e+001	-1.212505e+002	-2.806280e-001	1.073984e+002
2359400000	-1.686346e+001	-1.480155e+002	-4.139001e+000	7.938210e+001	-5.060895e+001	-1.292146e+002	-2.831945e-001	1.067177e+002
2375200000	-1.659929e+001	-1.480975e+002	-4.182819e+000	7.501630e+001	-5.217900e+001	-1.438142e+002	-2.966034e-001	1.060482e+002
2391000000	-1.644873e+001	-1.498920e+002	-4.147399e+000	7.054373e+001	-5.252281e+001	-1.502141e+002	-3.077371e-001	1.053730e+002
2406800000	-1.643768e+001	-1.524258e+002	-4.086704e+000	6.584662e+001	-5.743859e+001	-1.484706e+002	-3.244154e-001	1.046537e+002
2422600000	-1.654204e+001	-1.549816e+002	-4.021361e+000	6.096077e+001	-5.977612e+001	-1.274023e+002	-3.307080e-001	1.039760e+002
2438400000	-1.674867e+001	-1.579338e+002	-3.904819e+000	5.585665e+001	-5.949381e+001	-1.365616e+002	-3.272926e-001	1.033660e+002
2454200000	-1.723100e+001	-1.605113e+002	-3.790246e+000	5.046950e+001	-5.817100e+001	-1.027246e+002	-3.212953e-001	1.029051e+002
2470000000	-1.785598e+001	-1.610147e+002	-3.718796e+000	4.492223e+001	-5.698662e+001	-1.151645e+002	-3.172391e-001	1.023093e+002
2485800000	-1.816223e+001	-1.576975e+002	-3.713283e+000	3.943375e+001	-5.454791e+001	-1.140182e+002	-3.397365e-001	1.018754e+002
2501600000	-1.777520e+001	-1.541752e+002	-3.723201e+000	3.483011e+001	-5.340301e+001	-1.366700e+002	-3.366256e-001	1.014079e+002
