!Agilent Technologies,E5071C,MY46214845,A.10.06
!Date: Fri Jan 10 10:22:48 2025
!Data & Calibration Information:
!Freq	S11:SOLT2(ON)	S21:SOLT2(ON)	S12:SOLT2(ON)	S22:SOLT2(ON)
!PortZ  Port1:50+j0    Port2:50+j0
!Above PortZ is port z conversion or system Z0 setting when saving the data.
!When reading, reference impedance value at option line is always used.
# Hz S dB R 50
100000000	4.516424e-003	-1.318326e+001	-7.105197e+001	-1.719076e+002	-8.984256e+001	-5.601038e+001	-2.286959e-003	-6.587923e+000
115800000	-4.196494e-003	-1.527211e+001	-7.531224e+001	7.445544e+001	-7.766588e+001	1.524727e+002	-8.621100e-003	-7.599411e+000
131600000	-4.624372e-003	-1.729447e+001	-7.896870e+001	-9.321614e+001	-8.075292e+001	8.031770e+001	-1.232544e-002	-8.663119e+000
147400000	-5.826450e-003	-1.944807e+001	-7.196052e+001	1.230672e+002	-7.897335e+001	1.110584e+002	-1.387639e-002	-9.796051e+000
163200000	7.213878e-003	-2.160926e+001	-7.604577e+001	-3.088722e+001	-8.310229e+001	-1.389873e+001	-9.899415e-003	-1.082438e+001
179000000	-9.211407e-003	-2.364370e+001	-7.573527e+001	-1.120568e-001	-8.457162e+001	-1.668446e+002	-6.020967e-003	-1.184478e+001
194800000	4.569406e-003	-2.570583e+001	-8.056350e+001	5.501761e+001	-9.239814e+001	-1.200391e+002	-4.506755e-004	-1.292777e+001
210600000	8.082616e-003	-2.784367e+001	-9.484713e+001	-2.168504e+001	-7.411203e+001	4.622863e+001	-4.495409e-003	-1.398518e+001
226400000	1.574609e-002	-2.989755e+001	-8.657669e+001	1.291823e+002	-8.820700e+001	7.305901e+001	-4.719839e-004	-1.504598e+001
242200000	1.642394e-002	-3.197919e+001	-8.004004e+001	-5.937393e+001	-7.996209e+001	1.248395e+002	2.497110e-003	-1.600257e+001
258000000	1.943520e-002	-3.404411e+001	-7.652278e+001	8.327019e+001	-7.585291e+001	8.508063e+001	3.922229e-003	-1.704092e+001
273800000	1.571069e-002	-3.616420e+001	-7.502938e+001	1.697844e+002	-8.642247e+001	-1.613264e+002	6.147211e-003	-1.803396e+001
289600000	1.181311e-002	-3.830079e+001	-7.468874e+001	-1.348158e+002	-8.617678e+001	-6.165965e+000	-2.466039e-003	-1.908054e+001
305400000	1.833685e-002	-4.038659e+001	-6.903601e+001	3.477980e+001	-7.324939e+001	-1.070172e+002	-6.640196e-006	-2.004304e+001
321200000	3.112942e-003	-4.248524e+001	-7.940399e+001	9.048808e+001	-8.334085e+001	3.685330e+001	-4.342124e-003	-2.118652e+001
337000000	1.711751e-002	-4.464233e+001	-7.927806e+001	1.547017e+002	-7.682350e+001	1.651712e+002	-4.154106e-003	-2.221783e+001
352800000	1.054258e-002	-4.679694e+001	-8.008238e+001	1.634673e+002	-7.522705e+001	8.159226e+001	-8.556718e-004	-2.338880e+001
368600000	2.175441e-002	-4.885545e+001	-7.849563e+001	-1.105951e+002	-8.142574e+001	1.373622e+002	5.218006e-004	-2.433010e+001
384400000	2.107649e-002	-5.103134e+001	-7.668733e+001	-1.644082e+002	-7.328940e+001	1.375521e+002	-5.656191e-003	-2.542469e+001
400200000	1.584067e-002	-5.307092e+001	-8.564345e+001	1.238811e+002	-7.385037e+001	-3.545470e+001	1.296072e-002	-2.645388e+001
416000000	2.872418e-002	-5.526299e+001	-7.793234e+001	-2.601913e+001	-8.042155e+001	-1.033380e+002	1.021193e-002	-2.750753e+001
431800000	3.704675e-002	-5.734853e+001	-9.084423e+001	-1.608401e+002	-6.974112e+001	-1.647098e+002	1.350771e-002	-2.855654e+001
447600000	2.242757e-002	-5.957060e+001	-8.562484e+001	4.389539e+001	-7.887783e+001	1.553141e+002	7.407325e-004	-2.960986e+001
463400000	3.803856e-002	-6.172207e+001	-7.471927e+001	1.676460e+002	-7.754442e+001	1.066380e+001	1.304217e-003	-3.061556e+001
479200000	3.908378e-002	-6.389861e+001	-9.005304e+001	-1.527186e+002	-7.255465e+001	1.081644e+002	1.666723e-002	-3.166734e+001
495000000	3.310915e-002	-6.593583e+001	-7.556591e+001	2.636100e+000	-8.905900e+001	-5.428902e+000	1.421695e-002	-3.274117e+001
510800000	2.837665e-002	-6.827318e+001	-7.463307e+001	1.465579e+002	-7.453093e+001	1.445489e+002	7.920773e-003	-3.392056e+001
526600000	2.906903e-002	-7.024247e+001	-7.504873e+001	1.597861e+002	-7.495772e+001	-9.884954e+001	1.029256e-002	-3.488694e+001
542400000	3.266887e-002	-7.249715e+001	-7.769108e+001	-1.580615e+002	-7.186073e+001	-7.730230e+001	1.385737e-002	-3.598008e+001
558200000	3.031655e-002	-7.460631e+001	-7.669059e+001	1.120147e+002	-7.977777e+001	-8.096798e+001	1.281808e-002	-3.703587e+001
574000000	2.533183e-002	-7.668350e+001	-7.033113e+001	-1.516412e+002	-7.094675e+001	-8.693562e+000	7.763236e-003	-3.806309e+001
589800000	3.146348e-002	-7.896461e+001	-7.791791e+001	-1.271797e+001	-9.155692e+001	2.484194e+000	2.488676e-002	-3.913171e+001
605600000	3.338430e-002	-8.114116e+001	-7.399272e+001	-1.202350e+002	-8.497784e+001	-1.883934e+001	2.714254e-002	-4.015096e+001
621400000	4.011237e-002	-8.339996e+001	-7.633908e+001	-1.287104e+002	-8.229776e+001	6.880722e+001	1.851337e-002	-4.120492e+001
637200000	3.723467e-002	-8.552310e+001	-7.786484e+001	-1.790474e+002	-8.977265e+001	-5.724901e+001	2.034298e-002	-4.219659e+001
653000000	2.797232e-002	-8.773250e+001	-7.861670e+001	1.590627e+002	-7.716344e+001	1.260130e+002	1.490421e-002	-4.335214e+001
668800000	2.587783e-002	-9.006363e+001	-7.391812e+001	-8.542642e+001	-7.438041e+001	-1.704153e+002	1.063229e-002	-4.447247e+001
684600000	2.853057e-002	-9.224553e+001	-8.196254e+001	6.343644e+001	-7.520307e+001	-1.470396e+002	2.389878e-002	-4.557043e+001
700400000	3.002186e-002	-9.434059e+001	-8.409375e+001	1.614259e+002	-7.937148e+001	-1.177223e+002	1.714916e-002	-4.660095e+001
716200000	2.759120e-002	-9.654137e+001	-7.497055e+001	1.095214e+002	-7.733348e+001	-1.703509e+002	2.124612e-002	-4.772614e+001
732000000	3.690833e-002	-9.872210e+001	-9.711895e+001	1.842352e+001	-7.312520e+001	1.713828e+002	1.781763e-002	-4.871535e+001
747800000	2.667443e-002	-1.008533e+002	-7.599766e+001	-2.406893e+001	-7.447775e+001	7.665111e+001	2.557355e-002	-4.972630e+001
763600000	2.292138e-002	-1.031927e+002	-6.983815e+001	7.480583e+001	-7.426311e+001	9.192989e+001	3.663273e-002	-5.077208e+001
779400000	8.105083e-003	-1.054617e+002	-7.183832e+001	1.778709e+002	-8.091102e+001	-1.178475e+002	3.507165e-002	-5.180069e+001
795200000	-1.648961e-002	-1.078504e+002	-7.168199e+001	-1.304981e+002	-7.478689e+001	-1.564416e+002	3.363655e-002	-5.294249e+001
811000000	-1.323770e-001	-1.100458e+002	-6.575644e+001	1.118763e+002	-7.254640e+001	7.550418e+001	2.751155e-002	-5.401831e+001
826800000	-3.716637e-002	-1.115959e+002	-6.647407e+001	4.001656e+001	-8.042352e+001	3.689990e+001	1.671653e-002	-5.510774e+001
842600000	-1.508489e-002	-1.140794e+002	-7.588266e+001	3.393863e+001	-7.592465e+001	-1.264080e+002	1.052806e-002	-5.615729e+001
858400000	5.034304e-003	-1.163138e+002	-8.484197e+001	1.719822e+002	-7.795938e+001	1.597870e+002	2.334109e-002	-5.728594e+001
874200000	8.168138e-003	-1.185174e+002	-7.962928e+001	9.582660e+000	-6.963372e+001	-5.118703e+001	8.256140e-003	-5.844535e+001
890000000	5.503624e-003	-1.207137e+002	-7.685215e+001	1.973510e+001	-7.245888e+001	1.765500e+000	2.999337e-002	-5.960026e+001
905800000	-2.109013e-004	-1.229974e+002	-7.209706e+001	-1.016561e+001	-8.217251e+001	5.622938e+000	2.762307e-002	-6.048298e+001
921600000	7.253371e-003	-1.251958e+002	-7.243272e+001	1.132130e+002	-8.817282e+001	-1.328493e+002	3.254950e-002	-6.151765e+001
937400000	-2.284969e-002	-1.274586e+002	-7.392296e+001	2.653154e+000	-7.009138e+001	-1.033387e+001	4.018595e-002	-6.268648e+001
953200000	-2.633108e-002	-1.295692e+002	-6.571630e+001	1.912634e+001	-8.177615e+001	9.076339e+001	3.750623e-002	-6.364040e+001
969000000	-2.836799e-002	-1.317591e+002	-7.664943e+001	1.452703e+001	-7.614566e+001	-1.248869e+002	2.280277e-002	-6.476006e+001
984800000	-1.814096e-002	-1.341059e+002	-7.561289e+001	1.075334e+001	-7.935735e+001	-4.084610e-001	1.783335e-002	-6.593193e+001
1000600000	-2.847866e-002	-1.365292e+002	-7.486241e+001	-8.422875e+001	-7.639974e+001	-1.464875e+002	2.616145e-002	-6.701499e+001
1016400000	-2.629080e-002	-1.387395e+002	-6.717001e+001	-1.671478e+001	-7.472192e+001	-2.513092e+001	2.671481e-002	-6.818298e+001
1032200000	-3.175368e-002	-1.410533e+002	-7.932133e+001	3.729551e+001	-7.615315e+001	-1.274837e+002	2.837335e-002	-6.924284e+001
1048000000	-3.162406e-002	-1.433469e+002	-9.755612e+001	1.038728e+002	-9.777649e+001	1.392186e+002	2.867959e-002	-7.036341e+001
1063800000	-3.729637e-002	-1.455942e+002	-7.220765e+001	-8.129250e+001	-7.873405e+001	1.318441e+002	3.403849e-002	-7.152417e+001
1079600000	-3.221628e-002	-1.478243e+002	-7.196374e+001	-7.724680e+000	-7.717274e+001	1.402563e+002	4.398476e-002	-7.245327e+001
1095400000	-3.567403e-002	-1.500181e+002	-8.465733e+001	1.803078e+001	-6.939607e+001	1.604121e+002	3.504906e-002	-7.354975e+001
1111200000	-4.499466e-002	-1.522512e+002	-7.972925e+001	-5.246367e+001	-8.091103e+001	1.404764e+002	5.230421e-002	-7.454136e+001
1127000000	-5.147289e-002	-1.544964e+002	-7.671399e+001	-2.842299e+000	-7.741176e+001	-1.613474e+002	3.365993e-002	-7.561263e+001
1142800000	-6.022812e-002	-1.568335e+002	-8.069875e+001	-1.302879e+001	-7.857378e+001	-1.684180e+002	2.990891e-002	-7.657259e+001
1158600000	-8.211070e-002	-1.590506e+002	-6.798695e+001	-1.068952e+002	-7.402959e+001	-1.353663e+002	2.908284e-002	-7.775295e+001
1174400000	-8.281069e-002	-1.614152e+002	-8.339684e+001	-6.853591e+001	-7.649737e+001	1.065165e+002	1.331796e-002	-7.886580e+001
1190200000	-8.718359e-002	-1.636816e+002	-7.179964e+001	-6.697845e+001	-8.383985e+001	-4.508035e+001	2.255275e-002	-8.015383e+001
1206000000	-8.362877e-002	-1.659433e+002	-7.518970e+001	-1.131924e+002	-9.387161e+001	-1.110709e+002	1.182768e-002	-8.130124e+001
1221800000	-8.802012e-002	-1.681961e+002	-7.608665e+001	-4.130268e+001	-8.494188e+001	7.583717e+001	1.734144e-002	-8.248183e+001
1237600000	-8.949951e-002	-1.704226e+002	-7.223231e+001	-1.245393e+002	-7.680056e+001	1.336618e+002	2.223869e-002	-8.358690e+001
1253400000	-8.615433e-002	-1.726500e+002	-6.783833e+001	-1.158937e+002	-7.538675e+001	2.076031e+001	4.088619e-002	-8.470798e+001
1269200000	-9.840864e-002	-1.749332e+002	-7.171221e+001	-8.251122e+001	-7.630874e+001	-1.327659e+002	3.477971e-002	-8.570218e+001
1285000000	-1.236100e-001	-1.772130e+002	-6.737830e+001	-1.313042e+002	-7.872131e+001	8.294757e+001	3.811093e-002	-8.674802e+001
1300800000	-1.247925e-001	-1.794439e+002	-6.574766e+001	-1.540068e+002	-9.415250e+001	4.898776e+001	3.452297e-002	-8.772593e+001
1316600000	-1.513603e-001	1.782849e+002	-7.685392e+001	-1.306368e+002	-6.748506e+001	1.289122e+002	2.991840e-002	-8.878236e+001
1332400000	-1.452862e-001	1.760252e+002	-8.150517e+001	-1.453565e+002	-7.328766e+001	1.360932e+002	2.288156e-002	-8.990808e+001
1348200000	-1.516660e-001	1.737137e+002	-6.334271e+001	-1.337581e+002	-7.305894e+001	5.499400e+001	1.808740e-002	-9.109166e+001
1364000000	-1.553734e-001	1.714676e+002	-6.485053e+001	-1.583942e+002	-6.831983e+001	6.894519e+001	6.602055e-003	-9.218111e+001
1379800000	-1.576863e-001	1.691502e+002	-6.639246e+001	-1.514537e+002	-7.947908e+001	5.590676e+001	1.782792e-002	-9.336593e+001
1395600000	-1.639305e-001	1.669515e+002	-6.483732e+001	-1.550648e+002	-8.678396e+001	-1.351654e+002	-2.025199e-003	-9.456848e+001
1411400000	-1.645175e-001	1.646906e+002	-6.663157e+001	-1.661337e+002	-7.682310e+001	4.784649e+001	3.318439e-002	-9.582974e+001
1427200000	-1.950387e-001	1.625356e+002	-7.718980e+001	1.695139e+002	-6.468911e+001	1.647117e+001	3.185573e-002	-9.692090e+001
1443000000	-1.620881e-001	1.605157e+002	-7.165824e+001	-1.720596e+002	-7.084867e+001	-9.702889e+001	3.109334e-002	-9.807333e+001
1458800000	-1.754161e-001	1.581696e+002	-7.506465e+001	1.267717e+002	-8.501834e+001	1.136990e+002	3.180700e-002	-9.908946e+001
1474600000	-1.766298e-001	1.558574e+002	-7.181747e+001	1.756932e+002	-7.342852e+001	1.570013e+001	3.588583e-002	-1.000957e+002
1490400000	-1.961100e-001	1.535559e+002	-8.345538e+001	3.320144e+001	-8.376186e+001	-1.878839e+000	5.359186e-002	-1.013146e+002
1506200000	-1.935266e-001	1.511244e+002	-8.239534e+001	1.668052e+002	-7.132548e+001	-3.203815e+000	3.476143e-002	-1.022128e+002
1522000000	-2.039152e-001	1.489671e+002	-6.803835e+001	-1.786300e+002	-7.852832e+001	-1.081776e+002	3.203520e-002	-1.033555e+002
1537800000	-2.054067e-001	1.467267e+002	-7.525946e+001	-1.471140e+002	-6.939986e+001	7.792619e+001	3.040467e-002	-1.045179e+002
1553600000	-2.026690e-001	1.444404e+002	-7.310580e+001	1.486265e+002	-7.220318e+001	1.824824e+000	2.909010e-002	-1.057919e+002
1569400000	-2.190601e-001	1.422707e+002	-6.538852e+001	-1.604104e+002	-7.725649e+001	3.860897e+001	5.909407e-003	-1.069505e+002
1585200000	-2.209096e-001	1.400802e+002	-6.749961e+001	-1.391291e+002	-7.163522e+001	-2.227560e+001	1.680976e-002	-1.081177e+002
1601000000	-2.369545e-001	1.378906e+002	-6.499054e+001	-1.779195e+002	-7.435405e+001	-7.880562e+001	2.289894e-002	-1.093564e+002
1616800000	-2.449924e-001	1.356903e+002	-6.614923e+001	-1.724365e+002	-6.575511e+001	-1.809751e+001	2.690955e-002	-1.105766e+002
1632600000	-2.495432e-001	1.334742e+002	-6.315067e+001	-1.776272e+002	-7.264711e+001	-3.656536e+001	4.918177e-002	-1.116659e+002
1648400000	-2.606800e-001	1.311354e+002	-6.071447e+001	1.705778e+002	-7.933297e+001	-3.568860e+001	1.881679e-002	-1.127209e+002
1664200000	-2.769276e-001	1.288668e+002	-6.250051e+001	1.628920e+002	-7.663430e+001	-4.595445e+001	2.739235e-002	-1.139450e+002
1680000000	-2.917690e-001	1.266603e+002	-7.012637e+001	1.522990e+002	-7.557312e+001	-1.150829e+002	1.577654e-002	-1.151144e+002
1695800000	-2.919603e-001	1.244483e+002	-6.279314e+001	1.766339e+002	-7.705875e+001	-4.852007e+001	7.155532e-003	-1.162147e+002
1711600000	-2.937770e-001	1.221621e+002	-6.878596e+001	-1.707652e+002	-7.087575e+001	-9.038264e+001	1.180244e-002	-1.173918e+002
1727400000	-2.971119e-001	1.199463e+002	-6.283074e+001	1.463287e+002	-8.026144e+001	-1.014814e+002	1.546717e-002	-1.185869e+002
1743200000	-2.988529e-001	1.177743e+002	-5.911968e+001	1.371193e+002	-7.105444e+001	-9.953758e+001	-6.865211e-003	-1.197612e+002
1759000000	-2.999801e-001	1.156264e+002	-6.489848e+001	1.426064e+002	-7.041274e+001	1.750696e+002	1.823180e-002	-1.209918e+002
1774800000	-3.313626e-001	1.134003e+002	-6.101493e+001	1.584508e+002	-7.472425e+001	2.950345e+001	2.330469e-002	-1.219268e+002
1790600000	-3.665954e-001	1.111891e+002	-5.991827e+001	1.653189e+002	-6.942091e+001	-8.017069e+001	1.826694e-002	-1.232211e+002
1806400000	-3.855446e-001	1.089714e+002	-5.740181e+001	1.614983e+002	-6.636373e+001	-1.124383e+002	2.047534e-002	-1.242636e+002
1822200000	-4.194793e-001	1.066199e+002	-5.418833e+001	1.712757e+002	-6.770607e+001	-1.314218e+002	1.610067e-002	-1.254638e+002
1838000000	-4.528509e-001	1.046003e+002	-5.118571e+001	1.439430e+002	-7.035654e+001	1.545331e+002	-5.716796e-003	-1.267789e+002
1853800000	-4.295614e-001	1.026568e+002	-5.245543e+001	1.243217e+002	-7.724587e+001	1.507556e+002	-1.789166e-002	-1.278837e+002
1869600000	-4.172140e-001	1.005891e+002	-5.259363e+001	1.103067e+002	-8.209662e+001	4.583338e+001	-2.247059e-002	-1.292428e+002
1885400000	-4.146256e-001	9.842167e+001	-5.291294e+001	1.020582e+002	-6.871732e+001	-4.178814e+000	-2.475402e-002	-1.303748e+002
1901200000	-3.950042e-001	9.625184e+001	-5.354084e+001	9.576385e+001	-6.852960e+001	-1.919240e+001	-4.290658e-002	-1.316439e+002
1917000000	-3.911298e-001	9.400074e+001	-5.490938e+001	1.061708e+002	-8.067846e+001	-5.017832e+001	-2.810689e-002	-1.327836e+002
1932800000	-4.207636e-001	9.158057e+001	-5.258938e+001	1.346624e+002	-6.029899e+001	-3.187808e+001	-2.748378e-002	-1.339277e+002
1948600000	-4.585528e-001	8.925459e+001	-4.891620e+001	1.330963e+002	-6.601232e+001	-8.995725e+001	-4.233387e-003	-1.349733e+002
1964400000	-5.869759e-001	8.683468e+001	-4.459866e+001	1.270046e+002	-6.520543e+001	-1.175659e+002	-1.150435e-002	-1.361185e+002
1980200000	-7.935250e-001	8.534662e+001	-4.111840e+001	9.890739e+001	-6.642238e+001	-1.339324e+002	-5.355226e-003	-1.371464e+002
1996000000	-7.327437e-001	8.454279e+001	-4.087895e+001	6.677675e+001	-6.567764e+001	-1.717336e+002	-1.251078e-002	-1.384158e+002
2011800000	-6.085439e-001	8.249009e+001	-4.192432e+001	4.819949e+001	-6.971594e+001	-1.651102e+002	-4.255167e-002	-1.395072e+002
2027600000	-5.447984e-001	8.005360e+001	-4.282012e+001	3.984368e+001	-6.692106e+001	1.254729e+002	-6.175187e-002	-1.407099e+002
2043400000	-5.147757e-001	7.761812e+001	-4.360543e+001	3.506363e+001	-6.266092e+001	1.137666e+002	-8.150383e-002	-1.419045e+002
2059200000	-5.155701e-001	7.551642e+001	-4.218772e+001	3.187727e+001	-5.966034e+001	8.361593e+001	-7.042922e-002	-1.431539e+002
2075000000	-4.687073e-001	7.344770e+001	-4.229416e+001	2.331561e+001	-6.395104e+001	-2.766426e+001	-7.739846e-002	-1.444337e+002
2090800000	-5.096330e-001	7.138423e+001	-4.205280e+001	1.642879e+001	-6.520828e+001	-9.928573e+001	-5.635955e-002	-1.458019e+002
2106600000	-5.235657e-001	6.957842e+001	-4.029779e+001	1.091273e+001	-6.220491e+001	-1.372591e+002	-3.296019e-002	-1.470307e+002
2122400000	-4.973590e-001	6.802539e+001	-3.948847e+001	-7.985406e+000	-6.526908e+001	-1.661848e+002	-2.317688e-002	-1.482623e+002
2138200000	-4.461756e-001	6.605253e+001	-3.945861e+001	-2.135210e+001	-6.845042e+001	1.626372e+002	-1.382663e-002	-1.492345e+002
2154000000	-4.040070e-001	6.395534e+001	-3.988375e+001	-3.434837e+001	-6.653801e+001	1.481882e+002	-8.071893e-003	-1.503145e+002
2169800000	-3.852104e-001	6.152549e+001	-4.038985e+001	-4.338573e+001	-7.117284e+001	5.641013e+001	-1.543002e-002	-1.513399e+002
2185600000	-3.634451e-001	5.908129e+001	-4.143604e+001	-5.228591e+001	-6.721156e+001	1.162031e+002	1.447183e-002	-1.524179e+002
2201400000	-3.665285e-001	5.661134e+001	-4.136893e+001	-5.838919e+001	-6.981815e+001	1.023637e+002	1.064819e-004	-1.537425e+002
2217200000	-3.549717e-001	5.434480e+001	-4.198814e+001	-6.420388e+001	-7.295650e+001	9.379271e+001	-4.489249e-003	-1.550578e+002
2233000000	-3.546874e-001	5.209729e+001	-4.191658e+001	-6.656534e+001	-6.896254e+001	1.410819e+002	-1.049440e-002	-1.564856e+002
2248800000	-3.395529e-001	4.995770e+001	-4.208104e+001	-7.171186e+001	-7.296736e+001	1.101342e+002	-4.230675e-002	-1.578676e+002
2264600000	-3.307920e-001	4.798263e+001	-4.183736e+001	-7.538868e+001	-7.428860e+001	1.252987e+002	-4.776136e-002	-1.591820e+002
2280400000	-3.298817e-001	4.576488e+001	-4.138648e+001	-8.042881e+001	-6.899449e+001	8.570676e+001	-5.792616e-002	-1.605260e+002
2296200000	-3.283201e-001	4.385433e+001	-4.113697e+001	-8.421116e+001	-6.527260e+001	5.794465e+001	-5.252970e-002	-1.616389e+002
2312000000	-3.429036e-001	4.174768e+001	-4.069088e+001	-9.392941e+001	-7.007942e+001	6.371703e+000	-5.184321e-002	-1.628280e+002
2327800000	-3.449588e-001	3.958206e+001	-4.071370e+001	-1.034027e+002	-6.596314e+001	8.863246e+001	-4.458552e-002	-1.638160e+002
2343600000	-3.448029e-001	3.738108e+001	-4.097142e+001	-1.134697e+002	-6.676348e+001	8.469786e+000	-4.509584e-002	-1.649468e+002
2359400000	-3.442385e-001	3.507448e+001	-4.167211e+001	-1.188136e+002	-6.766105e+001	-3.819631e+001	-4.415451e-002	-1.659780e+002
2375200000	-3.622773e-001	3.272426e+001	-4.260014e+001	-1.211621e+002	-6.724402e+001	-7.196111e+001	-5.320460e-002	-1.672192e+002
2391000000	-3.420987e-001	3.046903e+001	-4.302051e+001	-1.240138e+002	-6.951846e+001	-4.226387e+001	-6.582104e-002	-1.684183e+002
2406800000	-3.273822e-001	2.826794e+001	-4.304842e+001	-1.255539e+002	-9.041359e+001	-3.842204e+001	-9.175993e-002	-1.698485e+002
2422600000	-3.097034e-001	2.614596e+001	-4.278621e+001	-1.267802e+002	-7.187033e+001	-3.435827e+001	-8.765914e-002	-1.712427e+002
2438400000	-3.038218e-001	2.406284e+001	-4.174046e+001	-1.265412e+002	-6.539742e+001	-1.044664e+002	-9.975540e-002	-1.725836e+002
2454200000	-2.966844e-001	2.189875e+001	-4.079743e+001	-1.312473e+002	-6.831135e+001	-8.367308e+001	-1.047561e-001	-1.738369e+002
2470000000	-2.896123e-001	1.983064e+001	-4.071971e+001	-1.374560e+002	-6.889086e+001	-1.462490e+002	-1.004268e-001	-1.751262e+002
2485800000	-2.821232e-001	1.768482e+001	-4.026160e+001	-1.464932e+002	-7.529855e+001	-8.419201e+001	-8.357356e-002	-1.763162e+002
2501600000	-2.987351e-001	1.566023e+001	-4.004333e+001	-1.551489e+002	-7.909950e+001	1.292843e+002	-9.052325e-002	-1.774892e+002
