!Agilent Technologies,E5071C,MY46214845,A.10.06
!Date: Fri Jan 10 11:00:47 2025
!Data & Calibration Information:
!Freq	S11:SOLT2(ON)	S21:SOLT2(ON)	S12:SOLT2(ON)	S22:SOLT2(ON)
!PortZ  Port1:50+j0    Port2:50+j0
!Above PortZ is port z conversion or system Z0 setting when saving the data.
!When reading, reference impedance value at option line is always used.
# Hz S dB R 50
100000000	-1.402338e-003	-1.320093e+001	-7.423965e+001	-2.489077e+001	-8.002094e+001	7.435115e+001	-5.564062e-003	-6.608881e+000
115800000	-5.190934e-003	-1.524144e+001	-7.464028e+001	-1.631263e+002	-7.632641e+001	-5.457774e+000	-7.286424e-003	-7.600733e+000
131600000	2.307866e-003	-1.729429e+001	-7.294305e+001	1.621559e+002	-6.835661e+001	-3.961865e+001	-1.349152e-002	-8.591429e+000
147400000	-2.887083e-003	-1.938111e+001	-7.497735e+001	-1.623184e+002	-6.980569e+001	4.242347e+001	-1.460250e-002	-9.687147e+000
163200000	6.529302e-003	-2.157134e+001	-7.358886e+001	-1.549596e+001	-8.702891e+001	-1.305042e+002	-1.367603e-002	-1.078614e+001
179000000	-1.308553e-002	-2.360329e+001	-7.664806e+001	-8.169767e+001	-7.636592e+001	-1.591022e+002	-9.321934e-003	-1.178068e+001
194800000	2.745644e-003	-2.573449e+001	-7.659590e+001	1.155037e+002	-8.191562e+001	5.581264e+001	-9.401609e-003	-1.291264e+001
210600000	5.143893e-003	-2.777261e+001	-7.490686e+001	-3.399064e-001	-7.779666e+001	-1.034284e+002	-3.785769e-003	-1.393370e+001
226400000	1.442267e-002	-2.987490e+001	-8.259756e+001	-1.055704e+001	-8.494866e+001	2.140154e+001	5.973890e-004	-1.501220e+001
242200000	1.781997e-002	-3.195278e+001	-7.882264e+001	-6.132266e+001	-7.982213e+001	1.631032e+002	-2.610687e-003	-1.599831e+001
258000000	1.775842e-002	-3.403103e+001	-7.329015e+001	1.569121e+002	-8.031189e+001	-1.375836e+002	6.455884e-003	-1.702234e+001
273800000	1.341147e-002	-3.615746e+001	-7.951793e+001	1.622987e+002	-9.039775e+001	-9.982801e+001	2.982822e-003	-1.804191e+001
289600000	1.925087e-002	-3.831847e+001	-7.761861e+001	1.040937e+002	-8.403274e+001	1.883759e+001	-7.329219e-003	-1.907519e+001
305400000	1.506514e-002	-4.035238e+001	-8.122968e+001	1.676789e+002	-9.711101e+001	5.996068e+001	7.264732e-003	-2.008227e+001
321200000	9.279817e-003	-4.252617e+001	-8.127155e+001	-1.995940e+001	-7.665065e+001	5.599912e+001	1.648654e-003	-2.123457e+001
337000000	9.492649e-003	-4.468990e+001	-7.156690e+001	1.614182e+002	-7.707963e+001	-4.714920e+001	-1.469908e-002	-2.221553e+001
352800000	1.292865e-002	-4.677913e+001	-7.420497e+001	-1.955935e+001	-8.144287e+001	-1.778732e+002	-3.287523e-003	-2.342270e+001
368600000	2.412752e-002	-4.887089e+001	-8.186121e+001	1.566440e+002	-8.125432e+001	-6.397739e+001	-9.803947e-003	-2.435096e+001
384400000	2.411227e-002	-5.104919e+001	-9.538077e+001	1.337975e+002	-7.898907e+001	3.808621e+001	5.059140e-004	-2.543354e+001
400200000	1.778064e-002	-5.307533e+001	-8.063860e+001	1.317928e+002	-7.658509e+001	-8.182074e+001	1.866332e-002	-2.647583e+001
416000000	2.658516e-002	-5.526251e+001	-7.378180e+001	-3.506958e+001	-8.562906e+001	-1.624317e+002	8.023362e-003	-2.750977e+001
431800000	3.772399e-002	-5.731462e+001	-9.084580e+001	-1.404019e+002	-6.992276e+001	1.032020e+002	1.330648e-002	-2.859036e+001
447600000	1.910335e-002	-5.953440e+001	-7.684945e+001	-1.222862e+002	-8.522075e+001	-6.022249e+001	3.238209e-003	-2.960559e+001
463400000	3.544743e-002	-6.167807e+001	-9.138588e+001	-1.163763e+001	-7.058345e+001	1.555423e+002	4.880082e-003	-3.061418e+001
479200000	3.032024e-002	-6.388718e+001	-8.193725e+001	5.291954e+001	-7.112427e+001	5.289632e+001	1.724330e-002	-3.162582e+001
495000000	2.504090e-002	-6.598732e+001	-7.571616e+001	-5.839316e+001	-7.954466e+001	5.558522e+001	6.171059e-003	-3.270090e+001
510800000	3.024678e-002	-6.829044e+001	-7.346696e+001	-7.312212e+000	-7.902467e+001	1.894572e+001	1.104206e-002	-3.389079e+001
526600000	2.524275e-002	-7.029439e+001	-7.289174e+001	8.718793e+001	-7.504615e+001	-6.121217e+001	-2.898230e-003	-3.489417e+001
542400000	2.820218e-002	-7.251120e+001	-7.878455e+001	-7.042152e+001	-9.383603e+001	1.599535e+002	2.070540e-002	-3.592171e+001
558200000	3.006926e-002	-7.461591e+001	-7.890549e+001	-5.020980e+000	-7.548502e+001	-6.775211e+001	9.526652e-003	-3.702962e+001
574000000	2.778980e-002	-7.664534e+001	-7.570634e+001	-1.681179e+002	-7.677290e+001	6.836268e+001	1.190451e-002	-3.805071e+001
589800000	2.782879e-002	-7.892465e+001	-7.666035e+001	-8.133043e+001	-9.110009e+001	1.549564e+001	2.411341e-002	-3.917121e+001
605600000	3.895478e-002	-8.111336e+001	-7.966747e+001	-2.305584e+001	-8.171453e+001	-3.039943e+001	3.086959e-002	-4.014740e+001
621400000	4.577995e-002	-8.335047e+001	-7.814103e+001	6.406285e+001	-8.147944e+001	1.568207e+002	2.204194e-002	-4.119547e+001
637200000	4.355208e-002	-8.553653e+001	-7.710024e+001	1.413811e+002	-7.994357e+001	1.242773e+002	1.738677e-002	-4.224841e+001
653000000	2.254377e-002	-8.777690e+001	-7.238395e+001	1.047430e+002	-7.849001e+001	3.516278e-001	2.435805e-002	-4.338502e+001
668800000	2.955909e-002	-9.002639e+001	-7.554109e+001	4.942324e+001	-7.629868e+001	-5.884501e+001	-7.409110e-004	-4.450671e+001
684600000	3.175109e-002	-9.222538e+001	-8.055020e+001	8.736131e+001	-7.458912e+001	8.911168e+001	2.926653e-002	-4.555666e+001
700400000	3.105167e-002	-9.439863e+001	-7.897684e+001	-3.985763e+001	-7.261140e+001	-7.782887e+001	1.093917e-002	-4.656970e+001
716200000	2.868041e-002	-9.663558e+001	-7.310820e+001	-1.334978e+002	-7.387687e+001	-1.682738e+002	2.609691e-002	-4.771263e+001
732000000	3.081902e-002	-9.875586e+001	-7.519080e+001	3.327633e+001	-7.747200e+001	3.669198e+000	2.187231e-002	-4.873781e+001
747800000	3.027517e-002	-1.009426e+002	-7.889071e+001	1.566904e+002	-6.960457e+001	1.159685e+002	2.656946e-002	-4.976964e+001
763600000	1.761316e-002	-1.031795e+002	-7.933290e+001	1.005488e+002	-7.757780e+001	6.358450e+001	3.740304e-002	-5.081263e+001
779400000	9.331558e-003	-1.054720e+002	-7.711971e+001	-6.798616e+001	-7.280773e+001	3.155983e+001	3.391507e-002	-5.185016e+001
795200000	-2.810631e-002	-1.079184e+002	-6.712785e+001	-1.095842e+002	-7.561618e+001	1.784460e+002	3.390786e-002	-5.296660e+001
811000000	-2.006619e-001	-1.097500e+002	-6.617032e+001	-1.713994e+002	-8.263787e+001	2.570293e+001	2.260103e-002	-5.403791e+001
826800000	-2.619332e-002	-1.113397e+002	-6.700562e+001	1.468523e+002	-7.304756e+001	1.626836e+001	2.204330e-002	-5.514252e+001
842600000	5.403725e-003	-1.138941e+002	-8.122344e+001	9.207887e+001	-7.206316e+001	1.680934e+002	1.017255e-002	-5.628016e+001
858400000	2.069912e-002	-1.162248e+002	-8.053301e+001	1.603090e+002	-8.290554e+001	1.787325e+002	2.321751e-002	-5.734551e+001
874200000	1.494653e-002	-1.184956e+002	-7.371320e+001	1.080281e+002	-7.518762e+001	-8.525620e+001	-4.509472e-003	-5.839289e+001
890000000	9.969464e-003	-1.206810e+002	-8.025691e+001	4.039107e+001	-8.172159e+001	1.587719e+002	2.093077e-002	-5.957732e+001
905800000	6.654799e-003	-1.229329e+002	-7.092181e+001	4.894950e+001	-9.032041e+001	1.142736e+001	2.539940e-002	-6.047799e+001
921600000	1.090817e-002	-1.251076e+002	-7.307987e+001	7.175628e+000	-7.186655e+001	-9.546052e+001	3.050065e-002	-6.155352e+001
937400000	9.071768e-003	-1.273343e+002	-7.966700e+001	-1.750335e+000	-7.769943e+001	1.323598e+002	3.876742e-002	-6.266592e+001
953200000	-3.656554e-003	-1.296952e+002	-7.126688e+001	4.987763e+001	-7.437916e+001	1.723364e+002	4.076913e-002	-6.363796e+001
969000000	-1.567055e-002	-1.318306e+002	-8.110249e+001	1.534722e+002	-7.312501e+001	-1.107913e+002	3.114957e-002	-6.478226e+001
984800000	-1.406383e-002	-1.341253e+002	-7.064681e+001	-1.538558e+001	-7.834418e+001	1.665759e+002	2.245532e-002	-6.588992e+001
1000600000	-2.059351e-002	-1.364997e+002	-7.611329e+001	-4.619072e+001	-7.462609e+001	-1.563903e+002	1.797573e-002	-6.702905e+001
1016400000	-2.361969e-002	-1.387544e+002	-8.286260e+001	9.488179e+001	-7.289566e+001	-1.547684e+002	1.310149e-002	-6.825246e+001
1032200000	-3.176200e-002	-1.410677e+002	-7.413321e+001	8.897920e+001	-8.091180e+001	1.264870e+002	2.712877e-002	-6.929447e+001
1048000000	-3.301536e-002	-1.433918e+002	-7.373940e+001	1.009294e+002	-7.317257e+001	-1.789452e+002	2.247699e-002	-7.040595e+001
1063800000	-4.693455e-002	-1.456435e+002	-7.649903e+001	7.707123e+001	-9.457617e+001	-1.305296e+002	2.673460e-002	-7.153469e+001
1079600000	-4.857282e-002	-1.478728e+002	-6.394509e+001	3.738389e+001	-7.604341e+001	1.531816e+002	4.188294e-002	-7.250513e+001
1095400000	-5.221949e-002	-1.500420e+002	-7.039981e+001	-1.681062e+001	-7.276904e+001	9.602801e+001	3.934651e-002	-7.359683e+001
1111200000	-5.042370e-002	-1.522104e+002	-6.925072e+001	-2.720526e+001	-7.535240e+001	9.137993e+001	5.706228e-002	-7.457465e+001
1127000000	-6.045661e-002	-1.544397e+002	-7.032093e+001	-2.125008e+001	-7.012915e+001	1.265500e+002	3.914657e-002	-7.561243e+001
1142800000	-6.113431e-002	-1.568051e+002	-6.786331e+001	-1.010401e+002	-8.189730e+001	5.745987e+001	3.298127e-002	-7.659777e+001
1158600000	-7.321015e-002	-1.589715e+002	-6.592463e+001	-6.934314e+001	-7.467991e+001	8.361117e+001	2.667018e-002	-7.779928e+001
1174400000	-9.145056e-002	-1.612699e+002	-6.746805e+001	-1.112615e+002	-7.760582e+001	1.395584e+002	4.671216e-003	-7.892876e+001
1190200000	-7.930359e-002	-1.635760e+002	-6.843006e+001	-1.238014e+002	-7.642857e+001	8.672204e+001	2.754811e-002	-8.013746e+001
1206000000	-7.803324e-002	-1.658426e+002	-6.688029e+001	-9.253797e+001	-7.029944e+001	8.815781e+001	1.683057e-002	-8.129399e+001
1221800000	-7.932771e-002	-1.680515e+002	-6.855950e+001	-1.006074e+002	-6.989088e+001	8.293132e+000	2.242757e-002	-8.247190e+001
1237600000	-8.349132e-002	-1.703546e+002	-6.721147e+001	-1.343139e+002	-7.446247e+001	7.130615e+001	2.540766e-002	-8.362274e+001
1253400000	-8.701343e-002	-1.725680e+002	-6.526476e+001	-1.741606e+002	-7.118386e+001	-1.826008e+001	3.474102e-002	-8.476259e+001
1269200000	-1.012924e-001	-1.748788e+002	-6.434636e+001	-1.366311e+002	-7.270839e+001	1.454417e+002	3.964420e-002	-8.576236e+001
1285000000	-1.159973e-001	-1.771131e+002	-6.819458e+001	-1.508297e+002	-8.573113e+001	-6.594578e+001	4.232761e-002	-8.679058e+001
1300800000	-1.216667e-001	-1.793699e+002	-6.693176e+001	-1.397398e+002	-7.951067e+001	8.732651e+001	3.642131e-002	-8.775935e+001
1316600000	-1.483541e-001	1.783541e+002	-6.529214e+001	-1.677992e+002	-8.244104e+001	1.710505e+002	3.845595e-002	-8.877065e+001
1332400000	-1.373076e-001	1.761310e+002	-7.147957e+001	-1.774888e+002	-7.086907e+001	1.007680e+002	3.381252e-002	-8.998382e+001
1348200000	-1.392694e-001	1.738720e+002	-6.829616e+001	-1.690851e+002	-7.912854e+001	2.918033e+001	1.174794e-002	-9.107049e+001
1364000000	-1.384062e-001	1.715972e+002	-6.737410e+001	1.425878e+002	-8.027611e+001	-8.237558e+001	1.672364e-002	-9.226310e+001
1379800000	-1.369403e-001	1.693157e+002	-6.583948e+001	1.312466e+002	-8.431798e+001	-4.911839e+000	2.495054e-002	-9.339646e+001
1395600000	-1.437368e-001	1.670571e+002	-6.227250e+001	1.066067e+002	-7.781604e+001	-8.093770e+000	9.125045e-003	-9.461273e+001
1411400000	-1.441360e-001	1.647883e+002	-6.363616e+001	1.215615e+002	-7.097440e+001	1.164205e+002	3.286540e-002	-9.585570e+001
1427200000	-1.674995e-001	1.625150e+002	-6.420582e+001	9.819278e+001	-7.007845e+001	6.285459e+001	3.663554e-002	-9.698355e+001
1443000000	-1.665251e-001	1.605243e+002	-7.705440e+001	-4.201354e+001	-6.865973e+001	-1.609902e+001	3.228941e-002	-9.816854e+001
1458800000	-1.663366e-001	1.581342e+002	-7.219133e+001	7.428493e+001	-8.244879e+001	3.525861e+001	3.374592e-002	-9.919207e+001
1474600000	-1.656815e-001	1.558049e+002	-7.648850e+001	-1.554961e+002	-7.160029e+001	-1.376500e+001	3.819201e-002	-1.002082e+002
1490400000	-1.932992e-001	1.534288e+002	-8.144866e+001	-3.258659e+001	-7.891366e+001	1.047498e+002	5.385213e-002	-1.013647e+002
1506200000	-1.875140e-001	1.511433e+002	-6.986948e+001	1.533797e+002	-7.828411e+001	3.239704e+001	3.006481e-002	-1.022796e+002
1522000000	-2.001509e-001	1.489278e+002	-7.214630e+001	1.410898e+002	-7.881746e+001	-7.409223e+001	3.235281e-002	-1.033900e+002
1537800000	-2.058878e-001	1.467283e+002	-6.989803e+001	1.364206e+002	-8.959399e+001	8.085026e+001	2.534453e-002	-1.045978e+002
1553600000	-2.077477e-001	1.445165e+002	-9.355683e+001	-4.412332e+001	-7.273667e+001	8.125074e+001	2.774760e-002	-1.058343e+002
1569400000	-2.102905e-001	1.424102e+002	-7.476377e+001	-1.442100e+002	-8.802323e+001	-1.118157e+002	1.325573e-002	-1.069819e+002
1585200000	-2.161838e-001	1.402557e+002	-7.907081e+001	-1.112095e+002	-7.102243e+001	5.231566e+001	1.388134e-002	-1.081826e+002
1601000000	-2.268985e-001	1.380806e+002	-7.071690e+001	1.684487e+002	-7.511649e+001	-9.359436e+001	2.493910e-002	-1.094304e+002
1616800000	-2.333286e-001	1.357911e+002	-6.976256e+001	1.643001e+002	-7.135202e+001	-5.541740e+001	3.183728e-002	-1.106375e+002
1632600000	-2.471308e-001	1.335336e+002	-6.736742e+001	1.375655e+002	-7.395343e+001	4.887823e+000	4.811568e-002	-1.117315e+002
1648400000	-2.584922e-001	1.312271e+002	-7.173436e+001	1.511148e+002	-6.745984e+001	3.479846e+001	1.717600e-002	-1.127965e+002
1664200000	-2.751167e-001	1.288340e+002	-6.950721e+001	1.307457e+002	-7.584221e+001	-2.412465e+001	1.813407e-002	-1.140458e+002
1680000000	-2.876666e-001	1.266306e+002	-6.891569e+001	1.571419e+002	-8.741836e+001	1.516403e+001	1.611110e-002	-1.151474e+002
1695800000	-2.987839e-001	1.243167e+002	-6.657879e+001	1.067909e+002	-6.752509e+001	2.782829e+001	1.793299e-002	-1.163100e+002
1711600000	-3.088123e-001	1.220883e+002	-7.166577e+001	9.196153e+001	-7.361798e+001	1.164520e+001	1.819797e-002	-1.174664e+002
1727400000	-3.233228e-001	1.199583e+002	-6.657050e+001	1.198839e+002	-6.745712e+001	-3.651955e+001	1.181984e-002	-1.186542e+002
1743200000	-3.416192e-001	1.179263e+002	-6.850128e+001	1.367810e+002	-7.211021e+001	-6.264539e+001	-3.056752e-003	-1.198416e+002
1759000000	-3.225604e-001	1.159404e+002	-6.707871e+001	1.279241e+002	-6.681773e+001	-9.399790e+001	1.756732e-002	-1.209567e+002
1774800000	-3.350269e-001	1.138409e+002	-6.869335e+001	1.514120e+002	-7.041081e+001	-5.370936e+001	1.958479e-002	-1.220025e+002
1790600000	-3.480038e-001	1.116193e+002	-6.109959e+001	1.305357e+002	-6.834185e+001	-1.314070e+002	1.993051e-002	-1.232969e+002
1806400000	-3.552192e-001	1.092284e+002	-6.069857e+001	1.352867e+002	-7.330885e+001	-8.811318e+001	2.075134e-002	-1.243386e+002
1822200000	-3.765779e-001	1.068686e+002	-5.992655e+001	1.280075e+002	-7.012737e+001	-9.419023e+001	1.435579e-002	-1.255171e+002
1838000000	-4.073114e-001	1.044697e+002	-5.939664e+001	9.660993e+001	-7.340203e+001	-1.131956e+002	-2.697954e-003	-1.268882e+002
1853800000	-4.381709e-001	1.022021e+002	-5.752254e+001	1.043693e+002	-8.584072e+001	-1.263152e+002	-1.818570e-002	-1.279904e+002
1869600000	-4.830065e-001	1.001475e+002	-5.381169e+001	9.474904e+001	-8.070416e+001	1.765598e+002	-2.262056e-002	-1.292953e+002
1885400000	-5.122750e-001	9.832160e+001	-5.299852e+001	6.425008e+001	-7.283625e+001	-5.512528e+001	-1.709206e-002	-1.304930e+002
1901200000	-5.081182e-001	9.657093e+001	-5.460640e+001	5.504164e+001	-6.262766e+001	-1.050133e+002	-3.229010e-002	-1.317063e+002
1917000000	-4.587033e-001	9.476422e+001	-5.452265e+001	5.329912e+001	-6.532601e+001	-1.557172e+002	-2.737463e-002	-1.327756e+002
1932800000	-4.468209e-001	9.262893e+001	-5.363273e+001	4.364510e+001	-6.703482e+001	1.431796e+002	-2.466834e-002	-1.339644e+002
1948600000	-4.317166e-001	9.048273e+001	-5.243365e+001	4.161863e+001	-7.111781e+001	-1.016182e+002	-3.575142e-003	-1.350379e+002
1964400000	-4.514760e-001	8.823743e+001	-5.208882e+001	3.691718e+001	-7.914443e+001	4.716151e+001	-3.245523e-003	-1.362141e+002
1980200000	-5.012303e-001	8.617858e+001	-5.039086e+001	1.811197e+001	-6.863772e+001	-9.111937e+001	5.751920e-003	-1.372109e+002
1996000000	-4.995826e-001	8.395455e+001	-5.119286e+001	-6.434755e+000	-8.038160e+001	-7.511824e+001	-1.072201e-002	-1.384236e+002
2011800000	-4.951456e-001	8.170868e+001	-5.279914e+001	-1.688156e+001	-7.501554e+001	-1.327579e+002	-3.215263e-002	-1.396150e+002
2027600000	-4.845403e-001	7.935960e+001	-5.347740e+001	-1.532153e+001	-6.704829e+001	-1.788062e+002	-5.385153e-002	-1.408009e+002
2043400000	-4.911854e-001	7.695653e+001	-5.517621e+001	-1.580457e-001	-6.490961e+001	1.757091e+002	-8.415899e-002	-1.419942e+002
2059200000	-5.399462e-001	7.479450e+001	-5.180688e+001	-5.084093e+000	-6.156044e+001	1.338576e+002	-6.067631e-002	-1.432504e+002
2075000000	-5.441532e-001	7.324746e+001	-4.833678e+001	-1.491275e+001	-5.995206e+001	5.706741e+001	-7.144791e-002	-1.444888e+002
2090800000	-5.292874e-001	7.143572e+001	-4.784894e+001	-3.897911e+001	-6.845534e+001	5.949938e-001	-4.702457e-002	-1.458327e+002
2106600000	-4.790487e-001	6.954594e+001	-4.904946e+001	-5.760795e+001	-6.836306e+001	-3.126777e+001	-3.137780e-002	-1.471075e+002
2122400000	-4.536928e-001	6.765030e+001	-4.916617e+001	-7.020463e+001	-6.492081e+001	-6.110462e+001	-1.996905e-002	-1.482995e+002
2138200000	-4.392293e-001	6.557873e+001	-4.978132e+001	-7.493706e+001	-7.645679e+001	-6.430112e+001	-2.719416e-003	-1.493255e+002
2154000000	-4.283786e-001	6.339510e+001	-5.135559e+001	-7.905649e+001	-6.968251e+001	-1.307025e+002	-1.159899e-003	-1.503705e+002
2169800000	-4.268295e-001	6.115640e+001	-5.132781e+001	-7.906655e+001	-7.881748e+001	-1.130824e+002	-1.527376e-002	-1.514058e+002
2185600000	-4.341817e-001	5.902758e+001	-5.105089e+001	-8.666452e+001	-7.171452e+001	-1.682764e+002	-2.634859e-003	-1.524708e+002
2201400000	-4.343278e-001	5.673552e+001	-5.016826e+001	-8.773496e+001	-7.159810e+001	1.667250e+002	1.946777e-003	-1.537875e+002
2217200000	-4.123413e-001	5.462761e+001	-4.943261e+001	-9.985427e+001	-6.770164e+001	1.740967e+002	-2.363932e-002	-1.551023e+002
2233000000	-3.938970e-001	5.243472e+001	-4.849918e+001	-1.100716e+002	-7.178238e+001	-1.054250e+002	-2.166528e-002	-1.566072e+002
2248800000	-3.662339e-001	5.022099e+001	-4.878338e+001	-1.282001e+002	-6.963946e+001	-1.727947e+002	-4.638147e-002	-1.579648e+002
2264600000	-3.465290e-001	4.817526e+001	-5.024287e+001	-1.414804e+002	-7.324833e+001	8.358734e+001	-4.663977e-002	-1.592425e+002
2280400000	-3.266353e-001	4.588915e+001	-5.278610e+001	-1.395471e+002	-7.809135e+001	8.380497e+001	-5.908209e-002	-1.606129e+002
2296200000	-3.229235e-001	4.395272e+001	-5.429713e+001	-1.307708e+002	-7.315806e+001	1.539182e+002	-4.483548e-002	-1.617338e+002
2312000000	-3.218805e-001	4.176504e+001	-5.290586e+001	-1.386297e+002	-8.956225e+001	8.392727e+001	-4.880726e-002	-1.628563e+002
2327800000	-3.273751e-001	3.956442e+001	-5.224068e+001	-1.396203e+002	-7.745518e+001	3.469212e+001	-4.306563e-002	-1.638935e+002
2343600000	-3.385436e-001	3.742719e+001	-5.102765e+001	-1.348924e+002	-7.118616e+001	1.111996e+002	-3.752587e-002	-1.650477e+002
2359400000	-3.360827e-001	3.522600e+001	-4.974135e+001	-1.487587e+002	-9.218452e+001	2.796478e+001	-5.264676e-002	-1.660490e+002
2375200000	-3.556798e-001	3.281691e+001	-5.015523e+001	-1.559201e+002	-7.630757e+001	1.012128e+002	-6.620307e-002	-1.671746e+002
2391000000	-3.362214e-001	3.069246e+001	-4.929636e+001	-1.641694e+002	-8.980207e+001	-1.146530e+002	-8.544445e-002	-1.684538e+002
2406800000	-3.212072e-001	2.850812e+001	-4.940727e+001	-1.725166e+002	-7.018692e+001	-1.498486e+002	-8.806868e-002	-1.698334e+002
2422600000	-3.125098e-001	2.636031e+001	-4.956125e+001	1.789151e+002	-6.881573e+001	-1.716604e+002	-8.710333e-002	-1.712795e+002
2438400000	-3.008290e-001	2.419556e+001	-4.955989e+001	1.722248e+002	-7.086661e+001	1.286651e+002	-9.631014e-002	-1.725997e+002
2454200000	-2.906134e-001	2.196796e+001	-4.975035e+001	1.664783e+002	-6.715200e+001	1.733073e+002	-1.035586e-001	-1.738384e+002
2470000000	-2.933206e-001	1.982185e+001	-5.022827e+001	1.593282e+002	-7.339192e+001	1.373183e+002	-1.024071e-001	-1.751789e+002
2485800000	-2.793470e-001	1.768809e+001	-5.070345e+001	1.593187e+002	-6.639664e+001	9.707779e+001	-7.899313e-002	-1.763930e+002
2501600000	-2.860550e-001	1.559068e+001	-5.157949e+001	1.431437e+002	-6.814633e+001	1.271100e+002	-9.078945e-002	-1.774968e+002
